! NanoVNA-App
! Date: 2025-08-09 16:39:01
! Start: 65MHz Stop: 95MHz Points: 401
! S-Parameter data: F S11
# Hz S RI R 50
!     Frequency           S11_Real           S11_Imag
       65000000   -5,712348223e-01   -4,563071728e-01
       65075000   -5,741904974e-01   -4,597741663e-01
       65150000   -5,734277964e-01   -4,583405554e-01
       65225000   -5,713016987e-01   -4,574967623e-01
       65300000   -5,728123784e-01   -4,532638192e-01
       65375000   -5,716590285e-01   -4,465978146e-01
       65450000   -5,694547892e-01   -4,442412555e-01
       65525000   -5,726565719e-01   -4,416571856e-01
       65600000   -5,670384765e-01   -4,385434687e-01
       65675000   -5,691321492e-01   -4,369120002e-01
       65750000   -5,680533051e-01   -4,306714833e-01
       65825000   -5,688759685e-01   -4,289827049e-01
       65900000   -5,664550662e-01   -4,272775054e-01
       65975000   -5,674239397e-01   -4,250280559e-01
       66050000   -5,648399591e-01   -4,197243750e-01
       66125000   -5,648146868e-01   -4,191772342e-01
       66200000   -5,632887483e-01   -4,177327156e-01
       66275000   -5,650882721e-01   -4,141580462e-01
       66350000   -5,622603297e-01   -4,141164720e-01
       66425000   -5,628107190e-01   -4,151119888e-01
       66500000   -5,627824664e-01   -4,084309340e-01
       66575000   -5,623495579e-01   -4,067064226e-01
       66650000   -5,618790388e-01   -4,060179889e-01
       66725000   -5,624961853e-01   -4,033897817e-01
       66800000   -5,596830845e-01   -3,968396783e-01
       66875000   -5,598644614e-01   -3,961681128e-01
       66950000   -5,577753782e-01   -3,953566849e-01
       67025000   -5,603002906e-01   -3,931685090e-01
       67100000   -5,586194396e-01   -3,889035583e-01
       67175000   -5,603395700e-01   -3,863906264e-01
       67250000   -5,588617921e-01   -3,877396882e-01
       67325000   -5,592360497e-01   -3,793565333e-01
       67400000   -5,577011704e-01   -3,787640035e-01
       67475000   -5,592928529e-01   -3,775151968e-01
       67550000   -5,578268766e-01   -3,744899333e-01
       67625000   -5,564763546e-01   -3,704182804e-01
       67700000   -5,568284988e-01   -3,686347008e-01
       67775000   -5,572086573e-01   -3,662986755e-01
       67850000   -5,550720096e-01   -3,651769161e-01
       67925000   -5,558269024e-01   -3,616952598e-01
       68000000   -5,539587736e-01   -3,597736657e-01
       68075000   -5,534057021e-01   -3,570839465e-01
       68150000   -5,511066318e-01   -3,536454439e-01
       68225000   -5,530024767e-01   -3,497244120e-01
       68300000   -5,510518551e-01   -3,471619189e-01
       68375000   -5,505107045e-01   -3,454124033e-01
       68450000   -5,504923463e-01   -3,446210027e-01
       68525000   -5,489289761e-01   -3,433401883e-01
       68600000   -5,484928489e-01   -3,384644091e-01
       68675000   -5,473582149e-01   -3,383838534e-01
       68750000   -5,471603870e-01   -3,355710208e-01
       68825000   -5,450802445e-01   -3,336312473e-01
       68900000   -5,451741219e-01   -3,315989971e-01
       68975000   -5,435785651e-01   -3,300115168e-01
       69050000   -5,436242223e-01   -3,261457980e-01
       69125000   -5,416691899e-01   -3,252227902e-01
       69200000   -5,417143106e-01   -3,228205740e-01
       69275000   -5,390569568e-01   -3,212420642e-01
       69350000   -5,393872857e-01   -3,175003231e-01
       69425000   -5,374529958e-01   -3,173398376e-01
       69500000   -5,365843773e-01   -3,140027523e-01
       69575000   -5,360647440e-01   -3,135301173e-01
       69650000   -5,348727107e-01   -3,106090426e-01
       69725000   -5,341182351e-01   -3,105216622e-01
       69800000   -5,329732895e-01   -3,069925904e-01
       69875000   -5,320209861e-01   -3,072654307e-01
       69950000   -5,321102142e-01   -3,060486019e-01
       70025000   -5,300781727e-01   -3,031634092e-01
       70100000   -5,295860171e-01   -3,036218286e-01
       70175000   -5,300802588e-01   -3,012201190e-01
       70250000   -5,277740359e-01   -3,016306758e-01
       70325000   -5,282381773e-01   -2,993132770e-01
       70400000   -5,267544985e-01   -2,981576622e-01
       70475000   -5,279880166e-01   -2,965304255e-01
       70550000   -5,272824168e-01   -2,936766446e-01
       70625000   -5,273301005e-01   -2,937638164e-01
       70700000   -5,271314979e-01   -2,926945686e-01
       70775000   -5,263327360e-01   -2,908958197e-01
       70850000   -5,281178355e-01   -2,893488705e-01
       70925000   -5,274487138e-01   -2,865612507e-01
       71000000   -5,270860195e-01   -2,858719528e-01
       71075000   -5,273713470e-01   -2,819351554e-01
       71150000   -5,262768865e-01   -2,804718912e-01
       71225000   -5,255039334e-01   -2,795185447e-01
       71300000   -5,265945196e-01   -2,759497464e-01
       71375000   -5,251648426e-01   -2,760272920e-01
       71450000   -5,244899392e-01   -2,714434266e-01
       71525000   -5,238698125e-01   -2,705730796e-01
       71600000   -5,233607292e-01   -2,673414946e-01
       71675000   -5,205962062e-01   -2,666191459e-01
       71750000   -5,212548971e-01   -2,640436292e-01
       71825000   -5,189986229e-01   -2,629470527e-01
       71900000   -5,203102827e-01   -2,622784674e-01
       71975000   -5,180961490e-01   -2,596360743e-01
       72050000   -5,158899426e-01   -2,573990524e-01
       72125000   -5,154692531e-01   -2,563757300e-01
       72200000   -5,139855146e-01   -2,548489571e-01
       72275000   -5,131290555e-01   -2,547518015e-01
       72350000   -5,122950673e-01   -2,536667287e-01
       72425000   -5,118178725e-01   -2,530524135e-01
       72500000   -5,102597475e-01   -2,518267930e-01
       72575000   -5,110191703e-01   -2,518786490e-01
       72650000   -5,113404989e-01   -2,503876686e-01
       72725000   -5,092930198e-01   -2,493121475e-01
       72800000   -5,104603171e-01   -2,496769577e-01
       72875000   -5,092506409e-01   -2,480635047e-01
       72950000   -5,104940534e-01   -2,481667995e-01
       73025000   -5,107796788e-01   -2,470209897e-01
       73100000   -5,116993189e-01   -2,450054288e-01
       73175000   -5,106911063e-01   -2,451250106e-01
       73250000   -5,113888979e-01   -2,438183278e-01
       73325000   -5,122062564e-01   -2,417201847e-01
       73400000   -5,109849572e-01   -2,408270091e-01
       73475000   -5,126727223e-01   -2,397249788e-01
       73550000   -5,120866895e-01   -2,371612638e-01
       73625000   -5,134508014e-01   -2,353794575e-01
       73700000   -5,128765106e-01   -2,338902056e-01
       73775000   -5,138515234e-01   -2,324963808e-01
       73850000   -5,139909983e-01   -2,306780219e-01
       73925000   -5,139513612e-01   -2,293567955e-01
       74000000   -5,147374868e-01   -2,261272371e-01
       74075000   -5,131589174e-01   -2,254559398e-01
       74150000   -5,142529011e-01   -2,242596149e-01
       74225000   -5,147091746e-01   -2,226233482e-01
       74300000   -5,131304264e-01   -2,194990367e-01
       74375000   -5,151370168e-01   -2,188230157e-01
       74450000   -5,138468742e-01   -2,153175324e-01
       74525000   -5,135145187e-01   -2,149001062e-01
       74600000   -5,144323111e-01   -2,118264437e-01
       74675000   -5,132454634e-01   -2,113480419e-01
       74750000   -5,140476823e-01   -2,088673413e-01
       74825000   -5,127708912e-01   -2,073612809e-01
       74900000   -5,133151412e-01   -2,059226036e-01
       74975000   -5,125098228e-01   -2,033368349e-01
       75050000   -5,131825209e-01   -2,025075555e-01
       75125000   -5,119570494e-01   -1,994122267e-01
       75200000   -5,127446055e-01   -1,989630014e-01
       75275000   -5,111579895e-01   -1,953734159e-01
       75350000   -5,121664405e-01   -1,956561059e-01
       75425000   -5,113601685e-01   -1,927253008e-01
       75500000   -5,105741620e-01   -1,920748502e-01
       75575000   -5,107335448e-01   -1,894036084e-01
       75650000   -5,107649565e-01   -1,886196285e-01
       75725000   -5,097073317e-01   -1,855743080e-01
       75800000   -5,105527639e-01   -1,852498055e-01
       75875000   -5,093609095e-01   -1,829270124e-01
       75950000   -5,106570125e-01   -1,826084852e-01
       76025000   -5,102319121e-01   -1,804127544e-01
       76100000   -5,085326433e-01   -1,789421737e-01
       76175000   -5,093277693e-01   -1,779984087e-01
       76250000   -5,085368752e-01   -1,751802266e-01
       76325000   -5,091617107e-01   -1,743267030e-01
       76400000   -5,075442195e-01   -1,734042317e-01
       76475000   -5,077596307e-01   -1,712437719e-01
       76550000   -5,086450577e-01   -1,707453430e-01
       76625000   -5,074166656e-01   -1,686684638e-01
       76700000   -5,087568164e-01   -1,676767766e-01
       76775000   -5,089638233e-01   -1,663664579e-01
       76850000   -5,081005096e-01   -1,653311849e-01
       76925000   -5,088612437e-01   -1,649681330e-01
       77000000   -5,100890994e-01   -1,627149433e-01
       77075000   -5,105458498e-01   -1,609100103e-01
       77150000   -5,113444328e-01   -1,599231362e-01
       77225000   -5,131704211e-01   -1,577571481e-01
       77300000   -5,147079825e-01   -1,543407440e-01
       77375000   -5,140018463e-01   -1,523388326e-01
       77450000   -5,143653750e-01   -1,494599581e-01
       77525000   -5,146830082e-01   -1,462644488e-01
       77600000   -5,135518312e-01   -1,455252022e-01
       77675000   -5,145893097e-01   -1,436984241e-01
       77750000   -5,131618381e-01   -1,404723525e-01
       77825000   -5,131322145e-01   -1,387146860e-01
       77900000   -5,140478015e-01   -1,371131092e-01
       77975000   -5,129181147e-01   -1,340106726e-01
       78050000   -5,130038261e-01   -1,331945956e-01
       78125000   -5,147606134e-01   -1,308377534e-01
       78200000   -5,132259130e-01   -1,284144074e-01
       78275000   -5,140480995e-01   -1,267844290e-01
       78350000   -5,144283175e-01   -1,253395677e-01
       78425000   -5,151749849e-01   -1,223609671e-01
       78500000   -5,138196945e-01   -1,203768104e-01
       78575000   -5,149745345e-01   -1,180780306e-01
       78650000   -5,139007568e-01   -1,169474497e-01
       78725000   -5,146303177e-01   -1,141486317e-01
       78800000   -5,152398944e-01   -1,118441597e-01
       78875000   -5,143787265e-01   -1,104915366e-01
       78950000   -5,159233212e-01   -1,075633317e-01
       79025000   -5,147644877e-01   -1,055245399e-01
       79100000   -5,163272023e-01   -1,030661166e-01
       79175000   -5,160406828e-01   -9,940903634e-02
       79250000   -5,167132616e-01   -9,797527641e-02
       79325000   -5,173285007e-01   -9,398329258e-02
       79400000   -5,171782970e-01   -9,344809502e-02
       79475000   -5,178785324e-01   -8,965442330e-02
       79550000   -5,171934962e-01   -8,717868477e-02
       79625000   -5,183301568e-01   -8,472111821e-02
       79700000   -5,184277892e-01   -8,161762357e-02
       79775000   -5,188403726e-01   -7,877589762e-02
       79850000   -5,191744566e-01   -7,537059486e-02
       79925000   -5,185908675e-01   -7,249917835e-02
       80000000   -5,179807544e-01   -6,853843480e-02
       80075000   -5,191659927e-01   -6,591972709e-02
       80150000   -5,180650949e-01   -6,414300948e-02
       80225000   -5,190233588e-01   -6,071359292e-02
       80300000   -5,185952783e-01   -5,619570985e-02
       80375000   -5,177617073e-01   -5,340372771e-02
       80450000   -5,180953741e-01   -4,974972084e-02
       80525000   -5,169118047e-01   -4,713386297e-02
       80600000   -5,177551508e-01   -4,389782622e-02
       80675000   -5,162401199e-01   -3,995125741e-02
       80750000   -5,161679387e-01   -3,641741350e-02
       80825000   -5,155186057e-01   -3,314349055e-02
       80900000   -5,148194432e-01   -3,119298071e-02
       80975000   -5,143490434e-01   -2,657569945e-02
       81050000   -5,129858255e-01   -2,364703454e-02
       81125000   -5,129421949e-01   -2,042404562e-02
       81200000   -5,115789771e-01   -1,687962934e-02
       81275000   -5,112911463e-01   -1,391518209e-02
       81350000   -5,095928311e-01   -1,009364240e-02
       81425000   -5,095878839e-01   -7,649244275e-03
       81500000   -5,084282160e-01   -3,243515268e-03
       81575000   -5,069133043e-01   -7,005397929e-04
       81650000   -5,064701438e-01    2,722474048e-03
       81725000   -5,056348443e-01    6,335059647e-03
       81800000   -5,030800700e-01    9,735066444e-03
       81875000   -5,032969117e-01    1,320379414e-02
       81950000   -5,009829402e-01    1,621780545e-02
       82025000   -5,012041926e-01    2,035964653e-02
       82100000   -4,995355010e-01    2,370883897e-02
       82175000   -4,986964166e-01    2,691243775e-02
       82250000   -4,968102574e-01    3,089707717e-02
       82325000   -4,959984720e-01    3,383584693e-02
       82400000   -4,948768020e-01    3,821372613e-02
       82475000   -4,933748841e-01    4,067871347e-02
       82550000   -4,922769070e-01    4,512295872e-02
       82625000   -4,901981056e-01    4,848733544e-02
       82700000   -4,888520241e-01    5,330472440e-02
       82775000   -4,870266914e-01    5,579413101e-02
       82850000   -4,858726561e-01    6,027275324e-02
       82925000   -4,847289920e-01    6,314019859e-02
       83000000   -4,823210835e-01    6,787142903e-02
       83075000   -4,798423648e-01    7,076968253e-02
       83150000   -4,784230292e-01    7,530006766e-02
       83225000   -4,765264690e-01    7,847796381e-02
       83300000   -4,740731716e-01    8,277859539e-02
       83375000   -4,717442989e-01    8,614490926e-02
       83450000   -4,698393643e-01    9,034103155e-02
       83525000   -4,668829143e-01    9,323415160e-02
       83600000   -4,646694958e-01    9,795726836e-02
       83675000   -4,620007277e-01    1,022684276e-01
       83750000   -4,600435495e-01    1,059495062e-01
       83825000   -4,564152062e-01    1,102298424e-01
       83900000   -4,532577991e-01    1,132796407e-01
       83975000   -4,505371749e-01    1,166941673e-01
       84050000   -4,464531541e-01    1,206380650e-01
       84125000   -4,440118372e-01    1,244959608e-01
       84200000   -4,404033720e-01    1,288757175e-01
       84275000   -4,367917776e-01    1,317012459e-01
       84350000   -4,341260791e-01    1,360514015e-01
       84425000   -4,293513298e-01    1,387294680e-01
       84500000   -4,264644980e-01    1,423394084e-01
       84575000   -4,221607447e-01    1,458974481e-01
       84650000   -4,188856483e-01    1,484415531e-01
       84725000   -4,145149887e-01    1,523523629e-01
       84800000   -4,102247655e-01    1,546334773e-01
       84875000   -4,061992168e-01    1,592088640e-01
       84950000   -4,002466798e-01    1,613084972e-01
       85025000   -3,971605599e-01    1,639532596e-01
       85100000   -3,925981224e-01    1,667401791e-01
       85175000   -3,886146545e-01    1,695553511e-01
       85250000   -3,841207027e-01    1,729041487e-01
       85325000   -3,790213466e-01    1,749928892e-01
       85400000   -3,745871782e-01    1,760928482e-01
       85475000   -3,685128987e-01    1,789747030e-01
       85550000   -3,638272583e-01    1,811681390e-01
       85625000   -3,586971760e-01    1,818698049e-01
       85700000   -3,541868925e-01    1,849720776e-01
       85775000   -3,491000831e-01    1,864497513e-01
       85850000   -3,438897133e-01    1,873577237e-01
       85925000   -3,388879299e-01    1,882802397e-01
       86000000   -3,344765007e-01    1,900815219e-01
       86075000   -3,291787207e-01    1,899681389e-01
       86150000   -3,236023784e-01    1,912879348e-01
       86225000   -3,184145391e-01    1,914265901e-01
       86300000   -3,136986494e-01    1,922245622e-01
       86375000   -3,087917864e-01    1,928918064e-01
       86450000   -3,045235872e-01    1,938526630e-01
       86525000   -2,983981371e-01    1,926055402e-01
       86600000   -2,934535146e-01    1,930499971e-01
       86675000   -2,895092964e-01    1,927655935e-01
       86750000   -2,848185599e-01    1,919642240e-01
       86825000   -2,793668807e-01    1,902090013e-01
       86900000   -2,760254741e-01    1,895933449e-01
       86975000   -2,718144059e-01    1,891229600e-01
       87050000   -2,672447264e-01    1,877407879e-01
       87125000   -2,636083663e-01    1,875571311e-01
       87200000   -2,603762448e-01    1,857694387e-01
       87275000   -2,564087212e-01    1,844165325e-01
       87350000   -2,524785697e-01    1,836396903e-01
       87425000   -2,496283799e-01    1,819807142e-01
       87500000   -2,454397678e-01    1,800938994e-01
       87575000   -2,438096255e-01    1,796633750e-01
       87650000   -2,404553145e-01    1,769317985e-01
       87725000   -2,380118072e-01    1,747630239e-01
       87800000   -2,367301285e-01    1,768149137e-01
       87875000   -2,333323807e-01    1,739498526e-01
       87950000   -2,304945439e-01    1,754408479e-01
       88025000   -2,289460748e-01    1,715414673e-01
       88100000   -2,261941433e-01    1,728174388e-01
       88175000   -2,235415429e-01    1,715687364e-01
       88250000   -2,194995731e-01    1,699845195e-01
       88325000   -2,180304527e-01    1,713445485e-01
       88400000   -2,160257548e-01    1,675347686e-01
       88475000   -2,135772407e-01    1,685636789e-01
       88550000   -2,099699974e-01    1,687142849e-01
       88625000   -2,090871781e-01    1,683647335e-01
       88700000   -2,086259872e-01    1,676669717e-01
       88775000   -2,051302493e-01    1,650996059e-01
       88850000   -2,042805105e-01    1,639665216e-01
       88925000   -2,018518746e-01    1,625933349e-01
       89000000   -1,982051283e-01    1,638040096e-01
       89075000   -1,957252920e-01    1,600829810e-01
       89150000   -1,961750984e-01    1,590418518e-01
       89225000   -1,940535754e-01    1,598770171e-01
       89300000   -1,898026615e-01    1,566402167e-01
       89375000   -1,899250746e-01    1,544030905e-01
       89450000   -1,877077967e-01    1,549552977e-01
       89525000   -1,889557987e-01    1,531253606e-01
       89600000   -1,845241934e-01    1,504389644e-01
       89675000   -1,861838698e-01    1,489874274e-01
       89750000   -1,847452968e-01    1,478352994e-01
       89825000   -1,869543791e-01    1,480441689e-01
       89900000   -1,851576120e-01    1,451537609e-01
       89975000   -1,874603629e-01    1,461789757e-01
       90050000   -1,877690107e-01    1,461516172e-01
       90125000   -1,874869317e-01    1,453619599e-01
       90200000   -1,878686994e-01    1,442409456e-01
       90275000   -1,901508570e-01    1,453943551e-01
       90350000   -1,913546324e-01    1,451354325e-01
       90425000   -1,913666427e-01    1,458100528e-01
       90500000   -1,937665194e-01    1,510426700e-01
       90575000   -1,940151155e-01    1,520984173e-01
       90650000   -1,947796345e-01    1,554034799e-01
       90725000   -1,960702240e-01    1,582894772e-01
       90800000   -1,943106353e-01    1,587305367e-01
       90875000   -1,957911253e-01    1,624935269e-01
       90950000   -1,963395029e-01    1,679708958e-01
       91025000   -1,941498071e-01    1,697752923e-01
       91100000   -1,952883601e-01    1,728347242e-01
       91175000   -1,932880282e-01    1,784701794e-01
       91250000   -1,903924793e-01    1,806531250e-01
       91325000   -1,917437464e-01    1,862926036e-01
       91400000   -1,900343597e-01    1,911075264e-01
       91475000   -1,864198148e-01    1,943997741e-01
       91550000   -1,836533546e-01    1,976471543e-01
       91625000   -1,812335253e-01    2,055992633e-01
       91700000   -1,756147891e-01    2,067169845e-01
       91775000   -1,741202325e-01    2,110876888e-01
       91850000   -1,699155420e-01    2,184859067e-01
       91925000   -1,644729674e-01    2,196013778e-01
