! NanoVNA-App
! Date: 2025-08-09 13:43:36
! Start: 65MHz Stop: 95MHz Points: 401
! S-Parameter data: F S11
# Hz S RI R 50
!     Frequency           S11_Real           S11_Imag
       65000000    7,246646285e-01   -9,599189460e-02
       65075000    7,230232954e-01   -9,830136597e-02
       65150000    7,207397223e-01   -1,020176783e-01
       65225000    7,192522883e-01   -1,052812412e-01
       65300000    7,180952430e-01   -1,069527268e-01
       65375000    7,170558572e-01   -1,097932383e-01
       65450000    7,140998244e-01   -1,127858832e-01
       65525000    7,125412226e-01   -1,157343984e-01
       65600000    7,116114497e-01   -1,187772676e-01
       65675000    7,083770037e-01   -1,219995990e-01
       65750000    7,083227038e-01   -1,243004799e-01
       65825000    7,066087723e-01   -1,285727620e-01
       65900000    7,056248784e-01   -1,304328740e-01
       65975000    7,036333084e-01   -1,348494738e-01
       66050000    7,025198340e-01   -1,355847865e-01
       66125000    7,003092766e-01   -1,384255290e-01
       66200000    6,991313696e-01   -1,432528198e-01
       66275000    6,974207163e-01   -1,440854371e-01
       66350000    6,968963742e-01   -1,469751745e-01
       66425000    6,957784295e-01   -1,504016817e-01
       66500000    6,933435202e-01   -1,537084877e-01
       66575000    6,908888817e-01   -1,569190472e-01
       66650000    6,915491819e-01   -1,579160690e-01
       66725000    6,892635822e-01   -1,605663449e-01
       66800000    6,872093081e-01   -1,633731276e-01
       66875000    6,866223216e-01   -1,662372202e-01
       66950000    6,843280196e-01   -1,697694659e-01
       67025000    6,834241748e-01   -1,721258312e-01
       67100000    6,829349399e-01   -1,750335097e-01
       67175000    6,830862761e-01   -1,766714156e-01
       67250000    6,809725761e-01   -1,792902052e-01
       67325000    6,790209413e-01   -1,828072518e-01
       67400000    6,783420444e-01   -1,855461448e-01
       67475000    6,747163534e-01   -1,891953200e-01
       67550000    6,750368476e-01   -1,917263716e-01
       67625000    6,743006110e-01   -1,942386478e-01
       67700000    6,722420454e-01   -1,968287230e-01
       67775000    6,713491678e-01   -1,996981651e-01
       67850000    6,696171165e-01   -2,038851827e-01
       67925000    6,681135297e-01   -2,059547454e-01
       68000000    6,677041054e-01   -2,090597898e-01
       68075000    6,648687124e-01   -2,111949623e-01
       68150000    6,649566293e-01   -2,135713995e-01
       68225000    6,633839607e-01   -2,183207273e-01
       68300000    6,612614989e-01   -2,205967605e-01
       68375000    6,595045328e-01   -2,243693173e-01
       68450000    6,565936208e-01   -2,256701291e-01
       68525000    6,560109854e-01   -2,285965979e-01
       68600000    6,549037099e-01   -2,306738198e-01
       68675000    6,521790624e-01   -2,339579314e-01
       68750000    6,497986317e-01   -2,370101810e-01
       68825000    6,475792527e-01   -2,406453192e-01
       68900000    6,458112001e-01   -2,440674007e-01
       68975000    6,430223584e-01   -2,463319749e-01
       69050000    6,427264810e-01   -2,495259494e-01
       69125000    6,398686767e-01   -2,507645190e-01
       69200000    6,390163302e-01   -2,544630170e-01
       69275000    6,353588700e-01   -2,564592063e-01
       69350000    6,337683201e-01   -2,589980066e-01
       69425000    6,314761043e-01   -2,607683539e-01
       69500000    6,297551394e-01   -2,634095848e-01
       69575000    6,270322800e-01   -2,655377984e-01
       69650000    6,239460707e-01   -2,675460577e-01
       69725000    6,227574944e-01   -2,682075500e-01
       69800000    6,199116111e-01   -2,709497809e-01
       69875000    6,167392135e-01   -2,724826038e-01
       69950000    6,145210862e-01   -2,754930854e-01
       70025000    6,127032638e-01   -2,766720951e-01
       70100000    6,108576059e-01   -2,801995575e-01
       70175000    6,088600159e-01   -2,803943455e-01
       70250000    6,069050431e-01   -2,814146280e-01
       70325000    6,028392911e-01   -2,834024727e-01
       70400000    6,017898321e-01   -2,843115330e-01
       70475000    5,987208486e-01   -2,876298130e-01
       70550000    5,984842181e-01   -2,876782119e-01
       70625000    5,965638757e-01   -2,880769372e-01
       70700000    5,925782919e-01   -2,919583023e-01
       70775000    5,904175639e-01   -2,923485637e-01
       70850000    5,896922350e-01   -2,942017317e-01
       70925000    5,857077837e-01   -2,936985791e-01
       71000000    5,864608884e-01   -2,948050499e-01
       71075000    5,836204886e-01   -2,975986600e-01
       71150000    5,819373727e-01   -2,969388664e-01
       71225000    5,824158192e-01   -2,978423536e-01
       71300000    5,806930065e-01   -2,997597754e-01
       71375000    5,772630572e-01   -2,998587489e-01
       71450000    5,746790767e-01   -3,027245998e-01
       71525000    5,746245384e-01   -3,033304214e-01
       71600000    5,748793483e-01   -3,048030734e-01
       71675000    5,711491704e-01   -3,067502975e-01
       71750000    5,703750849e-01   -3,070181608e-01
       71825000    5,670084357e-01   -3,090944588e-01
       71900000    5,666364431e-01   -3,101464510e-01
       71975000    5,662516356e-01   -3,107540607e-01
       72050000    5,659772754e-01   -3,108481169e-01
       72125000    5,624281764e-01   -3,121030629e-01
       72200000    5,629332066e-01   -3,132485151e-01
       72275000    5,588108897e-01   -3,160204291e-01
       72350000    5,583941936e-01   -3,166951239e-01
       72425000    5,564852357e-01   -3,187377751e-01
       72500000    5,556663871e-01   -3,161891103e-01
       72575000    5,540988445e-01   -3,213078976e-01
       72650000    5,534808636e-01   -3,206421733e-01
       72725000    5,482798815e-01   -3,216766417e-01
       72800000    5,511842966e-01   -3,247317076e-01
       72875000    5,498006344e-01   -3,251213729e-01
       72950000    5,492908359e-01   -3,268322051e-01
       73025000    5,483832359e-01   -3,277011216e-01
       73100000    5,454148054e-01   -3,272553384e-01
       73175000    5,453109145e-01   -3,289209902e-01
       73250000    5,454925299e-01   -3,290658295e-01
       73325000    5,441488028e-01   -3,306764066e-01
       73400000    5,426840782e-01   -3,312221467e-01
       73475000    5,419404507e-01   -3,325227201e-01
       73550000    5,385456085e-01   -3,330114186e-01
       73625000    5,376626849e-01   -3,345656693e-01
       73700000    5,360671282e-01   -3,376801908e-01
       73775000    5,354914665e-01   -3,374699950e-01
       73850000    5,363228321e-01   -3,398970366e-01
       73925000    5,346164703e-01   -3,387109339e-01
       74000000    5,344681740e-01   -3,402065337e-01
       74075000    5,301186442e-01   -3,420538306e-01
       74150000    5,320011377e-01   -3,433738351e-01
       74225000    5,302987695e-01   -3,455003500e-01
       74300000    5,301032662e-01   -3,473190069e-01
       74375000    5,291444659e-01   -3,468677700e-01
       74450000    5,271130204e-01   -3,474812806e-01
       74525000    5,246072412e-01   -3,486378789e-01
       74600000    5,238595605e-01   -3,491654694e-01
       74675000    5,234777331e-01   -3,527517915e-01
       74750000    5,227106810e-01   -3,530986011e-01
       74825000    5,225653648e-01   -3,531683981e-01
       74900000    5,212151408e-01   -3,540896773e-01
       74975000    5,191332698e-01   -3,558717966e-01
       75050000    5,160316229e-01   -3,574922681e-01
       75125000    5,154476762e-01   -3,583196104e-01
       75200000    5,148538351e-01   -3,602548540e-01
       75275000    5,151842237e-01   -3,603712916e-01
       75350000    5,136035085e-01   -3,632146120e-01
       75425000    5,135197043e-01   -3,624561727e-01
       75500000    5,134245753e-01   -3,630881011e-01
       75575000    5,111759305e-01   -3,633896708e-01
       75650000    5,106018782e-01   -3,648091555e-01
       75725000    5,088587999e-01   -3,656261265e-01
       75800000    5,083963871e-01   -3,664950728e-01
       75875000    5,058407784e-01   -3,671009243e-01
       75950000    5,067855716e-01   -3,685483634e-01
       76025000    5,045809746e-01   -3,710086346e-01
       76100000    5,044947863e-01   -3,711400628e-01
       76175000    5,035026670e-01   -3,713278770e-01
       76250000    5,015991330e-01   -3,711304963e-01
       76325000    5,004489422e-01   -3,729006052e-01
       76400000    4,983472526e-01   -3,733150661e-01
       76475000    4,988121390e-01   -3,760453165e-01
       76550000    4,963973165e-01   -3,762595057e-01
       76625000    4,949197769e-01   -3,789573610e-01
       76700000    4,950620234e-01   -3,789991736e-01
       76775000    4,948339164e-01   -3,777602315e-01
       76850000    4,937379658e-01   -3,819292486e-01
       76925000    4,931866527e-01   -3,788670599e-01
       77000000    4,927996397e-01   -3,802565038e-01
       77075000    4,903932810e-01   -3,825109601e-01
       77150000    4,899902046e-01   -3,840093613e-01
       77225000    4,875361621e-01   -3,829703927e-01
       77300000    4,874955714e-01   -3,842882812e-01
       77375000    4,865999520e-01   -3,859647214e-01
       77450000    4,872396588e-01   -3,851250708e-01
       77525000    4,847722650e-01   -3,867445588e-01
       77600000    4,864289761e-01   -3,879130483e-01
       77675000    4,851362109e-01   -3,865563571e-01
       77750000    4,839085937e-01   -3,859979212e-01
       77825000    4,831114709e-01   -3,890843391e-01
       77900000    4,824159741e-01   -3,858137131e-01
       77975000    4,794868529e-01   -3,869143426e-01
       78050000    4,807405174e-01   -3,895500898e-01
       78125000    4,792560041e-01   -3,859283924e-01
       78200000    4,798401594e-01   -3,880349100e-01
       78275000    4,837024510e-01   -3,870426416e-01
       78350000    4,806380868e-01   -3,884687126e-01
       78425000    4,812676311e-01   -3,879855573e-01
       78500000    4,812026024e-01   -3,882166445e-01
       78575000    4,826841950e-01   -3,926519156e-01
       78650000    4,835763872e-01   -3,927479088e-01
       78725000    4,832029939e-01   -3,923326135e-01
       78800000    4,829874337e-01   -3,965280354e-01
       78875000    4,835008085e-01   -3,970924020e-01
       78950000    4,834857583e-01   -3,987032771e-01
       79025000    4,845242798e-01   -3,976269662e-01
       79100000    4,865555167e-01   -3,987357318e-01
       79175000    4,822118580e-01   -3,999425173e-01
       79250000    4,839823246e-01   -4,009321332e-01
       79325000    4,843903184e-01   -4,040688276e-01
       79400000    4,860587418e-01   -4,042829573e-01
       79475000    4,856768250e-01   -4,034430087e-01
       79550000    4,826599956e-01   -4,056674838e-01
       79625000    4,841934144e-01   -4,075494409e-01
       79700000    4,878235161e-01   -4,097231627e-01
       79775000    4,863655865e-01   -4,088674784e-01
       79850000    4,852317572e-01   -4,103437066e-01
       79925000    4,868575037e-01   -4,111484587e-01
       80000000    4,872454405e-01   -4,146296680e-01
       80075000    4,860652089e-01   -4,160162807e-01
       80150000    4,884372950e-01   -4,177331328e-01
       80225000    4,862298667e-01   -4,178476036e-01
       80300000    4,867928922e-01   -4,193520248e-01
       80375000    4,857077003e-01   -4,228944182e-01
       80450000    4,886133075e-01   -4,231263995e-01
       80525000    4,899904132e-01   -4,251857102e-01
       80600000    4,903398454e-01   -4,254057109e-01
       80675000    4,895364046e-01   -4,270566106e-01
       80750000    4,867834449e-01   -4,305147529e-01
       80825000    4,904600978e-01   -4,325421751e-01
       80900000    4,895654023e-01   -4,356478453e-01
       80975000    4,873706698e-01   -4,357585311e-01
       81050000    4,897701740e-01   -4,393641353e-01
       81125000    4,905141592e-01   -4,422218502e-01
       81200000    4,929803014e-01   -4,425285161e-01
       81275000    4,916053712e-01   -4,465445280e-01
       81350000    4,922904670e-01   -4,463144541e-01
       81425000    4,909472167e-01   -4,478873312e-01
       81500000    4,874187112e-01   -4,504037499e-01
       81575000    4,901560545e-01   -4,529075623e-01
       81650000    4,924693406e-01   -4,553576708e-01
       81725000    4,902083874e-01   -4,594683349e-01
       81800000    4,912124872e-01   -4,609679878e-01
       81875000    4,909044504e-01   -4,606463909e-01
       81950000    4,894575477e-01   -4,630661607e-01
       82025000    4,901252985e-01   -4,658709764e-01
       82100000    4,883428216e-01   -4,689450264e-01
       82175000    4,879941940e-01   -4,712140560e-01
       82250000    4,881182313e-01   -4,738831818e-01
       82325000    4,876213670e-01   -4,777633548e-01
       82400000    4,875384867e-01   -4,818618000e-01
       82475000    4,912799299e-01   -4,815205634e-01
       82550000    4,904186428e-01   -4,841591418e-01
       82625000    4,891049862e-01   -4,855785370e-01
       82700000    4,859209657e-01   -4,885227084e-01
       82775000    4,850314260e-01   -4,907191694e-01
       82850000    4,864705801e-01   -4,934171140e-01
       82925000    4,851454198e-01   -4,955682158e-01
       83000000    4,860255420e-01   -4,987642169e-01
       83075000    4,821751118e-01   -5,006795526e-01
       83150000    4,824208915e-01   -5,038505197e-01
       83225000    4,833010137e-01   -5,072427988e-01
       83300000    4,808059335e-01   -5,104613900e-01
       83375000    4,790356755e-01   -5,133562088e-01
       83450000    4,824991226e-01   -5,170702338e-01
       83525000    4,824149907e-01   -5,203915238e-01
       83600000    4,810366929e-01   -5,215301514e-01
       83675000    4,769850671e-01   -5,258008838e-01
       83750000    4,726056457e-01   -5,298592448e-01
       83825000    4,767392576e-01   -5,309556723e-01
       83900000    4,769105017e-01   -5,338987112e-01
       83975000    4,723888636e-01   -5,337672830e-01
       84050000    4,722974896e-01   -5,370841026e-01
       84125000    4,695130885e-01   -5,410302281e-01
       84200000    4,710366130e-01   -5,442734361e-01
       84275000    4,672757387e-01   -5,453114510e-01
       84350000    4,649553895e-01   -5,475630164e-01
       84425000    4,642671943e-01   -5,516038537e-01
       84500000    4,626653492e-01   -5,551645756e-01
       84575000    4,647307396e-01   -5,594609976e-01
       84650000    4,620549083e-01   -5,593760014e-01
       84725000    4,554013610e-01   -5,628157854e-01
       84800000    4,546938539e-01   -5,654931068e-01
       84875000    4,527504444e-01   -5,690345168e-01
       84950000    4,559738934e-01   -5,708197355e-01
       85025000    4,524858594e-01   -5,757622719e-01
       85100000    4,518780410e-01   -5,767055154e-01
       85175000    4,477484524e-01   -5,780940056e-01
       85250000    4,451921582e-01   -5,815647244e-01
       85325000    4,438988268e-01   -5,877909660e-01
       85400000    4,422183931e-01   -5,882539153e-01
       85475000    4,414392710e-01   -5,916413069e-01
       85550000    4,360593855e-01   -5,951971412e-01
       85625000    4,340696335e-01   -5,918390751e-01
       85700000    4,314854443e-01   -5,970799923e-01
       85775000    4,326499999e-01   -6,005415320e-01
       85850000    4,243659377e-01   -6,013960242e-01
       85925000    4,294169247e-01   -6,022409797e-01
       86000000    4,270320535e-01   -6,042820811e-01
       86075000    4,196744561e-01   -6,068478823e-01
       86150000    4,188466370e-01   -6,124757528e-01
       86225000    4,141407013e-01   -6,120003462e-01
       86300000    4,171713889e-01   -6,140459776e-01
       86375000    4,151335955e-01   -6,176449656e-01
       86450000    4,125059545e-01   -6,190709472e-01
       86525000    4,073385000e-01   -6,222435832e-01
       86600000    4,072951674e-01   -6,229405999e-01
       86675000    4,047264457e-01   -6,220226884e-01
       86750000    3,996107876e-01   -6,230828166e-01
       86825000    3,990814686e-01   -6,277027130e-01
       86900000    3,919560611e-01   -6,306653619e-01
       86975000    3,905894458e-01   -6,331856251e-01
       87050000    3,913722634e-01   -6,305541396e-01
       87125000    3,864114583e-01   -6,340795755e-01
       87200000    3,807656765e-01   -6,350616217e-01
       87275000    3,851954341e-01   -6,359736919e-01
       87350000    3,773876727e-01   -6,384344697e-01
       87425000    3,748981357e-01   -6,401642561e-01
       87500000    3,686155081e-01   -6,362488866e-01
       87575000    3,698906600e-01   -6,432879567e-01
       87650000    3,700361848e-01   -6,440131068e-01
       87725000    3,703139722e-01   -6,434502602e-01
       87800000    3,665280044e-01   -6,431075931e-01
       87875000    3,631137311e-01   -6,434984207e-01
       87950000    3,593968749e-01   -6,504882574e-01
       88025000    3,552709818e-01   -6,480790973e-01
       88100000    3,547246754e-01   -6,507406235e-01
       88175000    3,552844822e-01   -6,485008597e-01
       88250000    3,501116037e-01   -6,457983255e-01
       88325000    3,480449021e-01   -6,531934738e-01
       88400000    3,486438096e-01   -6,576589942e-01
       88475000    3,455334604e-01   -6,566116810e-01
       88550000    3,428628147e-01   -6,563218236e-01
       88625000    3,338971436e-01   -6,553367972e-01
       88700000    3,361150622e-01   -6,541626453e-01
       88775000    3,328878582e-01   -6,593254209e-01
       88850000    3,327085376e-01   -6,569381356e-01
       88925000    3,259698451e-01   -6,607564092e-01
       89000000    3,228019774e-01   -6,601727605e-01
       89075000    3,232862055e-01   -6,636542082e-01
       89150000    3,193812370e-01   -6,613307595e-01
       89225000    3,194008172e-01   -6,612094045e-01
       89300000    3,170224428e-01   -6,594007015e-01
       89375000    3,157850504e-01   -6,602423191e-01
       89450000    3,126928508e-01   -6,592941880e-01
       89525000    3,087518513e-01   -6,629772186e-01
       89600000    3,057706952e-01   -6,630589366e-01
       89675000    3,012603819e-01   -6,586269140e-01
       89750000    3,005159497e-01   -6,600406170e-01
       89825000    3,004980683e-01   -6,581355333e-01
       89900000    2,986007333e-01   -6,567310095e-01
       89975000    2,957142889e-01   -6,571280360e-01
       90050000    2,916265726e-01   -6,571309566e-01
       90125000    2,950519919e-01   -6,595988274e-01
       90200000    2,946754694e-01   -6,592921615e-01
       90275000    2,896065712e-01   -6,560404301e-01
       90350000    2,908659875e-01   -6,563234925e-01
       90425000    2,923130989e-01   -6,586654782e-01
       90500000    2,930124700e-01   -6,562613249e-01
       90575000    2,900207937e-01   -6,546900272e-01
       90650000    2,894678712e-01   -6,595062613e-01
       90725000    2,875829041e-01   -6,531647444e-01
       90800000    2,895821035e-01   -6,544551253e-01
       90875000    2,874256372e-01   -6,551694274e-01
       90950000    2,882332504e-01   -6,574341059e-01
       91025000    2,869971097e-01   -6,590031385e-01
       91100000    2,899567783e-01   -6,590513587e-01
       91175000    2,905705869e-01   -6,618041992e-01
       91250000    2,920553386e-01   -6,600724459e-01
       91325000    2,909235358e-01   -6,626762152e-01
       91400000    2,893342674e-01   -6,604422927e-01
       91475000    2,896837592e-01   -6,607108712e-01
       91550000    2,866274118e-01   -6,627938151e-01
       91625000    2,881900370e-01   -6,663961411e-01
       91700000    2,863658369e-01   -6,684467196e-01
       91775000    2,889156938e-01   -6,723257303e-01
       91850000    2,867883146e-01   -6,743934155e-01
       91925000    2,891105711e-01   -6,753152609e-01
