! NanoVNA-App
! Date: 2025-08-09 12:49:21
! Start: 65MHz Stop: 95MHz Points: 401
! S-Parameter data: F S11
# Hz S RI R 50
!     Frequency           S11_Real           S11_Imag
       65000000   -5,027912930e-02    2,451267838e-01
       65075000   -4,622004926e-02    2,443075925e-01
       65150000   -4,245700315e-02    2,397193462e-01
       65225000   -3,873492032e-02    2,377772778e-01
       65300000   -3,532819077e-02    2,361611277e-01
       65375000   -3,295988590e-02    2,332436293e-01
       65450000   -2,960550785e-02    2,312669754e-01
       65525000   -2,586502209e-02    2,287176251e-01
       65600000   -2,230342291e-02    2,253532708e-01
       65675000   -1,849410497e-02    2,226930112e-01
       65750000   -1,461595763e-02    2,196976990e-01
       65825000   -1,086195838e-02    2,167290598e-01
       65900000   -7,037821226e-03    2,141801864e-01
       65975000   -3,777023172e-03    2,110040933e-01
       66050000   -6,280918024e-04    2,088342607e-01
       66125000    2,264357638e-03    2,053033859e-01
       66200000    5,742572714e-03    2,026224583e-01
       66275000    8,067156188e-03    2,006556988e-01
       66350000    1,241404936e-02    1,972252727e-01
       66425000    1,529924385e-02    1,946272850e-01
       66500000    1,895536482e-02    1,919109523e-01
       66575000    2,134983428e-02    1,891361773e-01
       66650000    2,408375591e-02    1,862595379e-01
       66725000    2,630259283e-02    1,833359152e-01
       66800000    2,906094864e-02    1,804653555e-01
       66875000    3,189272061e-02    1,774306446e-01
       66950000    3,539994359e-02    1,757819951e-01
       67025000    3,847676888e-02    1,728575975e-01
       67100000    4,188573733e-02    1,696967632e-01
       67175000    4,438837245e-02    1,673069745e-01
       67250000    4,721437767e-02    1,645865440e-01
       67325000    5,077396333e-02    1,620599180e-01
       67400000    5,328563228e-02    1,583888978e-01
       67475000    5,585987121e-02    1,549312323e-01
       67550000    5,898152292e-02    1,524063498e-01
       67625000    6,153723970e-02    1,485965401e-01
       67700000    6,430408359e-02    1,462355703e-01
       67775000    6,632399559e-02    1,426683664e-01
       67850000    6,876638532e-02    1,391383111e-01
       67925000    7,147168368e-02    1,366779804e-01
       68000000    7,418306917e-02    1,336797923e-01
       68075000    7,570242137e-02    1,309422553e-01
       68150000    7,810152322e-02    1,272669882e-01
       68225000    8,125734329e-02    1,235798970e-01
       68300000    8,391702175e-02    1,203183606e-01
       68375000    8,557511866e-02    1,169916987e-01
       68450000    8,791472018e-02    1,129706800e-01
       68525000    8,959219605e-02    1,099944487e-01
       68600000    9,143242240e-02    1,066958979e-01
       68675000    9,274593741e-02    1,022539213e-01
       68750000    9,569236636e-02    9,931448102e-02
       68825000    9,644648433e-02    9,507401288e-02
       68900000    9,750843048e-02    9,194458276e-02
       68975000    9,981004894e-02    8,715048432e-02
       69050000    1,010893583e-01    8,516336977e-02
       69125000    1,015741006e-01    8,049073070e-02
       69200000    1,036097035e-01    7,564301789e-02
       69275000    1,042079553e-01    7,262036949e-02
       69350000    1,045615822e-01    6,887131929e-02
       69425000    1,055625752e-01    6,470058858e-02
       69500000    1,055430099e-01    6,162341312e-02
       69575000    1,066989973e-01    5,807944015e-02
       69650000    1,063878164e-01    5,436183140e-02
       69725000    1,074093580e-01    5,115366355e-02
       69800000    1,062512621e-01    4,817587137e-02
       69875000    1,068125144e-01    4,394005239e-02
       69950000    1,061343998e-01    4,165194556e-02
       70025000    1,060008034e-01    3,842388839e-02
       70100000    1,054905951e-01    3,470296413e-02
       70175000    1,057352945e-01    3,224565089e-02
       70250000    1,046854034e-01    2,942744642e-02
       70325000    1,039503291e-01    2,629740536e-02
       70400000    1,036255509e-01    2,431803942e-02
       70475000    1,032793596e-01    2,197408676e-02
       70550000    1,025519297e-01    1,906072721e-02
       70625000    1,012653410e-01    1,737473719e-02
       70700000    1,006928906e-01    1,503717434e-02
       70775000    9,995721281e-02    1,278803404e-02
       70850000    9,958309680e-02    1,150781289e-02
       70925000    9,873820096e-02    9,331147186e-03
       71000000    9,770088643e-02    7,969218306e-03
       71075000    9,764390439e-02    5,815674551e-03
       71150000    9,661740065e-02    5,250382237e-03
       71225000    9,595678747e-02    3,064507619e-03
       71300000    9,559772909e-02    2,079086844e-03
       71375000    9,541707486e-02    4,722153244e-04
       71450000    9,456489980e-02   -1,269520842e-03
       71525000    9,381132573e-02   -2,467090730e-03
       71600000    9,385695308e-02   -2,999439370e-03
       71675000    9,321486205e-02   -4,603024106e-03
       71750000    9,284644574e-02   -6,106287707e-03
       71825000    9,277725220e-02   -6,901943125e-03
       71900000    9,194789827e-02   -8,123042062e-03
       71975000    9,177431464e-02   -8,573886007e-03
       72050000    9,126824141e-02   -9,405861609e-03
       72125000    9,134439379e-02   -1,119174343e-02
       72200000    9,061730653e-02   -1,144785061e-02
       72275000    9,048565477e-02   -1,281302236e-02
       72350000    8,989530802e-02   -1,434930414e-02
       72425000    9,015374631e-02   -1,446334925e-02
       72500000    8,966203034e-02   -1,640492678e-02
       72575000    8,948249370e-02   -1,618524082e-02
       72650000    8,980379254e-02   -1,664137095e-02
       72725000    8,899705112e-02   -1,749371365e-02
       72800000    8,931911737e-02   -1,794783585e-02
       72875000    8,862251788e-02   -1,898987219e-02
       72950000    8,845340461e-02   -1,997243799e-02
       73025000    8,888566494e-02   -2,030481771e-02
       73100000    8,881150931e-02   -2,007919922e-02
       73175000    8,772013336e-02   -2,157725208e-02
       73250000    8,905627578e-02   -2,155309543e-02
       73325000    8,915264159e-02   -2,241978608e-02
       73400000    8,885072917e-02   -2,347319014e-02
       73475000    8,934043348e-02   -2,387781441e-02
       73550000    8,920161426e-02   -2,409799770e-02
       73625000    8,956675231e-02   -2,424208261e-02
       73700000    8,973252773e-02   -2,485612221e-02
       73775000    8,898025751e-02   -2,521802671e-02
       73850000    8,993843198e-02   -2,531094104e-02
       73925000    8,953052759e-02   -2,674822323e-02
       74000000    9,064455330e-02   -2,691487223e-02
       74075000    9,045147151e-02   -2,735557035e-02
       74150000    9,038535506e-02   -2,803734504e-02
       74225000    9,098670632e-02   -2,851963229e-02
       74300000    9,149941802e-02   -2,928755619e-02
       74375000    9,084729105e-02   -3,005265445e-02
       74450000    9,178513288e-02   -3,025282919e-02
       74525000    9,197579324e-02   -3,157525137e-02
       74600000    9,265261143e-02   -3,094128147e-02
       74675000    9,192179143e-02   -3,181029484e-02
       74750000    9,247320145e-02   -3,258892521e-02
       74825000    9,295451641e-02   -3,294472396e-02
       74900000    9,291013330e-02   -3,311547264e-02
       74975000    9,407088906e-02   -3,418789059e-02
       75050000    9,437963367e-02   -3,481081128e-02
       75125000    9,410294145e-02   -3,438760340e-02
       75200000    9,380074590e-02   -3,586862236e-02
       75275000    9,424082935e-02   -3,645003587e-02
       75350000    9,495096654e-02   -3,610971943e-02
       75425000    9,361732751e-02   -3,789831325e-02
       75500000    9,526643157e-02   -3,807600960e-02
       75575000    9,479247034e-02   -3,866708651e-02
       75650000    9,476859123e-02   -3,921849281e-02
       75725000    9,456103295e-02   -4,012556374e-02
       75800000    9,564964473e-02   -4,007314146e-02
       75875000    9,511376172e-02   -4,131070897e-02
       75950000    9,563785046e-02   -4,119847715e-02
       76025000    9,530015290e-02   -4,146397114e-02
       76100000    9,542240202e-02   -4,168514162e-02
       76175000    9,578955173e-02   -4,177536815e-02
       76250000    9,550692141e-02   -4,288066924e-02
       76325000    9,624980390e-02   -4,242727533e-02
       76400000    9,537020326e-02   -4,364172369e-02
       76475000    9,545412660e-02   -4,348187894e-02
       76550000    9,592675418e-02   -4,345755652e-02
       76625000    9,626764804e-02   -4,394919798e-02
       76700000    9,618534893e-02   -4,396178573e-02
       76775000    9,654253721e-02   -4,472606629e-02
       76850000    9,587538242e-02   -4,411701858e-02
       76925000    9,575361013e-02   -4,515488446e-02
       77000000    9,599551558e-02   -4,454344511e-02
       77075000    9,608285129e-02   -4,481871799e-02
       77150000    9,558913857e-02   -4,523682967e-02
       77225000    9,533042461e-02   -4,586808383e-02
       77300000    9,451202303e-02   -4,453501105e-02
       77375000    9,476800263e-02   -4,517449066e-02
       77450000    9,412088990e-02   -4,475091770e-02
       77525000    9,412904829e-02   -4,417328537e-02
       77600000    9,424493462e-02   -4,443741217e-02
       77675000    9,306792170e-02   -4,379919171e-02
       77750000    9,365004301e-02   -4,370364547e-02
       77825000    9,294624627e-02   -4,282614589e-02
       77900000    9,221854806e-02   -4,258728772e-02
       77975000    9,197204560e-02   -4,074522108e-02
       78050000    9,172185510e-02   -3,935399652e-02
       78125000    9,108649194e-02   -3,924564645e-02
       78200000    9,155480564e-02   -3,630599007e-02
       78275000    9,166344255e-02   -3,415649384e-02
       78350000    9,189676493e-02   -3,300786018e-02
       78425000    9,335949272e-02   -3,056201339e-02
       78500000    9,547366947e-02   -2,737045288e-02
       78575000    9,682736546e-02   -2,702779509e-02
       78650000    9,802328795e-02   -2,584893256e-02
       78725000    1,004641503e-01   -2,509954013e-02
       78800000    1,016071364e-01   -2,474953420e-02
       78875000    1,028444916e-01   -2,320343815e-02
       78950000    1,041840911e-01   -2,242752165e-02
       79025000    1,050386801e-01   -2,168383822e-02
       79100000    1,064497828e-01   -2,083564177e-02
       79175000    1,080587804e-01   -2,010614797e-02
       79250000    1,099046841e-01   -1,827520691e-02
       79325000    1,113304868e-01   -1,719449461e-02
       79400000    1,130268201e-01   -1,596934721e-02
       79475000    1,151510179e-01   -1,585883647e-02
       79550000    1,162473336e-01   -1,441144850e-02
       79625000    1,185596511e-01   -1,343572605e-02
       79700000    1,202041730e-01   -1,329903863e-02
       79775000    1,220969856e-01   -1,173477340e-02
       79850000    1,242115349e-01   -1,068481989e-02
       79925000    1,259294003e-01   -1,022898313e-02
       80000000    1,274609417e-01   -8,678000420e-03
       80075000    1,304080784e-01   -7,851891220e-03
       80150000    1,321077347e-01   -7,429236546e-03
       80225000    1,336628199e-01   -6,262854207e-03
       80300000    1,373844743e-01   -5,311280023e-03
       80375000    1,396193355e-01   -4,932235461e-03
       80450000    1,419807374e-01   -3,516588127e-03
       80525000    1,453530937e-01   -3,094341140e-03
       80600000    1,477966309e-01   -1,598125324e-03
       80675000    1,504747719e-01   -1,559398253e-03
       80750000    1,530183852e-01   -1,613519504e-03
       80825000    1,569239199e-01    1,201383348e-04
       80900000    1,589045972e-01   -4,365164496e-04
       80975000    1,625962257e-01    9,997860761e-04
       81050000    1,663275659e-01    6,175329327e-04
       81125000    1,686423272e-01    8,480380056e-04
       81200000    1,726915091e-01    1,130991732e-03
       81275000    1,751977056e-01    9,240253130e-04
       81350000    1,792179197e-01    9,191452409e-04
       81425000    1,823216230e-01    5,720104091e-04
       81500000    1,852119714e-01    7,291656802e-04
       81575000    1,892256588e-01    3,470630909e-04
       81650000    1,924996823e-01    1,971166785e-05
       81725000    1,957454532e-01   -3,918871807e-04
       81800000    1,993638724e-01   -8,839059738e-04
       81875000    2,033817321e-01   -1,654009102e-03
       81950000    2,070886940e-01   -1,882711309e-03
       82025000    2,109505534e-01   -2,988282358e-03
       82100000    2,140645385e-01   -4,103221465e-03
       82175000    2,184108198e-01   -4,860759247e-03
       82250000    2,216342092e-01   -5,142235197e-03
       82325000    2,250723243e-01   -6,575472187e-03
       82400000    2,290640473e-01   -8,598613553e-03
       82475000    2,326584309e-01   -8,463937789e-03
       82550000    2,370459586e-01   -1,086984854e-02
       82625000    2,406324893e-01   -1,168579236e-02
       82700000    2,444907874e-01   -1,341717225e-02
       82775000    2,481843382e-01   -1,442687865e-02
       82850000    2,518402636e-01   -1,678905636e-02
       82925000    2,557077706e-01   -1,802831888e-02
       83000000    2,594020367e-01   -2,071786113e-02
       83075000    2,633571923e-01   -2,228871919e-02
       83150000    2,668426931e-01   -2,500425652e-02
       83225000    2,710357308e-01   -2,632864937e-02
       83300000    2,752760649e-01   -2,935268916e-02
       83375000    2,783201635e-01   -3,124704212e-02
       83450000    2,827515304e-01   -3,416730836e-02
       83525000    2,857129276e-01   -3,770746663e-02
       83600000    2,897622287e-01   -3,973210976e-02
       83675000    2,938736379e-01   -4,297563434e-02
       83750000    2,960845828e-01   -4,613156244e-02
       83825000    3,003486395e-01   -4,950633645e-02
       83900000    3,040240407e-01   -5,323852971e-02
       83975000    3,068429232e-01   -5,539223179e-02
       84050000    3,104434311e-01   -5,971594527e-02
       84125000    3,134852350e-01   -6,270012259e-02
       84200000    3,163421750e-01   -6,614311785e-02
       84275000    3,186389208e-01   -6,985530257e-02
       84350000    3,226715624e-01   -7,368353009e-02
       84425000    3,252887726e-01   -7,757101208e-02
       84500000    3,275473416e-01   -8,094702661e-02
       84575000    3,321132064e-01   -8,576011658e-02
       84650000    3,338676989e-01   -9,058369696e-02
       84725000    3,367918432e-01   -9,334591776e-02
       84800000    3,393235207e-01   -9,804052860e-02
       84875000    3,414018154e-01   -1,022365913e-01
       84950000    3,444116712e-01   -1,073978692e-01
       85025000    3,463828564e-01   -1,122919172e-01
       85100000    3,480777442e-01   -1,167872772e-01
       85175000    3,502675295e-01   -1,205985546e-01
       85250000    3,522970676e-01   -1,270821542e-01
       85325000    3,544223905e-01   -1,305810958e-01
       85400000    3,558657765e-01   -1,356303990e-01
       85475000    3,566132486e-01   -1,409373134e-01
       85550000    3,580836654e-01   -1,452346742e-01
       85625000    3,594865501e-01   -1,504387259e-01
       85700000    3,606039882e-01   -1,560703963e-01
       85775000    3,611288965e-01   -1,606048197e-01
       85850000    3,634057343e-01   -1,651903242e-01
       85925000    3,626806736e-01   -1,705411375e-01
       86000000    3,633083403e-01   -1,757418364e-01
       86075000    3,637889028e-01   -1,802030504e-01
       86150000    3,645441532e-01   -1,860095263e-01
       86225000    3,642547131e-01   -1,911265254e-01
       86300000    3,630998433e-01   -1,954831183e-01
       86375000    3,629716635e-01   -2,001782358e-01
       86450000    3,636447191e-01   -2,056634426e-01
       86525000    3,629773557e-01   -2,105275095e-01
       86600000    3,621678948e-01   -2,147550732e-01
       86675000    3,620100915e-01   -2,200885266e-01
       86750000    3,596231937e-01   -2,242150456e-01
       86825000    3,594920933e-01   -2,279587686e-01
       86900000    3,583788872e-01   -2,330558300e-01
       86975000    3,578277528e-01   -2,369007617e-01
       87050000    3,569122553e-01   -2,414716929e-01
       87125000    3,544817865e-01   -2,468037754e-01
       87200000    3,541558683e-01   -2,493990213e-01
       87275000    3,528755307e-01   -2,538486421e-01
       87350000    3,502303660e-01   -2,580933571e-01
       87425000    3,489945233e-01   -2,609650493e-01
       87500000    3,463321328e-01   -2,657237053e-01
       87575000    3,475281000e-01   -2,684447765e-01
       87650000    3,440824449e-01   -2,713318765e-01
       87725000    3,423086107e-01   -2,750954926e-01
       87800000    3,409767747e-01   -2,786175013e-01
       87875000    3,389030099e-01   -2,815219164e-01
       87950000    3,374735713e-01   -2,842297256e-01
       88025000    3,365613520e-01   -2,871262133e-01
       88100000    3,347485065e-01   -2,919366360e-01
       88175000    3,320327103e-01   -2,929483354e-01
       88250000    3,314516246e-01   -2,964960337e-01
       88325000    3,287343979e-01   -3,002176881e-01
       88400000    3,278808296e-01   -3,021917641e-01
       88475000    3,259225190e-01   -3,066267967e-01
       88550000    3,242392838e-01   -3,088450730e-01
       88625000    3,226527870e-01   -3,120162487e-01
       88700000    3,206027746e-01   -3,152479827e-01
       88775000    3,173101842e-01   -3,181657791e-01
       88850000    3,160617054e-01   -3,193647265e-01
       88925000    3,138825297e-01   -3,221510053e-01
       89000000    3,101740479e-01   -3,253200054e-01
       89075000    3,089051545e-01   -3,276873231e-01
       89150000    3,051025271e-01   -3,303204179e-01
       89225000    3,029035628e-01   -3,309481740e-01
       89300000    3,004305661e-01   -3,348349035e-01
       89375000    2,978688180e-01   -3,345310390e-01
       89450000    2,936582863e-01   -3,383007050e-01
       89525000    2,902453840e-01   -3,384188116e-01
       89600000    2,889560163e-01   -3,384220898e-01
       89675000    2,858638465e-01   -3,403303623e-01
       89750000    2,826001346e-01   -3,406632841e-01
       89825000    2,797818184e-01   -3,407450020e-01
       89900000    2,780005634e-01   -3,413274586e-01
       89975000    2,744666934e-01   -3,397373855e-01
       90050000    2,732279897e-01   -3,408311307e-01
       90125000    2,702397406e-01   -3,398265541e-01
       90200000    2,692840397e-01   -3,388482034e-01
       90275000    2,682329714e-01   -3,380901814e-01
       90350000    2,651645541e-01   -3,360207975e-01
       90425000    2,648950517e-01   -3,349258602e-01
       90500000    2,634525895e-01   -3,344408870e-01
       90575000    2,642283738e-01   -3,313880861e-01
       90650000    2,639760077e-01   -3,311019242e-01
       90725000    2,641583681e-01   -3,308239877e-01
       90800000    2,643020153e-01   -3,283684254e-01
       90875000    2,661024034e-01   -3,274911344e-01
       90950000    2,665242553e-01   -3,262653649e-01
       91025000    2,687524259e-01   -3,253237605e-01
       91100000    2,693612874e-01   -3,243801594e-01
       91175000    2,719655037e-01   -3,242157996e-01
       91250000    2,732415795e-01   -3,240273595e-01
       91325000    2,767035663e-01   -3,235487044e-01
       91400000    2,774564922e-01   -3,247380555e-01
       91475000    2,816842794e-01   -3,243113458e-01
       91550000    2,844226062e-01   -3,263849020e-01
       91625000    2,869549990e-01   -3,262539804e-01
       91700000    2,898049653e-01   -3,283305168e-01
       91775000    2,913296521e-01   -3,286737800e-01
       91850000    2,953702211e-01   -3,312405050e-01
       91925000    2,972934842e-01   -3,324081004e-01
