! NanoVNA-App
! Date: 2025-08-02 15:47:16
! Start: 65MHz Stop: 95MHz Points: 401
! S-Parameter data: F S11
# Hz S RI R 50
!     Frequency           S11_Real           S11_Imag
       65000000   -6,111053228e-01   -5,190334320e-01
       65075000   -6,124940515e-01   -5,293588638e-01
       65150000   -6,166275740e-01   -5,262197256e-01
       65225000   -6,198903918e-01   -5,228377581e-01
       65300000   -6,171864271e-01   -5,189950466e-01
       65375000   -6,194603443e-01   -5,155686736e-01
       65450000   -6,180049777e-01   -5,088077188e-01
       65525000   -6,195190549e-01   -5,068979263e-01
       65600000   -6,211432219e-01   -5,030036569e-01
       65675000   -6,191664934e-01   -4,966565967e-01
       65750000   -6,210957766e-01   -4,947048724e-01
       65825000   -6,236729026e-01   -4,889372289e-01
       65900000   -6,223078370e-01   -4,867074490e-01
       65975000   -6,249897480e-01   -4,812045097e-01
       66050000   -6,225504875e-01   -4,788454175e-01
       66125000   -6,225641370e-01   -4,758430719e-01
       66200000   -6,228832603e-01   -4,687303305e-01
       66275000   -6,224650741e-01   -4,689998031e-01
       66350000   -6,224902272e-01   -4,642371237e-01
       66425000   -6,231528521e-01   -4,579112828e-01
       66500000   -6,229693890e-01   -4,559938014e-01
       66575000   -6,238336563e-01   -4,490335286e-01
       66650000   -6,227434874e-01   -4,497330189e-01
       66725000   -6,247951984e-01   -4,481816590e-01
       66800000   -6,213574409e-01   -4,437878430e-01
       66875000   -6,240822673e-01   -4,401742816e-01
       66950000   -6,210954189e-01   -4,354903698e-01
       67025000   -6,213985085e-01   -4,329598248e-01
       67100000   -6,243603826e-01   -4,294612110e-01
       67175000   -6,241196394e-01   -4,219019115e-01
       67250000   -6,229605079e-01   -4,207008779e-01
       67325000   -6,227208376e-01   -4,159580171e-01
       67400000   -6,227035522e-01   -4,103172421e-01
       67475000   -6,211857200e-01   -4,106619358e-01
       67550000   -6,206383109e-01   -4,064325094e-01
       67625000   -6,203827858e-01   -3,998216689e-01
       67700000   -6,192770600e-01   -3,983521760e-01
       67775000   -6,201834083e-01   -3,959107995e-01
       67850000   -6,167739034e-01   -3,906394243e-01
       67925000   -6,173860431e-01   -3,897305727e-01
       68000000   -6,156535149e-01   -3,852827549e-01
       68075000   -6,165463328e-01   -3,812168837e-01
       68150000   -6,154812574e-01   -3,745450079e-01
       68225000   -6,126125455e-01   -3,764626682e-01
       68300000   -6,142516136e-01   -3,716396391e-01
       68375000   -6,111366749e-01   -3,691028357e-01
       68450000   -6,115725040e-01   -3,664671779e-01
       68525000   -6,077777743e-01   -3,611770272e-01
       68600000   -6,087550521e-01   -3,603436947e-01
       68675000   -6,067333817e-01   -3,540305495e-01
       68750000   -6,056040525e-01   -3,532000184e-01
       68825000   -6,055683494e-01   -3,491401374e-01
       68900000   -6,034690738e-01   -3,484331667e-01
       68975000   -6,033191681e-01   -3,438315094e-01
       69050000   -6,003022790e-01   -3,424698710e-01
       69125000   -5,997714400e-01   -3,403334022e-01
       69200000   -5,978344679e-01   -3,394384980e-01
       69275000   -5,981640220e-01   -3,349820673e-01
       69350000   -5,954052806e-01   -3,349128366e-01
       69425000   -5,955420136e-01   -3,320500553e-01
       69500000   -5,929075480e-01   -3,314291835e-01
       69575000   -5,933692455e-01   -3,278024495e-01
       69650000   -5,909332633e-01   -3,275194466e-01
       69725000   -5,910846591e-01   -3,246606588e-01
       69800000   -5,883094072e-01   -3,235096335e-01
       69875000   -5,893956423e-01   -3,214373887e-01
       69950000   -5,864644051e-01   -3,168341219e-01
       70025000   -5,856429338e-01   -3,183361590e-01
       70100000   -5,860341787e-01   -3,155631423e-01
       70175000   -5,857080817e-01   -3,107989430e-01
       70250000   -5,842961073e-01   -3,133351207e-01
       70325000   -5,846544504e-01   -3,100174367e-01
       70400000   -5,816274285e-01   -3,095634580e-01
       70475000   -5,829614997e-01   -3,071669340e-01
       70550000   -5,826939940e-01   -3,019632399e-01
       70625000   -5,802557468e-01   -3,034605682e-01
       70700000   -5,809195042e-01   -3,021749556e-01
       70775000   -5,776674747e-01   -2,983110845e-01
       70850000   -5,806606412e-01   -2,974441648e-01
       70925000   -5,799071193e-01   -2,949232161e-01
       71000000   -5,776371360e-01   -2,931107283e-01
       71075000   -5,783710480e-01   -2,914829850e-01
       71150000   -5,779162049e-01   -2,883628607e-01
       71225000   -5,763894320e-01   -2,856956422e-01
       71300000   -5,748782754e-01   -2,854564190e-01
       71375000   -5,749179721e-01   -2,822664976e-01
       71450000   -5,729980469e-01   -2,823615074e-01
       71525000   -5,734159946e-01   -2,820873559e-01
       71600000   -5,726835132e-01   -2,793653309e-01
       71675000   -5,738489032e-01   -2,751048505e-01
       71750000   -5,705209374e-01   -2,753146887e-01
       71825000   -5,715309978e-01   -2,725029588e-01
       71900000   -5,695226789e-01   -2,724245787e-01
       71975000   -5,696676373e-01   -2,707058787e-01
       72050000   -5,683004260e-01   -2,689018250e-01
       72125000   -5,675612688e-01   -2,635827661e-01
       72200000   -5,664354563e-01   -2,637287676e-01
       72275000   -5,672402382e-01   -2,614758611e-01
       72350000   -5,648756027e-01   -2,625336945e-01
       72425000   -5,655171871e-01   -2,586736977e-01
       72500000   -5,631657839e-01   -2,572582364e-01
       72575000   -5,642536879e-01   -2,577648759e-01
       72650000   -5,603506565e-01   -2,560385168e-01
       72725000   -5,627592206e-01   -2,560725212e-01
       72800000   -5,635707378e-01   -2,531879246e-01
       72875000   -5,604707599e-01   -2,538040280e-01
       72950000   -5,606783032e-01   -2,511236668e-01
       73025000   -5,617075562e-01   -2,488694042e-01
       73100000   -5,587636232e-01   -2,485030890e-01
       73175000   -5,596316457e-01   -2,480736822e-01
       73250000   -5,600909591e-01   -2,469744235e-01
       73325000   -5,595041513e-01   -2,456633896e-01
       73400000   -5,572636127e-01   -2,453522086e-01
       73475000   -5,594065785e-01   -2,426428497e-01
       73550000   -5,558137298e-01   -2,419026345e-01
       73625000   -5,581404567e-01   -2,406159192e-01
       73700000   -5,561733842e-01   -2,378294766e-01
       73775000   -5,575174689e-01   -2,375585884e-01
       73850000   -5,579151511e-01   -2,356539071e-01
       73925000   -5,574805737e-01   -2,363132834e-01
       74000000   -5,583400130e-01   -2,342839986e-01
       74075000   -5,558837056e-01   -2,342711836e-01
       74150000   -5,580300689e-01   -2,315995842e-01
       74225000   -5,576743484e-01   -2,307990640e-01
       74300000   -5,555435419e-01   -2,277062237e-01
       74375000   -5,579478145e-01   -2,270369083e-01
       74450000   -5,589858890e-01   -2,267849594e-01
       74525000   -5,573024154e-01   -2,273773849e-01
       74600000   -5,588198900e-01   -2,240565121e-01
       74675000   -5,563868880e-01   -2,222490162e-01
       74750000   -5,587844849e-01   -2,212045342e-01
       74825000   -5,584033132e-01   -2,176254094e-01
       74900000   -5,592045188e-01   -2,179794163e-01
       74975000   -5,598950386e-01   -2,162507921e-01
       75050000   -5,584802628e-01   -2,161715776e-01
       75125000   -5,598172545e-01   -2,126302570e-01
       75200000   -5,593738556e-01   -2,141433060e-01
       75275000   -5,610081553e-01   -2,103503048e-01
       75350000   -5,582872033e-01   -2,097511888e-01
       75425000   -5,606515408e-01   -2,081945240e-01
       75500000   -5,593572259e-01   -2,054996043e-01
       75575000   -5,607385039e-01   -2,043493539e-01
       75650000   -5,595728159e-01   -2,016942203e-01
       75725000   -5,616917014e-01   -2,017851621e-01
       75800000   -5,602394938e-01   -1,981512606e-01
       75875000   -5,620327592e-01   -1,981089711e-01
       75950000   -5,610941648e-01   -1,953523755e-01
       76025000   -5,608230233e-01   -1,945064366e-01
       76100000   -5,635958910e-01   -1,931166649e-01
       76175000   -5,611696839e-01   -1,928004473e-01
       76250000   -5,638623238e-01   -1,901320368e-01
       76325000   -5,637543201e-01   -1,880586147e-01
       76400000   -5,641518235e-01   -1,873050779e-01
       76475000   -5,649986267e-01   -1,857391149e-01
       76550000   -5,661055446e-01   -1,826722175e-01
       76625000   -5,662128925e-01   -1,827979535e-01
       76700000   -5,663136840e-01   -1,788777858e-01
       76775000   -5,656899810e-01   -1,781169325e-01
       76850000   -5,683882833e-01   -1,765109003e-01
       76925000   -5,687656403e-01   -1,751555949e-01
       77000000   -5,673701763e-01   -1,753725111e-01
       77075000   -5,691241622e-01   -1,730237901e-01
       77150000   -5,702289343e-01   -1,710312515e-01
       77225000   -5,712477565e-01   -1,689604372e-01
       77300000   -5,712586641e-01   -1,642208844e-01
       77375000   -5,723364353e-01   -1,646780819e-01
       77450000   -5,731428862e-01   -1,618228257e-01
       77525000   -5,743886828e-01   -1,589640379e-01
       77600000   -5,745402575e-01   -1,588975638e-01
       77675000   -5,757158995e-01   -1,558854878e-01
       77750000   -5,754245520e-01   -1,548659205e-01
       77825000   -5,778218508e-01   -1,523817182e-01
       77900000   -5,778297186e-01   -1,501531005e-01
       77975000   -5,779352784e-01   -1,477067620e-01
       78050000   -5,795845389e-01   -1,449185461e-01
       78125000   -5,809134245e-01   -1,429277658e-01
       78200000   -5,794354081e-01   -1,402817965e-01
       78275000   -5,812643170e-01   -1,389478594e-01
       78350000   -5,824170709e-01   -1,352953613e-01
       78425000   -5,837771893e-01   -1,321971565e-01
       78500000   -5,828352571e-01   -1,307473928e-01
       78575000   -5,854539871e-01   -1,281814575e-01
       78650000   -5,847278833e-01   -1,215752289e-01
       78725000   -5,847102404e-01   -1,204957217e-01
       78800000   -5,870998502e-01   -1,174352393e-01
       78875000   -5,852665305e-01   -1,132832095e-01
       78950000   -5,883359909e-01   -1,099906638e-01
       79025000   -5,869815946e-01   -1,067854911e-01
       79100000   -5,895935893e-01   -1,038538292e-01
       79175000   -5,882342458e-01   -1,005611718e-01
       79250000   -5,876987576e-01   -9,890764207e-02
       79325000   -5,885129571e-01   -9,347742796e-02
       79400000   -5,873422027e-01   -9,175499529e-02
       79475000   -5,896132588e-01   -8,760073781e-02
       79550000   -5,890764594e-01   -8,370912820e-02
       79625000   -5,877990723e-01   -8,270378411e-02
       79700000   -5,899692178e-01   -7,758448273e-02
       79775000   -5,860583186e-01   -7,362373173e-02
       79850000   -5,873356462e-01   -7,170399278e-02
       79925000   -5,885501504e-01   -6,607913971e-02
       80000000   -5,886037350e-01   -6,353988498e-02
       80075000   -5,866103768e-01   -6,085582823e-02
       80150000   -5,861584544e-01   -5,623465404e-02
       80225000   -5,860074759e-01   -5,214404687e-02
       80300000   -5,865910649e-01   -5,009352416e-02
       80375000   -5,850695968e-01   -4,502657428e-02
       80450000   -5,829736590e-01   -4,352389649e-02
       80525000   -5,831678510e-01   -3,832009062e-02
       80600000   -5,825488567e-01   -3,740256652e-02
       80675000   -5,824233890e-01   -3,221780807e-02
       80750000   -5,803738236e-01   -2,695057727e-02
       80825000   -5,798735023e-01   -2,614735439e-02
       80900000   -5,779980421e-01   -2,134438045e-02
       80975000   -5,771695375e-01   -1,791884191e-02
       81050000   -5,762808323e-01   -1,606259122e-02
       81125000   -5,750605464e-01   -1,117289439e-02
       81200000   -5,739037991e-01   -8,718675934e-03
       81275000   -5,726653934e-01   -4,329862073e-03
       81350000   -5,709339976e-01   -3,131656675e-03
       81425000   -5,692065954e-01    2,132119611e-03
       81500000   -5,665845871e-01    4,752652254e-03
       81575000   -5,666003823e-01    9,057231247e-03
       81650000   -5,643772483e-01    1,044127811e-02
       81725000   -5,626702309e-01    1,387578901e-02
       81800000   -5,624300838e-01    1,609842107e-02
       81875000   -5,593793392e-01    1,967966557e-02
       81950000   -5,574657321e-01    2,044206858e-02
       82025000   -5,552408695e-01    2,480634861e-02
       82100000   -5,540248752e-01    2,602781914e-02
       82175000   -5,520298481e-01    3,007944487e-02
       82250000   -5,502834916e-01    3,147519752e-02
       82325000   -5,505476594e-01    3,588501364e-02
       82400000   -5,492672920e-01    3,576299176e-02
       82475000   -5,490092039e-01    3,818076849e-02
       82550000   -5,460811853e-01    4,200671613e-02
       82625000   -5,447866917e-01    4,320359230e-02
       82700000   -5,433723927e-01    4,618896917e-02
       82775000   -5,425788760e-01    4,826832935e-02
       82850000   -5,406453013e-01    5,121184140e-02
       82925000   -5,405141115e-01    5,177891999e-02
       83000000   -5,385001898e-01    5,508685857e-02
       83075000   -5,389047861e-01    5,666449293e-02
       83150000   -5,374218225e-01    5,985812843e-02
       83225000   -5,357167125e-01    6,119975448e-02
       83300000   -5,342022181e-01    6,486120075e-02
       83375000   -5,337358117e-01    6,625170261e-02
       83450000   -5,316909552e-01    7,076564431e-02
       83525000   -5,301766396e-01    7,174111158e-02
       83600000   -5,305492878e-01    7,625861466e-02
       83675000   -5,278008580e-01    7,731217891e-02
       83750000   -5,272561908e-01    7,907862961e-02
       83825000   -5,256287456e-01    8,329050988e-02
       83900000   -5,244717002e-01    8,508646488e-02
       83975000   -5,247217417e-01    8,966879547e-02
       84050000   -5,231226683e-01    9,112139791e-02
       84125000   -5,232912302e-01    9,454859793e-02
       84200000   -5,197040439e-01    9,758344293e-02
       84275000   -5,188194513e-01    1,000319347e-01
       84350000   -5,189302564e-01    1,043760628e-01
       84425000   -5,166531801e-01    1,049831212e-01
       84500000   -5,171304345e-01    1,095763147e-01
       84575000   -5,142620802e-01    1,106542498e-01
       84650000   -5,116708875e-01    1,127305403e-01
       84725000   -5,126211047e-01    1,186101139e-01
       84800000   -5,096926689e-01    1,194825321e-01
       84875000   -5,098405480e-01    1,244956478e-01
       84950000   -5,067545772e-01    1,246521175e-01
       85025000   -5,070378184e-01    1,287550032e-01
       85100000   -5,049986839e-01    1,298345029e-01
       85175000   -5,029873848e-01    1,353747100e-01
       85250000   -5,012870431e-01    1,364886463e-01
       85325000   -5,024598241e-01    1,419719458e-01
       85400000   -4,997350276e-01    1,445575207e-01
       85475000   -4,994031191e-01    1,474410594e-01
       85550000   -4,972523153e-01    1,521361917e-01
       85625000   -4,942548573e-01    1,530310214e-01
       85700000   -4,923685193e-01    1,572263241e-01
       85775000   -4,938495457e-01    1,622095257e-01
       85850000   -4,884083569e-01    1,641028672e-01
       85925000   -4,888032973e-01    1,674156338e-01
       86000000   -4,875637889e-01    1,695244014e-01
       86075000   -4,839394689e-01    1,736686677e-01
       86150000   -4,811381698e-01    1,777618974e-01
       86225000   -4,797753990e-01    1,794699430e-01
       86300000   -4,804412425e-01    1,862720549e-01
       86375000   -4,765399694e-01    1,897372752e-01
       86450000   -4,738666415e-01    1,928000450e-01
       86525000   -4,707496464e-01    1,943259984e-01
       86600000   -4,695581794e-01    2,008045018e-01
       86675000   -4,667364359e-01    2,036250681e-01
       86750000   -4,659465849e-01    2,078935057e-01
       86825000   -4,619151652e-01    2,110803127e-01
       86900000   -4,584710598e-01    2,126528919e-01
       86975000   -4,569448829e-01    2,154654860e-01
       87050000   -4,527441561e-01    2,207340747e-01
       87125000   -4,545104802e-01    2,245225608e-01
       87200000   -4,487183690e-01    2,278749049e-01
       87275000   -4,449666440e-01    2,291834503e-01
       87350000   -4,444514811e-01    2,356367409e-01
       87425000   -4,405778050e-01    2,384762913e-01
       87500000   -4,400876760e-01    2,443053722e-01
       87575000   -4,349262714e-01    2,447298616e-01
       87650000   -4,323269427e-01    2,489993572e-01
       87725000   -4,234985709e-01    2,497098595e-01
       87800000   -4,220043421e-01    2,528199852e-01
       87875000   -4,177652597e-01    2,584476769e-01
       87950000   -4,187339544e-01    2,601602972e-01
       88025000   -4,141238332e-01    2,658412158e-01
       88100000   -4,114334583e-01    2,687772810e-01
       88175000   -4,052860737e-01    2,694013417e-01
       88250000   -4,025869370e-01    2,707552016e-01
       88325000   -4,012919366e-01    2,783156931e-01
       88400000   -3,958880305e-01    2,805112302e-01
       88475000   -3,927180469e-01    2,844737470e-01
       88550000   -3,893330097e-01    2,859126031e-01
       88625000   -3,828099072e-01    2,885956764e-01
       88700000   -3,818595111e-01    2,913553119e-01
       88775000   -3,766081035e-01    2,974650562e-01
       88850000   -3,734538853e-01    2,972951531e-01
       88925000   -3,675935268e-01    3,006097078e-01
       89000000   -3,626971841e-01    3,048320413e-01
       89075000   -3,599976599e-01    3,072669506e-01
       89150000   -3,550603688e-01    3,124627173e-01
       89225000   -3,526299298e-01    3,148566782e-01
       89300000   -3,475585580e-01    3,183150291e-01
       89375000   -3,425573707e-01    3,207417130e-01
       89450000   -3,384176195e-01    3,254218102e-01
       89525000   -3,314436972e-01    3,243949115e-01
       89600000   -3,274114430e-01    3,272612393e-01
       89675000   -3,261394799e-01    3,311677277e-01
       89750000   -3,190180063e-01    3,323592842e-01
       89825000   -3,158009350e-01    3,381354511e-01
       89900000   -3,103854358e-01    3,412991464e-01
       89975000   -3,046038747e-01    3,425635993e-01
       90050000   -3,014299870e-01    3,455085456e-01
       90125000   -2,921667099e-01    3,449861407e-01
       90200000   -2,861863971e-01    3,490199447e-01
       90275000   -2,841103971e-01    3,532164693e-01
       90350000   -2,784438133e-01    3,543982506e-01
       90425000   -2,704370320e-01    3,556991220e-01
       90500000   -2,639159262e-01    3,577212095e-01
       90575000   -2,587038875e-01    3,626585007e-01
       90650000   -2,535200119e-01    3,619589210e-01
       90725000   -2,454048246e-01    3,664393425e-01
       90800000   -2,392129749e-01    3,676222563e-01
       90875000   -2,340444922e-01    3,718620241e-01
       90950000   -2,294380814e-01    3,713949621e-01
       91025000   -2,227585316e-01    3,740455210e-01
       91100000   -2,159712613e-01    3,745160699e-01
       91175000   -2,091313750e-01    3,759214878e-01
       91250000   -2,027431428e-01    3,747127056e-01
       91325000   -1,958637238e-01    3,755004108e-01
       91400000   -1,860644817e-01    3,755878210e-01
       91475000   -1,793178767e-01    3,772843182e-01
       91550000   -1,711740792e-01    3,786523044e-01
       91625000   -1,658821106e-01    3,796988130e-01
       91700000   -1,582225412e-01    3,800229728e-01
       91775000   -1,532198936e-01    3,807098269e-01
       91850000   -1,452331394e-01    3,813643456e-01
       91925000   -1,399660259e-01    3,795800209e-01
