! NanoVNA-App
! Date: 2025-08-09 12:51:38
! Start: 65MHz Stop: 95MHz Points: 401
! S-Parameter data: F S11
# Hz S RI R 50
!     Frequency           S11_Real           S11_Imag
       65000000   -6,382601857e-01   -3,893575072e-01
       65075000   -6,416500807e-01   -3,935157061e-01
       65150000   -6,399262547e-01   -3,913752139e-01
       65225000   -6,394298673e-01   -3,867648840e-01
       65300000   -6,389955878e-01   -3,835825324e-01
       65375000   -6,399624348e-01   -3,802683055e-01
       65450000   -6,383347511e-01   -3,768125772e-01
       65525000   -6,371270418e-01   -3,725310266e-01
       65600000   -6,376584172e-01   -3,693354130e-01
       65675000   -6,371127367e-01   -3,661285043e-01
       65750000   -6,368736029e-01   -3,638241291e-01
       65825000   -6,354722977e-01   -3,590899110e-01
       65900000   -6,342607737e-01   -3,567803800e-01
       65975000   -6,341718435e-01   -3,520724177e-01
       66050000   -6,331237555e-01   -3,490762115e-01
       66125000   -6,336280704e-01   -3,468479216e-01
       66200000   -6,319070458e-01   -3,425231874e-01
       66275000   -6,312862039e-01   -3,398050368e-01
       66350000   -6,314284205e-01   -3,372857869e-01
       66425000   -6,294391751e-01   -3,325135708e-01
       66500000   -6,297942996e-01   -3,285487592e-01
       66575000   -6,293737292e-01   -3,258948028e-01
       66650000   -6,279621124e-01   -3,234953880e-01
       66725000   -6,268993616e-01   -3,194153309e-01
       66800000   -6,258557439e-01   -3,157053590e-01
       66875000   -6,255810261e-01   -3,131746650e-01
       66950000   -6,249067783e-01   -3,076973557e-01
       67025000   -6,247203946e-01   -3,058665395e-01
       67100000   -6,232948303e-01   -3,026638329e-01
       67175000   -6,237832308e-01   -3,018299341e-01
       67250000   -6,215633154e-01   -2,967790663e-01
       67325000   -6,210270524e-01   -2,932407260e-01
       67400000   -6,199362874e-01   -2,905146480e-01
       67475000   -6,185963154e-01   -2,846240699e-01
       67550000   -6,172247529e-01   -2,835305333e-01
       67625000   -6,165258288e-01   -2,810175121e-01
       67700000   -6,152003407e-01   -2,771754265e-01
       67775000   -6,152746677e-01   -2,743508518e-01
       67850000   -6,128813624e-01   -2,707546353e-01
       67925000   -6,133631468e-01   -2,686386704e-01
       68000000   -6,106281877e-01   -2,646276951e-01
       68075000   -6,091557741e-01   -2,609486878e-01
       68150000   -6,082694530e-01   -2,559460700e-01
       68225000   -6,069200635e-01   -2,546850443e-01
       68300000   -6,055545211e-01   -2,512481213e-01
       68375000   -6,032899022e-01   -2,477175295e-01
       68450000   -6,023969054e-01   -2,445203960e-01
       68525000   -6,016989946e-01   -2,411953360e-01
       68600000   -5,992619991e-01   -2,387934625e-01
       68675000   -5,985851288e-01   -2,364344001e-01
       68750000   -5,960680246e-01   -2,332465351e-01
       68825000   -5,937806368e-01   -2,311751395e-01
       68900000   -5,914733410e-01   -2,268364727e-01
       68975000   -5,907431841e-01   -2,248672247e-01
       69050000   -5,888785124e-01   -2,220250368e-01
       69125000   -5,865067840e-01   -2,195891887e-01
       69200000   -5,853329897e-01   -2,165968120e-01
       69275000   -5,828636885e-01   -2,149389088e-01
       69350000   -5,816738605e-01   -2,117583901e-01
       69425000   -5,800962448e-01   -2,108931243e-01
       69500000   -5,773550272e-01   -2,088464648e-01
       69575000   -5,743108988e-01   -2,064657956e-01
       69650000   -5,734931827e-01   -2,047725916e-01
       69725000   -5,713210702e-01   -2,013967037e-01
       69800000   -5,692918897e-01   -2,002975196e-01
       69875000   -5,681020617e-01   -1,984223276e-01
       69950000   -5,666072369e-01   -1,968694776e-01
       70025000   -5,644400716e-01   -1,951255053e-01
       70100000   -5,631997585e-01   -1,942826062e-01
       70175000   -5,599853396e-01   -1,913408637e-01
       70250000   -5,589163899e-01   -1,911352128e-01
       70325000   -5,575275421e-01   -1,878244132e-01
       70400000   -5,557466745e-01   -1,878258139e-01
       70475000   -5,551298857e-01   -1,870483309e-01
       70550000   -5,524486899e-01   -1,847247630e-01
       70625000   -5,513474941e-01   -1,844763458e-01
       70700000   -5,507143736e-01   -1,834072471e-01
       70775000   -5,493448377e-01   -1,809210628e-01
       70850000   -5,481503606e-01   -1,810559779e-01
       70925000   -5,471272469e-01   -1,802931726e-01
       71000000   -5,456306934e-01   -1,780052632e-01
       71075000   -5,449203253e-01   -1,771324575e-01
       71150000   -5,445897579e-01   -1,762986481e-01
       71225000   -5,441265106e-01   -1,736584604e-01
       71300000   -5,435727239e-01   -1,719421297e-01
       71375000   -5,418293476e-01   -1,719618589e-01
       71450000   -5,407884717e-01   -1,704028845e-01
       71525000   -5,402665138e-01   -1,695004404e-01
       71600000   -5,401038527e-01   -1,667091101e-01
       71675000   -5,382140875e-01   -1,645781547e-01
       71750000   -5,378113985e-01   -1,645029336e-01
       71825000   -5,367490649e-01   -1,618966311e-01
       71900000   -5,362611413e-01   -1,612993181e-01
       71975000   -5,354223847e-01   -1,592952609e-01
       72050000   -5,344040990e-01   -1,587872058e-01
       72125000   -5,343907475e-01   -1,585222334e-01
       72200000   -5,340870619e-01   -1,555636078e-01
       72275000   -5,324519277e-01   -1,544750929e-01
       72350000   -5,327371955e-01   -1,529110074e-01
       72425000   -5,313209891e-01   -1,517459601e-01
       72500000   -5,338556767e-01   -1,555096507e-01
       72575000   -5,316400528e-01   -1,486880928e-01
       72650000   -5,295140743e-01   -1,472994536e-01
       72725000   -5,290669799e-01   -1,466019154e-01
       72800000   -5,289685130e-01   -1,455689967e-01
       72875000   -5,273945928e-01   -1,432939768e-01
       72950000   -5,274398923e-01   -1,419791579e-01
       73025000   -5,261580944e-01   -1,393571347e-01
       73100000   -5,265492201e-01   -1,394584626e-01
       73175000   -5,258659720e-01   -1,368823051e-01
       73250000   -5,264915824e-01   -1,346791387e-01
       73325000   -5,255101323e-01   -1,344538778e-01
       73400000   -5,247719884e-01   -1,309164912e-01
       73475000   -5,235596299e-01   -1,299111992e-01
       73550000   -5,245397687e-01   -1,294801682e-01
       73625000   -5,232968330e-01   -1,264197677e-01
       73700000   -5,234850049e-01   -1,259415895e-01
       73775000   -5,228021741e-01   -1,237406582e-01
       73850000   -5,217636228e-01   -1,229616106e-01
       73925000   -5,210943818e-01   -1,207463741e-01
       74000000   -5,214932561e-01   -1,185115203e-01
       74075000   -5,194583535e-01   -1,173213646e-01
       74150000   -5,193825960e-01   -1,160205901e-01
       74225000   -5,185070038e-01   -1,138403937e-01
       74300000   -5,192366838e-01   -1,125725135e-01
       74375000   -5,181032419e-01   -1,101934835e-01
       74450000   -5,170328021e-01   -1,080957577e-01
       74525000   -5,169371367e-01   -1,069599390e-01
       74600000   -5,170511007e-01   -1,055792123e-01
       74675000   -5,147004128e-01   -1,037924886e-01
       74750000   -5,139150023e-01   -1,018860564e-01
       74825000   -5,143944621e-01   -1,001809165e-01
       74900000   -5,134834051e-01   -9,793426841e-02
       74975000   -5,125666857e-01   -9,676247835e-02
       75050000   -5,125626922e-01   -9,494660050e-02
       75125000   -5,120590925e-01   -9,390364587e-02
       75200000   -5,109618902e-01   -9,218916297e-02
       75275000   -5,102612376e-01   -8,961807191e-02
       75350000   -5,095687509e-01   -8,886557817e-02
       75425000   -5,089194775e-01   -8,561316878e-02
       75500000   -5,076365471e-01   -8,458179981e-02
       75575000   -5,080752373e-01   -8,287347853e-02
       75650000   -5,067751408e-01   -8,128744364e-02
       75725000   -5,069001913e-01   -8,012852073e-02
       75800000   -5,057843328e-01   -7,761267573e-02
       75875000   -5,049756169e-01   -7,625039667e-02
       75950000   -5,043550134e-01   -7,431528717e-02
       76025000   -5,044301748e-01   -7,358542830e-02
       76100000   -5,023853183e-01   -7,142324001e-02
       76175000   -5,023491383e-01   -7,066278905e-02
       76250000   -5,015977621e-01   -6,765309721e-02
       76325000   -5,021712780e-01   -6,701307744e-02
       76400000   -5,002659559e-01   -6,607402861e-02
       76475000   -5,004147291e-01   -6,518130004e-02
       76550000   -4,999284446e-01   -6,308480352e-02
       76625000   -4,991963506e-01   -6,151991710e-02
       76700000   -4,980965257e-01   -5,939956382e-02
       76775000   -4,979802072e-01   -5,840084702e-02
       76850000   -4,974706173e-01   -5,639131367e-02
       76925000   -4,969519377e-01   -5,508397147e-02
       77000000   -4,970696568e-01   -5,312512442e-02
       77075000   -4,962418973e-01   -5,161786824e-02
       77150000   -4,951199591e-01   -5,014086142e-02
       77225000   -4,960023761e-01   -4,889714345e-02
       77300000   -4,942865372e-01   -4,827287048e-02
       77375000   -4,945781231e-01   -4,624588788e-02
       77450000   -4,936226308e-01   -4,551411048e-02
       77525000   -4,942296445e-01   -4,401097819e-02
       77600000   -4,931600690e-01   -4,307377711e-02
       77675000   -4,941126704e-01   -4,123439640e-02
       77750000   -4,938646257e-01   -3,953816369e-02
       77825000   -4,937364757e-01   -3,821207955e-02
       77900000   -4,934890270e-01   -3,833819926e-02
       77975000   -4,941432178e-01   -3,577407822e-02
       78050000   -4,945886731e-01   -3,440253809e-02
       78125000   -4,955415428e-01   -3,349414840e-02
       78200000   -4,960728884e-01   -3,063182719e-02
       78275000   -4,967080653e-01   -2,966857888e-02
       78350000   -4,981693923e-01   -2,741822973e-02
       78425000   -4,991185963e-01   -2,432142384e-02
       78500000   -4,993009269e-01   -2,122840099e-02
       78575000   -5,004110336e-01   -1,751252078e-02
       78650000   -4,996627271e-01   -1,598365046e-02
       78725000   -4,989061058e-01   -1,257569809e-02
       78800000   -4,990657866e-01   -1,115810685e-02
       78875000   -4,993434846e-01   -7,904365659e-03
       78950000   -4,982931316e-01   -5,534151569e-03
       79025000   -4,979501367e-01   -3,283569124e-03
       79100000   -4,987162948e-01   -1,003341633e-03
       79175000   -4,987611175e-01    3,038962837e-03
       79250000   -4,983976781e-01    4,736504052e-03
       79325000   -4,976079762e-01    7,604015525e-03
       79400000   -4,982162416e-01    1,004904043e-02
       79475000   -4,978138506e-01    1,327881217e-02
       79550000   -4,972444177e-01    1,687697507e-02
       79625000   -4,983864427e-01    1,841984876e-02
       79700000   -4,976622462e-01    2,150031365e-02
       79775000   -4,971348345e-01    2,406567708e-02
       79850000   -4,975008667e-01    2,766123600e-02
       79925000   -4,958546162e-01    3,018929251e-02
       80000000   -4,979264140e-01    3,322878852e-02
       80075000   -4,962108731e-01    3,706587106e-02
       80150000   -4,955207407e-01    3,923813626e-02
       80225000   -4,960167408e-01    4,228844121e-02
       80300000   -4,963681400e-01    4,541901872e-02
       80375000   -4,951856136e-01    4,877234623e-02
       80450000   -4,933943152e-01    5,290566757e-02
       80525000   -4,930644035e-01    5,589530617e-02
       80600000   -4,935236573e-01    5,964362621e-02
       80675000   -4,923241436e-01    6,273443252e-02
       80750000   -4,917063117e-01    6,616193801e-02
       80825000   -4,910171926e-01    7,105393708e-02
       80900000   -4,907541275e-01    7,404743135e-02
       80975000   -4,890003800e-01    7,723636180e-02
       81050000   -4,889311790e-01    8,065242320e-02
       81125000   -4,874589741e-01    8,527480066e-02
       81200000   -4,863672853e-01    8,900915831e-02
       81275000   -4,861089885e-01    9,161359817e-02
       81350000   -4,844172299e-01    9,549222142e-02
       81425000   -4,824243188e-01    9,941819310e-02
       81500000   -4,811302423e-01    1,023808420e-01
       81575000   -4,798530936e-01    1,068437248e-01
       81650000   -4,793336689e-01    1,106339246e-01
       81725000   -4,775817394e-01    1,146773621e-01
       81800000   -4,747033119e-01    1,188093945e-01
       81875000   -4,742404819e-01    1,214621440e-01
       81950000   -4,724672735e-01    1,256847382e-01
       82025000   -4,707477987e-01    1,290396005e-01
       82100000   -4,686629772e-01    1,334138662e-01
       82175000   -4,676317573e-01    1,372034848e-01
       82250000   -4,640853405e-01    1,415132433e-01
       82325000   -4,636194706e-01    1,459143013e-01
       82400000   -4,607901871e-01    1,492093652e-01
       82475000   -4,593293667e-01    1,535375118e-01
       82550000   -4,575112164e-01    1,568643898e-01
       82625000   -4,542146921e-01    1,617074013e-01
       82700000   -4,525896609e-01    1,653425395e-01
       82775000   -4,507132471e-01    1,679430902e-01
       82850000   -4,476878345e-01    1,734271795e-01
       82925000   -4,453573823e-01    1,758944243e-01
       83000000   -4,416112602e-01    1,801902503e-01
       83075000   -4,384312332e-01    1,836753935e-01
       83150000   -4,360350072e-01    1,882275641e-01
       83225000   -4,324079752e-01    1,918403953e-01
       83300000   -4,296905994e-01    1,953688711e-01
       83375000   -4,270781875e-01    1,994321197e-01
       83450000   -4,254320562e-01    2,034220248e-01
       83525000   -4,210814536e-01    2,072099000e-01
       83600000   -4,184334278e-01    2,114253193e-01
       83675000   -4,134348929e-01    2,147095948e-01
       83750000   -4,088897705e-01    2,177024931e-01
       83825000   -4,066549540e-01    2,227071673e-01
       83900000   -4,027583003e-01    2,267682999e-01
       83975000   -3,987614214e-01    2,289526910e-01
       84050000   -3,951698244e-01    2,319524288e-01
       84125000   -3,914387226e-01    2,357969433e-01
       84200000   -3,871731162e-01    2,398571819e-01
       84275000   -3,825276792e-01    2,420960367e-01
       84350000   -3,789993227e-01    2,452886105e-01
       84425000   -3,744245172e-01    2,481761873e-01
       84500000   -3,696735203e-01    2,529565096e-01
       84575000   -3,651237488e-01    2,545866966e-01
       84650000   -3,597756326e-01    2,578529418e-01
       84725000   -3,560347557e-01    2,617745101e-01
       84800000   -3,504229188e-01    2,642652988e-01
       84875000   -3,461144865e-01    2,680943012e-01
       84950000   -3,412176669e-01    2,696622610e-01
       85025000   -3,366060555e-01    2,729261816e-01
       85100000   -3,307653666e-01    2,745321095e-01
       85175000   -3,240511119e-01    2,775033712e-01
       85250000   -3,190699518e-01    2,797666788e-01
       85325000   -3,140364885e-01    2,819876969e-01
       85400000   -3,091755211e-01    2,830757201e-01
       85475000   -3,028577566e-01    2,844471037e-01
       85550000   -2,986232340e-01    2,868503034e-01
       85625000   -2,924414873e-01    2,891294360e-01
       85700000   -2,873362601e-01    2,895693779e-01
       85775000   -2,813370824e-01    2,906955481e-01
       85850000   -2,766114473e-01    2,925777435e-01
       85925000   -2,695690393e-01    2,934322357e-01
       86000000   -2,645027041e-01    2,927229106e-01
       86075000   -2,588707507e-01    2,939757109e-01
       86150000   -2,528974414e-01    2,950970829e-01
       86225000   -2,469095141e-01    2,950907052e-01
       86300000   -2,420071065e-01    2,947182357e-01
       86375000   -2,365130335e-01    2,950298488e-01
       86450000   -2,318925261e-01    2,942381501e-01
       86525000   -2,262247503e-01    2,949286401e-01
       86600000   -2,198634297e-01    2,934456170e-01
       86675000   -2,146576345e-01    2,935230732e-01
       86750000   -2,089626044e-01    2,927633822e-01
       86825000   -2,041441202e-01    2,909174860e-01
       86900000   -2,001485378e-01    2,912710607e-01
       86975000   -1,954862624e-01    2,900934219e-01
       87050000   -1,886055321e-01    2,881492376e-01
       87125000   -1,858031303e-01    2,877394855e-01
       87200000   -1,815987825e-01    2,860290706e-01
       87275000   -1,762921661e-01    2,837626636e-01
       87350000   -1,723043025e-01    2,842118442e-01
       87425000   -1,678042710e-01    2,821623683e-01
       87500000   -1,633598059e-01    2,795860469e-01
       87575000   -1,595098376e-01    2,778724730e-01
       87650000   -1,561137736e-01    2,765522301e-01
       87725000   -1,514690220e-01    2,743614018e-01
       87800000   -1,476973295e-01    2,735222280e-01
       87875000   -1,445536017e-01    2,722942233e-01
       87950000   -1,408023536e-01    2,697520256e-01
       88025000   -1,374545693e-01    2,683999538e-01
       88100000   -1,338074058e-01    2,663184106e-01
       88175000   -1,299223900e-01    2,651167512e-01
       88250000   -1,262116283e-01    2,630693913e-01
       88325000   -1,238139942e-01    2,603963017e-01
       88400000   -1,200840548e-01    2,598770559e-01
       88475000   -1,171748340e-01    2,576406598e-01
       88550000   -1,142999455e-01    2,556043863e-01
       88625000   -1,101303697e-01    2,530693710e-01
       88700000   -1,079828069e-01    2,504962683e-01
       88775000   -1,050771698e-01    2,488388866e-01
       88850000   -1,013793498e-01    2,456714809e-01
       88925000   -9,902627766e-02    2,442029864e-01
       89000000   -9,702527523e-02    2,417625934e-01
       89075000   -9,476098418e-02    2,385717332e-01
       89150000   -9,284880757e-02    2,366518378e-01
       89225000   -9,001713991e-02    2,328611463e-01
       89300000   -8,913365752e-02    2,298452258e-01
       89375000   -8,706301451e-02    2,273970693e-01
       89450000   -8,590363711e-02    2,241859585e-01
       89525000   -8,570810407e-02    2,221742570e-01
       89600000   -8,465598524e-02    2,190540582e-01
       89675000   -8,451347798e-02    2,166034430e-01
       89750000   -8,379284292e-02    2,141108364e-01
       89825000   -8,471175283e-02    2,118725628e-01
       89900000   -8,491136879e-02    2,100704610e-01
       89975000   -8,590676636e-02    2,089338005e-01
       90050000   -8,649432659e-02    2,070471197e-01
       90125000   -8,691728860e-02    2,054722309e-01
       90200000   -8,869692683e-02    2,052799165e-01
       90275000   -9,047172219e-02    2,048896700e-01
       90350000   -9,132498503e-02    2,041307837e-01
       90425000   -9,298638254e-02    2,040908486e-01
       90500000   -9,418606758e-02    2,057145387e-01
       90575000   -9,547431022e-02    2,071106881e-01
       90650000   -9,639885277e-02    2,077857852e-01
       90725000   -9,752622992e-02    2,101635784e-01
       90800000   -9,869180620e-02    2,122134715e-01
       90875000   -9,921859950e-02    2,140198499e-01
       90950000   -1,004818529e-01    2,175002545e-01
       91025000   -1,002806276e-01    2,206660062e-01
       91100000   -9,945069253e-02    2,235396951e-01
       91175000   -9,908450395e-02    2,265918106e-01
       91250000   -9,827484190e-02    2,302649319e-01
       91325000   -9,736517072e-02    2,339158952e-01
       91400000   -9,638478607e-02    2,386642098e-01
       91475000   -9,397117049e-02    2,418615520e-01
       91550000   -9,224386513e-02    2,468905896e-01
       91625000   -9,009487927e-02    2,502396107e-01
       91700000   -8,779734373e-02    2,543770075e-01
       91775000   -8,426772058e-02    2,577802837e-01
       91850000   -8,219262213e-02    2,621615231e-01
       91925000   -7,819520682e-02    2,655247748e-01
