! NanoVNA-App
! Date: 2025-08-02 16:04:45
! Start: 65MHz Stop: 95MHz Points: 401
! S-Parameter data: F S11
# Hz S RI R 50
!     Frequency           S11_Real           S11_Imag
       65000000    2,862541676e-01    1,556252688e-01
       65075000    2,922132611e-01    1,512916088e-01
       65150000    2,963044047e-01    1,455547214e-01
       65225000    3,002161384e-01    1,379521042e-01
       65300000    3,022596538e-01    1,328892708e-01
       65375000    3,051612079e-01    1,266906112e-01
       65450000    3,072937429e-01    1,189169586e-01
       65525000    3,093526363e-01    1,125412583e-01
       65600000    3,122598231e-01    1,062482074e-01
       65675000    3,122373521e-01    9,940273315e-02
       65750000    3,145569563e-01    9,356555343e-02
       65825000    3,154079616e-01    8,643696457e-02
       65900000    3,171483278e-01    8,204907179e-02
       65975000    3,178418577e-01    7,361500710e-02
       66050000    3,177329004e-01    6,940139830e-02
       66125000    3,197794855e-01    6,305711716e-02
       66200000    3,198634982e-01    5,673388392e-02
       66275000    3,197428882e-01    5,203626677e-02
       66350000    3,204841614e-01    4,699853808e-02
       66425000    3,204629719e-01    3,942235932e-02
       66500000    3,214725256e-01    3,587137908e-02
       66575000    3,215530813e-01    2,973678149e-02
       66650000    3,217046559e-01    2,584537491e-02
       66725000    3,227920532e-01    2,058370784e-02
       66800000    3,221617639e-01    1,601709612e-02
       66875000    3,233250678e-01    1,048654318e-02
       66950000    3,226698041e-01    5,914300214e-03
       67025000    3,229002655e-01    1,323523698e-03
       67100000    3,253999650e-01   -4,539350048e-03
       67175000    3,241420388e-01   -1,005250681e-02
       67250000    3,254439533e-01   -1,390305255e-02
       67325000    3,260007501e-01   -1,938630827e-02
       67400000    3,251909912e-01   -2,674086578e-02
       67475000    3,248254955e-01   -2,991349250e-02
       67550000    3,258666694e-01   -3,689152002e-02
       67625000    3,235537112e-01   -4,257279262e-02
       67700000    3,242774010e-01   -4,681161419e-02
       67775000    3,229699433e-01   -5,301516131e-02
       67850000    3,206897974e-01   -5,801912770e-02
       67925000    3,208341897e-01   -6,256595999e-02
       68000000    3,177610934e-01   -6,801120937e-02
       68075000    3,182248175e-01   -7,182115316e-02
       68150000    3,155657649e-01   -7,736012340e-02
       68225000    3,140829206e-01   -8,115480095e-02
       68300000    3,136603832e-01   -8,692549169e-02
       68375000    3,113300800e-01   -9,014061093e-02
       68450000    3,101259768e-01   -9,530619532e-02
       68525000    3,073564768e-01   -9,990292042e-02
       68600000    3,064698279e-01   -1,038763523e-01
       68675000    3,029460609e-01   -1,091774702e-01
       68750000    3,028005362e-01   -1,117302477e-01
       68825000    2,992850542e-01   -1,179252267e-01
       68900000    2,975106835e-01   -1,191061512e-01
       68975000    2,956047058e-01   -1,246604323e-01
       69050000    2,927374244e-01   -1,264428049e-01
       69125000    2,907800674e-01   -1,314241588e-01
       69200000    2,876679003e-01   -1,331184953e-01
       69275000    2,850489914e-01   -1,385160387e-01
       69350000    2,830060422e-01   -1,391331106e-01
       69425000    2,806938291e-01   -1,437979043e-01
       69500000    2,774900794e-01   -1,447392404e-01
       69575000    2,752234042e-01   -1,490862966e-01
       69650000    2,721704543e-01   -1,497039795e-01
       69725000    2,699560821e-01   -1,534590423e-01
       69800000    2,674984336e-01   -1,543310434e-01
       69875000    2,660780847e-01   -1,572022885e-01
       69950000    2,613345981e-01   -1,591384262e-01
       70025000    2,602157593e-01   -1,588413119e-01
       70100000    2,582653761e-01   -1,625442058e-01
       70175000    2,557805777e-01   -1,653211415e-01
       70250000    2,541789412e-01   -1,639527231e-01
       70325000    2,516531348e-01   -1,677696556e-01
       70400000    2,496092021e-01   -1,671166867e-01
       70475000    2,487277538e-01   -1,701397151e-01
       70550000    2,457283586e-01   -1,723265499e-01
       70625000    2,455084920e-01   -1,715861559e-01
       70700000    2,435256541e-01   -1,741429418e-01
       70775000    2,398417741e-01   -1,752741039e-01
       70850000    2,408739477e-01   -1,775370240e-01
       70925000    2,386935502e-01   -1,793501228e-01
       71000000    2,366470695e-01   -1,785229146e-01
       71075000    2,359564751e-01   -1,812168807e-01
       71150000    2,342512906e-01   -1,836476028e-01
       71225000    2,307720929e-01   -1,843270063e-01
       71300000    2,318932563e-01   -1,849911064e-01
       71375000    2,285902202e-01   -1,875645220e-01
       71450000    2,272794992e-01   -1,873511523e-01
       71525000    2,268316746e-01   -1,891508847e-01
       71600000    2,260040343e-01   -1,909995973e-01
       71675000    2,233233005e-01   -1,933040023e-01
       71750000    2,215738595e-01   -1,924852878e-01
       71825000    2,210341841e-01   -1,963254958e-01
       71900000    2,187628299e-01   -1,952449828e-01
       71975000    2,180254608e-01   -1,969060898e-01
       72050000    2,167340219e-01   -1,994554549e-01
       72125000    2,116082013e-01   -2,014666051e-01
       72200000    2,128619254e-01   -2,015331686e-01
       72275000    2,103136927e-01   -2,047177106e-01
       72350000    2,096150815e-01   -2,034814358e-01
       72425000    2,056050152e-01   -2,053941786e-01
       72500000    2,057128102e-01   -2,058722675e-01
       72575000    2,033063918e-01   -2,087299079e-01
       72650000    1,995858997e-01   -2,071864903e-01
       72725000    1,999008507e-01   -2,074256390e-01
       72800000    1,965143979e-01   -2,100791931e-01
       72875000    1,956799030e-01   -2,093888819e-01
       72950000    1,930723637e-01   -2,104700953e-01
       73025000    1,912607849e-01   -2,110671848e-01
       73100000    1,886325181e-01   -2,116781771e-01
       73175000    1,893202215e-01   -2,101788968e-01
       73250000    1,876944005e-01   -2,101876289e-01
       73325000    1,847128570e-01   -2,132167220e-01
       73400000    1,840366572e-01   -2,106573582e-01
       73475000    1,830084622e-01   -2,109249681e-01
       73550000    1,795210391e-01   -2,111963779e-01
       73625000    1,797836274e-01   -2,118878961e-01
       73700000    1,773221046e-01   -2,104495019e-01
       73775000    1,763315797e-01   -2,116140425e-01
       73850000    1,736195087e-01   -2,123164088e-01
       73925000    1,756531447e-01   -2,104133815e-01
       74000000    1,719228476e-01   -2,134417593e-01
       74075000    1,701271981e-01   -2,102700323e-01
       74150000    1,717647314e-01   -2,106994092e-01
       74225000    1,690376103e-01   -2,110553980e-01
       74300000    1,661975682e-01   -2,106952816e-01
       74375000    1,687416732e-01   -2,099851817e-01
       74450000    1,654015481e-01   -2,110023201e-01
       74525000    1,651661843e-01   -2,084084898e-01
       74600000    1,658227295e-01   -2,103909701e-01
       74675000    1,615677476e-01   -2,084458917e-01
       74750000    1,632400602e-01   -2,091997415e-01
       74825000    1,605341583e-01   -2,101163566e-01
       74900000    1,611794680e-01   -2,081331909e-01
       74975000    1,596057713e-01   -2,099780142e-01
       75050000    1,608167142e-01   -2,074195743e-01
       75125000    1,586175710e-01   -2,086494267e-01
       75200000    1,587878317e-01   -2,059363127e-01
       75275000    1,579497159e-01   -2,079192102e-01
       75350000    1,570659578e-01   -2,050467730e-01
       75425000    1,570877284e-01   -2,055068463e-01
       75500000    1,548004746e-01   -2,050349265e-01
       75575000    1,559560299e-01   -2,049716264e-01
       75650000    1,530261487e-01   -2,037340552e-01
       75725000    1,556168050e-01   -2,053644657e-01
       75800000    1,526127756e-01   -2,033177316e-01
       75875000    1,532904953e-01   -2,026025802e-01
       75950000    1,510881335e-01   -2,027402818e-01
       76025000    1,524376273e-01   -2,015114278e-01
       76100000    1,523349881e-01   -2,021705508e-01
       76175000    1,506620497e-01   -1,998929977e-01
       76250000    1,516804993e-01   -2,019018829e-01
       76325000    1,493712217e-01   -1,988646239e-01
       76400000    1,509627104e-01   -1,993359029e-01
       76475000    1,499041170e-01   -2,014946342e-01
       76550000    1,478899717e-01   -1,982194036e-01
       76625000    1,501834691e-01   -1,968989372e-01
       76700000    1,471403986e-01   -1,987808347e-01
       76775000    1,481769383e-01   -1,949076355e-01
       76850000    1,495079100e-01   -1,936818957e-01
       76925000    1,482570916e-01   -1,952504814e-01
       77000000    1,487602443e-01   -1,909095645e-01
       77075000    1,490918845e-01   -1,907447278e-01
       77150000    1,487498581e-01   -1,908406317e-01
       77225000    1,500604451e-01   -1,887506545e-01
       77300000    1,480960697e-01   -1,876873374e-01
       77375000    1,505200863e-01   -1,867819279e-01
       77450000    1,488283277e-01   -1,860306561e-01
       77525000    1,501946300e-01   -1,841327250e-01
       77600000    1,525069922e-01   -1,826768816e-01
       77675000    1,520317346e-01   -1,834336072e-01
       77750000    1,549276412e-01   -1,800981909e-01
       77825000    1,555763930e-01   -1,795969456e-01
       77900000    1,566906869e-01   -1,799177378e-01
       77975000    1,581104547e-01   -1,763889641e-01
       78050000    1,593882889e-01   -1,766702086e-01
       78125000    1,593561918e-01   -1,773088872e-01
       78200000    1,617930532e-01   -1,742692590e-01
       78275000    1,633394510e-01   -1,739246100e-01
       78350000    1,651179492e-01   -1,745737642e-01
       78425000    1,661787033e-01   -1,739843041e-01
       78500000    1,688849628e-01   -1,706649661e-01
       78575000    1,712530404e-01   -1,713996828e-01
       78650000    1,721520573e-01   -1,695593446e-01
       78725000    1,744625419e-01   -1,694744676e-01
       78800000    1,774847656e-01   -1,703917831e-01
       78875000    1,785669923e-01   -1,683388650e-01
       78950000    1,821288168e-01   -1,696735620e-01
       79025000    1,827245206e-01   -1,674429774e-01
       79100000    1,875442117e-01   -1,687756330e-01
       79175000    1,874263585e-01   -1,713878512e-01
       79250000    1,907033771e-01   -1,684498042e-01
       79325000    1,931760907e-01   -1,709122658e-01
       79400000    1,962012053e-01   -1,703754067e-01
       79475000    1,979581118e-01   -1,714902520e-01
       79550000    1,983758956e-01   -1,724577695e-01
       79625000    2,026665360e-01   -1,731635183e-01
       79700000    2,050890177e-01   -1,743971705e-01
       79775000    2,070460916e-01   -1,749309003e-01
       79850000    2,090818286e-01   -1,757656485e-01
       79925000    2,117152065e-01   -1,772325635e-01
       80000000    2,130307555e-01   -1,764400601e-01
       80075000    2,163436860e-01   -1,798623651e-01
       80150000    2,173899710e-01   -1,834096462e-01
       80225000    2,191056907e-01   -1,818397194e-01
       80300000    2,226183861e-01   -1,834770292e-01
       80375000    2,229638398e-01   -1,853743345e-01
       80450000    2,261825353e-01   -1,873822212e-01
       80525000    2,271358967e-01   -1,906503141e-01
       80600000    2,307931185e-01   -1,907009929e-01
       80675000    2,325958014e-01   -1,940447688e-01
       80750000    2,328028977e-01   -1,928486824e-01
       80825000    2,365492135e-01   -1,979640126e-01
       80900000    2,347706854e-01   -2,000921816e-01
       80975000    2,385424227e-01   -1,995543092e-01
       81050000    2,400023639e-01   -2,040013522e-01
       81125000    2,388856858e-01   -2,058647573e-01
       81200000    2,438241839e-01   -2,081920356e-01
       81275000    2,410910428e-01   -2,109181136e-01
       81350000    2,450118661e-01   -2,131645232e-01
       81425000    2,466906160e-01   -2,162419409e-01
       81500000    2,456610501e-01   -2,167429477e-01
       81575000    2,468560934e-01   -2,211956680e-01
       81650000    2,454937547e-01   -2,233416289e-01
       81725000    2,469268143e-01   -2,230614871e-01
       81800000    2,493900210e-01   -2,265276164e-01
       81875000    2,471995652e-01   -2,300706506e-01
       81950000    2,498947829e-01   -2,314385772e-01
       82025000    2,479710877e-01   -2,343688905e-01
       82100000    2,502163053e-01   -2,347831577e-01
       82175000    2,495653629e-01   -2,387089878e-01
       82250000    2,503104210e-01   -2,386137694e-01
       82325000    2,503500581e-01   -2,414054573e-01
       82400000    2,502612770e-01   -2,408834696e-01
       82475000    2,498278618e-01   -2,438060641e-01
       82550000    2,483908683e-01   -2,444510609e-01
       82625000    2,501509786e-01   -2,462381423e-01
       82700000    2,490857393e-01   -2,477847487e-01
       82775000    2,502639890e-01   -2,496453077e-01
       82850000    2,481473088e-01   -2,499750257e-01
       82925000    2,510799170e-01   -2,522468865e-01
       83000000    2,488469630e-01   -2,533172965e-01
       83075000    2,518898249e-01   -2,540692985e-01
       83150000    2,488355041e-01   -2,546651959e-01
       83225000    2,525642216e-01   -2,563890815e-01
       83300000    2,498680204e-01   -2,575493753e-01
       83375000    2,538540959e-01   -2,593539655e-01
       83450000    2,535689771e-01   -2,619785368e-01
       83525000    2,539654970e-01   -2,598910332e-01
       83600000    2,555219233e-01   -2,639990151e-01
       83675000    2,535114288e-01   -2,636871934e-01
       83750000    2,568858266e-01   -2,646025717e-01
       83825000    2,563836575e-01   -2,680329382e-01
       83900000    2,587004006e-01   -2,662648559e-01
       83975000    2,590655684e-01   -2,688703239e-01
       84050000    2,590858936e-01   -2,674181759e-01
       84125000    2,609505653e-01   -2,700434327e-01
       84200000    2,584348917e-01   -2,744091451e-01
       84275000    2,628112137e-01   -2,711731493e-01
       84350000    2,636393607e-01   -2,754987776e-01
       84425000    2,639091313e-01   -2,738327682e-01
       84500000    2,661299407e-01   -2,782355249e-01
       84575000    2,638779283e-01   -2,784816027e-01
       84650000    2,685914040e-01   -2,790630460e-01
       84725000    2,692822814e-01   -2,820307016e-01
       84800000    2,693977058e-01   -2,811929882e-01
       84875000    2,706069052e-01   -2,849828899e-01
       84950000    2,689224482e-01   -2,870932817e-01
       85025000    2,711011469e-01   -2,865974307e-01
       85100000    2,753565609e-01   -2,888378799e-01
       85175000    2,747009993e-01   -2,927795351e-01
       85250000    2,780864239e-01   -2,901501060e-01
       85325000    2,786541581e-01   -2,934001684e-01
       85400000    2,780230939e-01   -2,943172753e-01
       85475000    2,810898125e-01   -2,970497608e-01
       85550000    2,831532061e-01   -2,992760539e-01
       85625000    2,817428708e-01   -3,022873104e-01
       85700000    2,855890989e-01   -3,024370372e-01
       85775000    2,867280245e-01   -3,045986891e-01
       85850000    2,884454131e-01   -3,088031411e-01
       85925000    2,874203324e-01   -3,092666566e-01
       86000000    2,922812104e-01   -3,119378090e-01
       86075000    2,906401455e-01   -3,157996833e-01
       86150000    2,944647968e-01   -3,150003552e-01
       86225000    2,964129150e-01   -3,180285394e-01
       86300000    2,984705567e-01   -3,222304881e-01
       86375000    2,990786135e-01   -3,251836896e-01
       86450000    2,985951602e-01   -3,259455264e-01
       86525000    3,022522032e-01   -3,297122717e-01
       86600000    3,037866950e-01   -3,341904283e-01
       86675000    3,028979897e-01   -3,355753720e-01
       86750000    3,047672808e-01   -3,398775458e-01
       86825000    3,063653409e-01   -3,433364630e-01
       86900000    3,040369749e-01   -3,479336500e-01
       86975000    3,047328293e-01   -3,515228331e-01
       87050000    3,080231249e-01   -3,509658277e-01
       87125000    3,099339604e-01   -3,557689190e-01
       87200000    3,064211309e-01   -3,595883250e-01
       87275000    3,108875155e-01   -3,611904979e-01
       87350000    3,105624020e-01   -3,661891520e-01
       87425000    3,070431352e-01   -3,691933155e-01
       87500000    3,144603074e-01   -3,694756031e-01
       87575000    3,082775474e-01   -3,758754432e-01
       87650000    3,122985661e-01   -3,785821497e-01
       87725000    3,115689158e-01   -3,856451213e-01
       87800000    3,131917119e-01   -3,849389553e-01
       87875000    3,131425679e-01   -3,908884227e-01
       87950000    3,092068732e-01   -3,937758505e-01
       88025000    3,110049069e-01   -3,938199878e-01
       88100000    3,132562041e-01   -3,988253176e-01
       88175000    3,112654090e-01   -4,057446420e-01
       88250000    3,140550256e-01   -4,051413536e-01
       88325000    3,133245409e-01   -4,088073373e-01
       88400000    3,082198501e-01   -4,122641981e-01
       88475000    3,131345212e-01   -4,163541198e-01
       88550000    3,087310195e-01   -4,200131893e-01
       88625000    3,119142354e-01   -4,215503037e-01
       88700000    3,125519454e-01   -4,257644415e-01
       88775000    3,127623200e-01   -4,295175374e-01
       88850000    3,080183864e-01   -4,333490729e-01
       88925000    3,114566803e-01   -4,361607134e-01
       89000000    3,108378649e-01   -4,421016574e-01
       89075000    3,098669350e-01   -4,418447912e-01
       89150000    3,115787506e-01   -4,483445883e-01
       89225000    3,081472814e-01   -4,490386248e-01
       89300000    3,094658554e-01   -4,540697038e-01
       89375000    3,071675301e-01   -4,563856721e-01
       89450000    3,094989359e-01   -4,618524909e-01
       89525000    3,072167635e-01   -4,683314562e-01
       89600000    3,084182441e-01   -4,681796432e-01
       89675000    3,082323372e-01   -4,723190665e-01
       89750000    3,026518226e-01   -4,789685309e-01
       89825000    3,026686609e-01   -4,788460135e-01
       89900000    3,050465584e-01   -4,843520820e-01
       89975000    3,011546135e-01   -4,868061543e-01
       90050000    3,035044372e-01   -4,921831191e-01
       90125000    2,990918159e-01   -4,992946684e-01
       90200000    3,018970788e-01   -4,989230335e-01
       90275000    3,006228805e-01   -5,041856766e-01
       90350000    2,913764119e-01   -5,083173513e-01
       90425000    2,989273369e-01   -5,104042292e-01
       90500000    2,952404320e-01   -5,196552873e-01
       90575000    2,932867408e-01   -5,178603530e-01
       90650000    2,941978574e-01   -5,236586332e-01
       90725000    2,935076356e-01   -5,295594931e-01
       90800000    2,895090282e-01   -5,297677517e-01
       90875000    2,889191806e-01   -5,365618467e-01
       90950000    2,831129730e-01   -5,388597846e-01
       91025000    2,851917446e-01   -5,430306792e-01
       91100000    2,787331641e-01   -5,471639633e-01
       91175000    2,819185555e-01   -5,525764823e-01
       91250000    2,741321623e-01   -5,575039387e-01
       91325000    2,769397795e-01   -5,596023798e-01
       91400000    2,730485797e-01   -5,672317743e-01
       91475000    2,721713483e-01   -5,660108924e-01
       91550000    2,697469890e-01   -5,742919445e-01
       91625000    2,665845752e-01   -5,740139484e-01
       91700000    2,648996711e-01   -5,801224709e-01
       91775000    2,594999373e-01   -5,805130601e-01
       91850000    2,597136199e-01   -5,871602297e-01
       91925000    2,519807816e-01   -5,872594118e-01
