! NanoVNA-App
! Date: 2025-08-09 13:04:04
! Start: 65MHz Stop: 95MHz Points: 401
! S-Parameter data: F S11
# Hz S RI R 50
!     Frequency           S11_Real           S11_Imag
       65000000   -5,893223286e-01   -4,142839089e-02
       65075000   -5,930504799e-01   -4,417544231e-02
       65150000   -5,900152922e-01   -4,235785455e-02
       65225000   -5,870620012e-01   -3,965174779e-02
       65300000   -5,828261971e-01   -3,683646023e-02
       65375000   -5,808768868e-01   -3,474979475e-02
       65450000   -5,761036873e-01   -3,053078055e-02
       65525000   -5,734189153e-01   -2,856800705e-02
       65600000   -5,704160333e-01   -2,650534920e-02
       65675000   -5,661733747e-01   -2,261560783e-02
       65750000   -5,634053349e-01   -2,056599967e-02
       65825000   -5,598288178e-01   -1,802846044e-02
       65900000   -5,564084053e-01   -1,651236601e-02
       65975000   -5,538691282e-01   -1,304995921e-02
       66050000   -5,496481061e-01   -1,062698103e-02
       66125000   -5,469496250e-01   -8,055699058e-03
       66200000   -5,438513756e-01   -5,246712361e-03
       66275000   -5,400667191e-01   -3,298852360e-03
       66350000   -5,371318460e-01   -1,403228380e-03
       66425000   -5,337092876e-01    1,244692481e-03
       66500000   -5,296881795e-01    3,654891625e-03
       66575000   -5,273619294e-01    6,177999079e-03
       66650000   -5,238084197e-01    7,711669430e-03
       66725000   -5,217934847e-01    9,366631508e-03
       66800000   -5,177549124e-01    1,248983666e-02
       66875000   -5,148481131e-01    1,400466263e-02
       66950000   -5,116280317e-01    1,700789295e-02
       67025000   -5,091093779e-01    1,958723739e-02
       67100000   -5,060454607e-01    2,098694816e-02
       67175000   -5,036643744e-01    2,392932773e-02
       67250000   -4,988940656e-01    2,641552873e-02
       67325000   -4,962666333e-01    2,822585404e-02
       67400000   -4,934681654e-01    3,027878702e-02
       67475000   -4,892547727e-01    3,314906359e-02
       67550000   -4,858499765e-01    3,529984131e-02
       67625000   -4,838348627e-01    3,663019836e-02
       67700000   -4,787227213e-01    3,875143826e-02
       67775000   -4,754335880e-01    4,052737355e-02
       67850000   -4,726777077e-01    4,434134066e-02
       67925000   -4,690124989e-01    4,480489716e-02
       68000000   -4,650507271e-01    4,690084979e-02
       68075000   -4,609074593e-01    4,916114733e-02
       68150000   -4,571343958e-01    5,086700246e-02
       68225000   -4,533091784e-01    5,226292461e-02
       68300000   -4,496188760e-01    5,390617996e-02
       68375000   -4,458726048e-01    5,536280200e-02
       68450000   -4,424117506e-01    5,648328364e-02
       68525000   -4,383836985e-01    5,844743177e-02
       68600000   -4,339625537e-01    5,905678496e-02
       68675000   -4,298918545e-01    6,027453020e-02
       68750000   -4,259403646e-01    6,207485870e-02
       68825000   -4,231734276e-01    6,224697083e-02
       68900000   -4,185823798e-01    6,363102794e-02
       68975000   -4,141922593e-01    6,349582970e-02
       69050000   -4,108266234e-01    6,547829509e-02
       69125000   -4,069996178e-01    6,437145919e-02
       69200000   -4,033828974e-01    6,581719965e-02
       69275000   -3,989953101e-01    6,545753777e-02
       69350000   -3,955290914e-01    6,649520993e-02
       69425000   -3,912592828e-01    6,549644470e-02
       69500000   -3,887440860e-01    6,617283076e-02
       69575000   -3,841591477e-01    6,572002918e-02
       69650000   -3,821757734e-01    6,531340629e-02
       69725000   -3,786818981e-01    6,513838470e-02
       69800000   -3,753841519e-01    6,464154273e-02
       69875000   -3,724049628e-01    6,389373541e-02
       69950000   -3,687512875e-01    6,389797479e-02
       70025000   -3,671410680e-01    6,276218593e-02
       70100000   -3,645779490e-01    6,310385466e-02
       70175000   -3,607136607e-01    6,225807220e-02
       70250000   -3,584479392e-01    6,047209725e-02
       70325000   -3,556142151e-01    6,122424826e-02
       70400000   -3,541120887e-01    5,980335176e-02
       70475000   -3,522945344e-01    5,996277183e-02
       70550000   -3,494072855e-01    5,901314691e-02
       70625000   -3,474834859e-01    5,751064047e-02
       70700000   -3,464497030e-01    5,804161727e-02
       70775000   -3,437635303e-01    5,695962906e-02
       70850000   -3,425418437e-01    5,643702298e-02
       70925000   -3,408541679e-01    5,646726862e-02
       71000000   -3,396596909e-01    5,646791309e-02
       71075000   -3,381933570e-01    5,606248975e-02
       71150000   -3,357707560e-01    5,618721619e-02
       71225000   -3,349129558e-01    5,592503026e-02
       71300000   -3,340131342e-01    5,529228225e-02
       71375000   -3,316883743e-01    5,552614480e-02
       71450000   -3,305359483e-01    5,557378009e-02
       71525000   -3,302151561e-01    5,437122658e-02
       71600000   -3,285239041e-01    5,501206592e-02
       71675000   -3,259683251e-01    5,601916462e-02
       71750000   -3,252931535e-01    5,516690388e-02
       71825000   -3,234704137e-01    5,517754331e-02
       71900000   -3,228554130e-01    5,448497087e-02
       71975000   -3,215027153e-01    5,550578609e-02
       72050000   -3,202468455e-01    5,489823967e-02
       72125000   -3,175437152e-01    5,638322607e-02
       72200000   -3,176131248e-01    5,576168001e-02
       72275000   -3,166077435e-01    5,577152595e-02
       72350000   -3,156360090e-01    5,530662090e-02
       72425000   -3,141886294e-01    5,711534992e-02
       72500000   -3,133016527e-01    5,648921803e-02
       72575000   -3,121229708e-01    5,738118291e-02
       72650000   -3,104402721e-01    5,711041391e-02
       72725000   -3,099769950e-01    5,696673319e-02
       72800000   -3,087173700e-01    5,778626725e-02
       72875000   -3,075985909e-01    5,784969404e-02
       72950000   -3,069359958e-01    5,819886923e-02
       73025000   -3,056028783e-01    5,922135711e-02
       73100000   -3,044811785e-01    5,952241644e-02
       73175000   -3,038285673e-01    5,951529369e-02
       73250000   -3,024581373e-01    6,002005190e-02
       73325000   -3,020776212e-01    6,058160588e-02
       73400000   -3,006202877e-01    6,120363623e-02
       73475000   -2,995169163e-01    6,167080626e-02
       73550000   -2,986913323e-01    6,235718727e-02
       73625000   -2,973750830e-01    6,290367246e-02
       73700000   -2,964206934e-01    6,397822499e-02
       73775000   -2,952271998e-01    6,496149302e-02
       73850000   -2,948235273e-01    6,514238566e-02
       73925000   -2,932488322e-01    6,523482502e-02
       74000000   -2,924122214e-01    6,610981375e-02
       74075000   -2,907018065e-01    6,759389490e-02
       74150000   -2,899865508e-01    6,759750098e-02
       74225000   -2,887259126e-01    6,813965738e-02
       74300000   -2,873179615e-01    7,033021003e-02
       74375000   -2,864554226e-01    6,940377504e-02
       74450000   -2,853031754e-01    7,061444968e-02
       74525000   -2,838725746e-01    7,119940966e-02
       74600000   -2,827365696e-01    7,194705307e-02
       74675000   -2,813401818e-01    7,312697917e-02
       74750000   -2,806161940e-01    7,290039957e-02
       74825000   -2,800910771e-01    7,362052798e-02
       74900000   -2,777487338e-01    7,463305444e-02
       74975000   -2,762364149e-01    7,471437752e-02
       75050000   -2,751089633e-01    7,615397871e-02
       75125000   -2,749652863e-01    7,726551592e-02
       75200000   -2,733869553e-01    7,761710882e-02
       75275000   -2,715674639e-01    7,794792950e-02
       75350000   -2,710273564e-01    7,950971276e-02
       75425000   -2,701934576e-01    7,876770198e-02
       75500000   -2,683705389e-01    7,988472283e-02
       75575000   -2,673499286e-01    8,033280075e-02
       75650000   -2,666065991e-01    8,065029979e-02
       75725000   -2,647337317e-01    8,088130504e-02
       75800000   -2,637915015e-01    8,268418908e-02
       75875000   -2,623452842e-01    8,241880685e-02
       75950000   -2,615495920e-01    8,276889473e-02
       76025000   -2,607326806e-01    8,439612389e-02
       76100000   -2,594524324e-01    8,400698006e-02
       76175000   -2,586758137e-01    8,450756967e-02
       76250000   -2,568386197e-01    8,551385999e-02
       76325000   -2,563794553e-01    8,629985154e-02
       76400000   -2,547622919e-01    8,684742451e-02
       76475000   -2,545100152e-01    8,731821924e-02
       76550000   -2,536667287e-01    8,798610419e-02
       76625000   -2,523847222e-01    8,886292577e-02
       76700000   -2,511414886e-01    8,921829611e-02
       76775000   -2,503864467e-01    8,960271627e-02
       76850000   -2,492573410e-01    9,033322334e-02
       76925000   -2,487885505e-01    9,044080973e-02
       77000000   -2,477298677e-01    9,147776663e-02
       77075000   -2,472083271e-01    9,247674793e-02
       77150000   -2,464286685e-01    9,293937683e-02
       77225000   -2,457094789e-01    9,342443198e-02
       77300000   -2,449625283e-01    9,376957268e-02
       77375000   -2,441562712e-01    9,435909241e-02
       77450000   -2,442366779e-01    9,521801770e-02
       77525000   -2,435258776e-01    9,563039988e-02
       77600000   -2,429939955e-01    9,615872800e-02
       77675000   -2,424682975e-01    9,619773179e-02
       77750000   -2,425024807e-01    9,722061455e-02
       77825000   -2,430557609e-01    9,852834791e-02
       77900000   -2,418754995e-01    9,863760322e-02
       77975000   -2,423084825e-01    9,975171089e-02
       78050000   -2,434703261e-01    1,020724848e-01
       78125000   -2,436355352e-01    1,017121896e-01
       78200000   -2,444753051e-01    1,045356840e-01
       78275000   -2,450925708e-01    1,065195426e-01
       78350000   -2,443596721e-01    1,094619185e-01
       78425000   -2,443320304e-01    1,121355668e-01
       78500000   -2,437833101e-01    1,154495180e-01
       78575000   -2,425675839e-01    1,181460544e-01
       78650000   -2,419046015e-01    1,200621650e-01
       78725000   -2,398302853e-01    1,224647686e-01
       78800000   -2,385915369e-01    1,251643300e-01
       78875000   -2,377659827e-01    1,268243343e-01
       78950000   -2,365472317e-01    1,281227022e-01
       79025000   -2,343939096e-01    1,298705041e-01
       79100000   -2,343028784e-01    1,317937523e-01
       79175000   -2,335865200e-01    1,348946244e-01
       79250000   -2,328855544e-01    1,364193708e-01
       79325000   -2,321134210e-01    1,389601976e-01
       79400000   -2,301944494e-01    1,405789405e-01
       79475000   -2,287778556e-01    1,429219246e-01
       79550000   -2,280548662e-01    1,462752372e-01
       79625000   -2,267131954e-01    1,489541978e-01
       79700000   -2,260386199e-01    1,507646888e-01
       79775000   -2,236142308e-01    1,531296223e-01
       79850000   -2,227286994e-01    1,560287327e-01
       79925000   -2,210446000e-01    1,581995040e-01
       80000000   -2,191625535e-01    1,615754664e-01
       80075000   -2,182659358e-01    1,634195149e-01
       80150000   -2,167484760e-01    1,660127789e-01
       80225000   -2,147204876e-01    1,696432531e-01
       80300000   -2,129974663e-01    1,721135825e-01
       80375000   -2,116759419e-01    1,751411855e-01
       80450000   -2,082765102e-01    1,768441647e-01
       80525000   -2,060620189e-01    1,806390882e-01
       80600000   -2,039345205e-01    1,829688996e-01
       80675000   -2,022509873e-01    1,862848699e-01
       80750000   -2,003316432e-01    1,888631284e-01
       80825000   -1,961472780e-01    1,918087453e-01
       80900000   -1,938189566e-01    1,941918433e-01
       80975000   -1,922705621e-01    1,971222013e-01
       81050000   -1,882307380e-01    1,996908337e-01
       81125000   -1,857066453e-01    2,027929425e-01
       81200000   -1,821601391e-01    2,059421986e-01
       81275000   -1,797674149e-01    2,080561221e-01
       81350000   -1,768285483e-01    2,111695707e-01
       81425000   -1,737839878e-01    2,124455869e-01
       81500000   -1,701765805e-01    2,154275030e-01
       81575000   -1,665599644e-01    2,179308981e-01
       81650000   -1,646313965e-01    2,217154354e-01
       81725000   -1,603124738e-01    2,235337645e-01
       81800000   -1,565936506e-01    2,267995030e-01
       81875000   -1,544449329e-01    2,288136780e-01
       81950000   -1,505884528e-01    2,310259342e-01
       82025000   -1,465665251e-01    2,328826785e-01
       82100000   -1,426689029e-01    2,351693958e-01
       82175000   -1,380744129e-01    2,373943478e-01
       82250000   -1,342130750e-01    2,391975075e-01
       82325000   -1,295829713e-01    2,423420101e-01
       82400000   -1,260751635e-01    2,442686558e-01
       82475000   -1,222636029e-01    2,470226735e-01
       82550000   -1,190233827e-01    2,490786016e-01
       82625000   -1,134425625e-01    2,510978281e-01
       82700000   -1,090929657e-01    2,530876398e-01
       82775000   -1,048018411e-01    2,549804449e-01
       82850000   -9,947630018e-02    2,570531368e-01
       82925000   -9,586180001e-02    2,585518360e-01
       83000000   -9,106038511e-02    2,609712481e-01
       83075000   -8,605471253e-02    2,620524764e-01
       83150000   -8,199398965e-02    2,637091577e-01
       83225000   -7,528331876e-02    2,650765777e-01
       83300000   -7,055608928e-02    2,657077312e-01
       83375000   -6,582167745e-02    2,677438855e-01
       83450000   -6,008427590e-02    2,676634192e-01
       83525000   -5,552313104e-02    2,685059309e-01
       83600000   -4,962674901e-02    2,695912123e-01
       83675000   -4,515810311e-02    2,724074721e-01
       83750000   -3,944399953e-02    2,723917663e-01
       83825000   -3,317648917e-02    2,718283236e-01
       83900000   -2,721816860e-02    2,728484571e-01
       83975000   -2,249598503e-02    2,736391723e-01
       84050000   -1,752948761e-02    2,738366723e-01
       84125000   -1,215206180e-02    2,743990719e-01
       84200000   -5,489034578e-03    2,731010020e-01
       84275000   -5,437853979e-04    2,741095126e-01
       84350000    4,971131217e-03    2,744868994e-01
       84425000    9,910935536e-03    2,735044956e-01
       84500000    1,574340463e-02    2,728552818e-01
       84575000    2,277888544e-02    2,728094459e-01
       84650000    2,796470746e-02    2,726357579e-01
       84725000    3,362636641e-02    2,705914378e-01
       84800000    4,005049914e-02    2,696193755e-01
       84875000    4,624248669e-02    2,686648667e-01
       84950000    5,111589283e-02    2,681095898e-01
       85025000    5,791557580e-02    2,661399543e-01
       85100000    6,380584091e-02    2,656275332e-01
       85175000    6,855903566e-02    2,629374266e-01
       85250000    7,405696064e-02    2,610282898e-01
       85325000    8,066923916e-02    2,595021129e-01
       85400000    8,474793285e-02    2,571237087e-01
       85475000    9,030588716e-02    2,544515431e-01
       85550000    9,693105519e-02    2,531368732e-01
       85625000    1,024615988e-01    2,502441704e-01
       85700000    1,072178856e-01    2,466578335e-01
       85775000    1,133999750e-01    2,435102910e-01
       85850000    1,172350645e-01    2,419993430e-01
       85925000    1,225318313e-01    2,391178906e-01
       86000000    1,280836761e-01    2,345729917e-01
       86075000    1,322000772e-01    2,315667272e-01
       86150000    1,383494884e-01    2,278540432e-01
       86225000    1,424183846e-01    2,236731797e-01
       86300000    1,467159539e-01    2,209845036e-01
       86375000    1,511557251e-01    2,171615213e-01
       86450000    1,549576521e-01    2,134910077e-01
       86525000    1,596300304e-01    2,092535794e-01
       86600000    1,626022607e-01    2,054485977e-01
       86675000    1,666126400e-01    2,012051344e-01
       86750000    1,700408906e-01    1,967410147e-01
       86825000    1,739053428e-01    1,923353672e-01
       86900000    1,772183925e-01    1,883065253e-01
       86975000    1,800913811e-01    1,841238886e-01
       87050000    1,826790422e-01    1,796742529e-01
       87125000    1,861927062e-01    1,760003567e-01
       87200000    1,891155392e-01    1,710811406e-01
       87275000    1,910680383e-01    1,673382968e-01
       87350000    1,945352554e-01    1,631425172e-01
       87425000    1,961170137e-01    1,590296328e-01
       87500000    1,986206025e-01    1,547837257e-01
       87575000    2,007233202e-01    1,506310552e-01
       87650000    2,021324039e-01    1,463328004e-01
       87725000    2,050219476e-01    1,426442116e-01
       87800000    2,058642060e-01    1,383212805e-01
       87875000    2,079551071e-01    1,352307796e-01
       87950000    2,095506638e-01    1,305004954e-01
       88025000    2,108478546e-01    1,267850548e-01
       88100000    2,135806680e-01    1,227800101e-01
       88175000    2,145542353e-01    1,186028421e-01
       88250000    2,153658569e-01    1,146719605e-01
       88325000    2,165358067e-01    1,107878834e-01
       88400000    2,184638679e-01    1,059073582e-01
       88475000    2,194532305e-01    1,023936197e-01
       88550000    2,206840366e-01    9,849219024e-02
       88625000    2,215793580e-01    9,474305809e-02
       88700000    2,219706923e-01    8,993367851e-02
       88775000    2,230806351e-01    8,652638644e-02
       88850000    2,227111310e-01    8,222332597e-02
       88925000    2,229490727e-01    7,808071375e-02
       89000000    2,233747840e-01    7,389681041e-02
       89075000    2,230792940e-01    7,065134495e-02
       89150000    2,220822573e-01    6,638072431e-02
       89225000    2,215997875e-01    6,272596866e-02
       89300000    2,200099528e-01    5,896156654e-02
       89375000    2,188877463e-01    5,546720326e-02
       89450000    2,190908790e-01    5,268211290e-02
       89525000    2,173044533e-01    4,842310026e-02
       89600000    2,149190009e-01    4,668760672e-02
       89675000    2,127156854e-01    4,308441281e-02
       89750000    2,112176269e-01    4,210563749e-02
       89825000    2,095904946e-01    3,955643624e-02
       89900000    2,064439058e-01    3,854852542e-02
       89975000    2,044650465e-01    3,743765131e-02
       90050000    2,030929923e-01    3,696090728e-02
       90125000    1,997446120e-01    3,565490991e-02
       90200000    1,985708326e-01    3,591844067e-02
       90275000    1,966679096e-01    3,654780239e-02
       90350000    1,950803995e-01    3,702554107e-02
       90425000    1,943826526e-01    3,605395928e-02
       90500000    1,924104691e-01    3,894016147e-02
       90575000    1,912759095e-01    4,063148052e-02
       90650000    1,907558292e-01    4,180745408e-02
       90725000    1,904366910e-01    4,363626987e-02
       90800000    1,904113740e-01    4,596069455e-02
       90875000    1,909830868e-01    4,866564274e-02
       90950000    1,913302541e-01    5,019119382e-02
       91025000    1,928922981e-01    5,349690095e-02
       91100000    1,937796623e-01    5,496609211e-02
       91175000    1,959063858e-01    5,783091858e-02
       91250000    1,982032061e-01    6,061879545e-02
       91325000    2,008572519e-01    6,253799051e-02
       91400000    2,028982490e-01    6,456066668e-02
       91475000    2,060022354e-01    6,633397937e-02
       91550000    2,097614557e-01    6,892943382e-02
       91625000    2,146255821e-01    7,013431191e-02
       91700000    2,176735997e-01    7,207976282e-02
       91775000    2,216873467e-01    7,343903184e-02
       91850000    2,264465094e-01    7,474508137e-02
       91925000    2,309475839e-01    7,490094751e-02
