! NanoVNA-App
! Date: 2025-08-09 16:29:47
! Start: 65MHz Stop: 95MHz Points: 401
! S-Parameter data: F S11
# Hz S RI R 50
!     Frequency           S11_Real           S11_Imag
       65000000   -6,499908566e-01   -6,165189743e-01
       65075000   -6,546487212e-01   -6,200463772e-01
       65150000   -6,577005386e-01   -6,211993694e-01
       65225000   -6,565400958e-01   -6,153244972e-01
       65300000   -6,589065790e-01   -6,105126739e-01
       65375000   -6,631274819e-01   -6,072616577e-01
       65450000   -6,644297838e-01   -6,055378318e-01
       65525000   -6,657469273e-01   -6,021295786e-01
       65600000   -6,687868834e-01   -5,993310213e-01
       65675000   -6,694464684e-01   -5,973618627e-01
       65750000   -6,716744304e-01   -5,957713127e-01
       65825000   -6,695710421e-01   -5,929530859e-01
       65900000   -6,713170409e-01   -5,900911093e-01
       65975000   -6,724708676e-01   -5,859484076e-01
       66050000   -6,748959422e-01   -5,835194588e-01
       66125000   -6,799978018e-01   -5,813055634e-01
       66200000   -6,775972843e-01   -5,795682669e-01
       66275000   -6,811976433e-01   -5,741321445e-01
       66350000   -6,832332015e-01   -5,734719038e-01
       66425000   -6,785911918e-01   -5,729430914e-01
       66500000   -6,848813295e-01   -5,679512620e-01
       66575000   -6,838387251e-01   -5,631990433e-01
       66650000   -6,870153546e-01   -5,611705184e-01
       66725000   -6,909642220e-01   -5,575876832e-01
       66800000   -6,906449795e-01   -5,559545159e-01
       66875000   -6,934786439e-01   -5,516477823e-01
       66950000   -6,939079762e-01   -5,489491224e-01
       67025000   -6,955309510e-01   -5,476911664e-01
       67100000   -6,977424026e-01   -5,438970327e-01
       67175000   -6,965563297e-01   -5,401850343e-01
       67250000   -6,982722878e-01   -5,373639464e-01
       67325000   -6,994979382e-01   -5,355927944e-01
       67400000   -7,006216049e-01   -5,319641829e-01
       67475000   -7,039486766e-01   -5,284108520e-01
       67550000   -7,054120898e-01   -5,290991068e-01
       67625000   -7,050207257e-01   -5,231832862e-01
       67700000   -7,057701945e-01   -5,209903121e-01
       67775000   -7,105333805e-01   -5,175342560e-01
       67850000   -7,097381353e-01   -5,161625743e-01
       67925000   -7,120028734e-01   -5,131427050e-01
       68000000   -7,125884295e-01   -5,100007653e-01
       68075000   -7,136548758e-01   -5,046032071e-01
       68150000   -7,145536542e-01   -5,004839301e-01
       68225000   -7,169821858e-01   -5,001316071e-01
       68300000   -7,189989090e-01   -4,962984324e-01
       68375000   -7,188233137e-01   -4,941945374e-01
       68450000   -7,202748060e-01   -4,918785393e-01
       68525000   -7,201730609e-01   -4,890113175e-01
       68600000   -7,221488357e-01   -4,856598079e-01
       68675000   -7,224807739e-01   -4,795922041e-01
       68750000   -7,241948247e-01   -4,783051908e-01
       68825000   -7,265447974e-01   -4,732063115e-01
       68900000   -7,268405557e-01   -4,716722965e-01
       68975000   -7,292993069e-01   -4,683029652e-01
       69050000   -7,293878794e-01   -4,657995701e-01
       69125000   -7,314181328e-01   -4,627989531e-01
       69200000   -7,309785485e-01   -4,597372413e-01
       69275000   -7,332976460e-01   -4,565390944e-01
       69350000   -7,330192924e-01   -4,541081190e-01
       69425000   -7,349979877e-01   -4,507355690e-01
       69500000   -7,351612449e-01   -4,483302534e-01
       69575000   -7,368939519e-01   -4,447536469e-01
       69650000   -7,364546657e-01   -4,428302050e-01
       69725000   -7,384167910e-01   -4,392683208e-01
       69800000   -7,380796671e-01   -4,369011819e-01
       69875000   -7,398809195e-01   -4,339292347e-01
       69950000   -7,400494814e-01   -4,276410937e-01
       70025000   -7,410297394e-01   -4,283430576e-01
       70100000   -7,414483428e-01   -4,237498343e-01
       70175000   -7,434177399e-01   -4,191495478e-01
       70250000   -7,437778711e-01   -4,200435281e-01
       70325000   -7,449406385e-01   -4,154987037e-01
       70400000   -7,448235750e-01   -4,132748544e-01
       70475000   -7,446756959e-01   -4,098261595e-01
       70550000   -7,474919558e-01   -4,049622416e-01
       70625000   -7,471223474e-01   -4,048066437e-01
       70700000   -7,478020191e-01   -4,014280140e-01
       70775000   -7,476654649e-01   -3,976504207e-01
       70850000   -7,498064637e-01   -3,951997161e-01
       70925000   -7,512909770e-01   -3,923593462e-01
       71000000   -7,518354654e-01   -3,912697732e-01
       71075000   -7,517035604e-01   -3,862108290e-01
       71150000   -7,549375296e-01   -3,829837143e-01
       71225000   -7,550470233e-01   -3,789892793e-01
       71300000   -7,548780441e-01   -3,761561215e-01
       71375000   -7,571152449e-01   -3,735021949e-01
       71450000   -7,559584975e-01   -3,712296486e-01
       71525000   -7,573489547e-01   -3,688861728e-01
       71600000   -7,582967281e-01   -3,638641834e-01
       71675000   -7,595742345e-01   -3,616076708e-01
       71750000   -7,589948773e-01   -3,588420749e-01
       71825000   -7,601174116e-01   -3,549996018e-01
       71900000   -7,600206137e-01   -3,527964354e-01
       71975000   -7,612647414e-01   -3,499536216e-01
       72050000   -7,618934512e-01   -3,449093401e-01
       72125000   -7,623716593e-01   -3,408346176e-01
       72200000   -7,626122236e-01   -3,395139575e-01
       72275000   -7,632519007e-01   -3,357696235e-01
       72350000   -7,625063658e-01   -3,339281976e-01
       72425000   -7,636133432e-01   -3,297440410e-01
       72500000   -7,609995008e-01   -3,284438252e-01
       72575000   -7,639195919e-01   -3,243777454e-01
       72650000   -7,641933560e-01   -3,199289739e-01
       72725000   -7,645394802e-01   -3,192985356e-01
       72800000   -7,651429176e-01   -3,161889613e-01
       72875000   -7,643762827e-01   -3,131543994e-01
       72950000   -7,660126686e-01   -3,107783496e-01
       73025000   -7,662075758e-01   -3,066965044e-01
       73100000   -7,673849463e-01   -3,036022186e-01
       73175000   -7,663601041e-01   -3,025868237e-01
       73250000   -7,679308057e-01   -2,996955514e-01
       73325000   -7,680304646e-01   -2,967150211e-01
       73400000   -7,675754428e-01   -2,932136059e-01
       73475000   -7,683843970e-01   -2,904327810e-01
       73550000   -7,695004940e-01   -2,865354121e-01
       73625000   -7,698850036e-01   -2,843854129e-01
       73700000   -7,712394595e-01   -2,811606824e-01
       73775000   -7,704194188e-01   -2,786107361e-01
       73850000   -7,718394399e-01   -2,761625350e-01
       73925000   -7,710700631e-01   -2,730873227e-01
       74000000   -7,720384598e-01   -2,701293230e-01
       74075000   -7,726536393e-01   -2,650910616e-01
       74150000   -7,728656530e-01   -2,655674517e-01
       74225000   -7,732710838e-01   -2,617275417e-01
       74300000   -7,744817734e-01   -2,577714622e-01
       74375000   -7,746740580e-01   -2,560100853e-01
       74450000   -7,751523852e-01   -2,521831691e-01
       74525000   -7,748320699e-01   -2,483645380e-01
       74600000   -7,757761478e-01   -2,460234463e-01
       74675000   -7,760838866e-01   -2,429892868e-01
       74750000   -7,749911547e-01   -2,399421781e-01
       74825000   -7,768375278e-01   -2,376872599e-01
       74900000   -7,761512995e-01   -2,347745895e-01
       74975000   -7,780101895e-01   -2,310140431e-01
       75050000   -7,781786919e-01   -2,266543657e-01
       75125000   -7,776831388e-01   -2,249073237e-01
       75200000   -7,785642743e-01   -2,211879939e-01
       75275000   -7,783694863e-01   -2,183211595e-01
       75350000   -7,789313793e-01   -2,152951062e-01
       75425000   -7,783657312e-01   -2,134459466e-01
       75500000   -7,788965702e-01   -2,094156593e-01
       75575000   -7,783659697e-01   -2,075627744e-01
       75650000   -7,793943286e-01   -2,038109750e-01
       75725000   -7,795042992e-01   -2,017382979e-01
       75800000   -7,789944410e-01   -1,975594014e-01
       75875000   -7,788621187e-01   -1,952850074e-01
       75950000   -7,796218395e-01   -1,921744347e-01
       76025000   -7,795366049e-01   -1,887778044e-01
       76100000   -7,786317468e-01   -1,865922958e-01
       76175000   -7,794243097e-01   -1,835312247e-01
       76250000   -7,789881229e-01   -1,797088832e-01
       76325000   -7,791516781e-01   -1,768805385e-01
       76400000   -7,783410549e-01   -1,742250174e-01
       76475000   -7,782576084e-01   -1,703802645e-01
       76550000   -7,801400423e-01   -1,681316048e-01
       76625000   -7,787855864e-01   -1,649602652e-01
       76700000   -7,795779109e-01   -1,630529910e-01
       76775000   -7,788627744e-01   -1,597943455e-01
       76850000   -7,785809636e-01   -1,560428739e-01
       76925000   -7,783554196e-01   -1,546064317e-01
       77000000   -7,792362571e-01   -1,517938524e-01
       77075000   -7,794116735e-01   -1,483549476e-01
       77150000   -7,794843316e-01   -1,460517496e-01
       77225000   -7,789901495e-01   -1,442272663e-01
       77300000   -7,799152136e-01   -1,401306540e-01
       77375000   -7,806290388e-01   -1,372159123e-01
       77450000   -7,812657952e-01   -1,356674731e-01
       77525000   -7,812297344e-01   -1,319376081e-01
       77600000   -7,810718417e-01   -1,285407245e-01
       77675000   -7,798390985e-01   -1,257640570e-01
       77750000   -7,807219028e-01   -1,223943457e-01
       77825000   -7,812444568e-01   -1,188136712e-01
       77900000   -7,800981402e-01   -1,175929010e-01
       77975000   -7,806948423e-01   -1,136611775e-01
       78050000   -7,808999419e-01   -1,101862863e-01
       78125000   -7,803179026e-01   -1,087410673e-01
       78200000   -7,798398137e-01   -1,040914580e-01
       78275000   -7,806773782e-01   -1,016482115e-01
       78350000   -7,804225087e-01   -9,944815189e-02
       78425000   -7,809486985e-01   -9,699787199e-02
       78500000   -7,808752060e-01   -9,259244055e-02
       78575000   -7,804256082e-01   -9,024395794e-02
       78650000   -7,814982533e-01   -8,717669547e-02
       78725000   -7,807918191e-01   -8,418875933e-02
       78800000   -7,796763778e-01   -8,128058165e-02
       78875000   -7,813667655e-01   -7,780374587e-02
       78950000   -7,800266147e-01   -7,503800839e-02
       79025000   -7,819173932e-01   -7,206881791e-02
       79100000   -7,816510201e-01   -6,920748949e-02
       79175000   -7,807311416e-01   -6,780909002e-02
       79250000   -7,811228037e-01   -6,364735961e-02
       79325000   -7,802906632e-01   -6,016280502e-02
       79400000   -7,812190652e-01   -5,746102706e-02
       79475000   -7,816182375e-01   -5,416111648e-02
       79550000   -7,802594304e-01   -5,220677331e-02
       79625000   -7,815378308e-01   -4,807577655e-02
       79700000   -7,809286714e-01   -4,469195008e-02
       79775000   -7,820920348e-01   -4,170690849e-02
       79850000   -7,807084322e-01   -3,847168013e-02
       79925000   -7,809667587e-01   -3,452064842e-02
       80000000   -7,819197774e-01   -3,204626963e-02
       80075000   -7,818192244e-01   -2,892158367e-02
       80150000   -7,807928324e-01   -2,661902457e-02
       80225000   -7,819883823e-01   -2,418054827e-02
       80300000   -7,817533612e-01   -1,916424185e-02
       80375000   -7,808501720e-01   -1,715696789e-02
       80450000   -7,819188833e-01   -1,265969407e-02
       80525000   -7,807359695e-01   -9,274807759e-03
       80600000   -7,816036940e-01   -5,517626647e-03
       80675000   -7,806950808e-01   -2,749730367e-03
       80750000   -7,813311219e-01   -3,143447684e-04
       80825000   -7,807440162e-01    4,853700753e-03
       80900000   -7,799463868e-01    7,362972479e-03
       80975000   -7,806192040e-01    1,040033530e-02
       81050000   -7,800227404e-01    1,494637225e-02
       81125000   -7,789180279e-01    1,717506163e-02
       81200000   -7,789890170e-01    2,113865688e-02
       81275000   -7,787637711e-01    2,462647669e-02
       81350000   -7,787249684e-01    2,850870229e-02
       81425000   -7,789269686e-01    3,268033266e-02
       81500000   -7,788937688e-01    3,622617573e-02
       81575000   -7,782903910e-01    3,977338225e-02
       81650000   -7,778689861e-01    4,217787832e-02
       81725000   -7,766214013e-01    4,510624707e-02
       81800000   -7,759971619e-01    5,033340678e-02
       81875000   -7,756612897e-01    5,330592766e-02
       81950000   -7,752549052e-01    5,686202645e-02
       82025000   -7,752479911e-01    6,056382135e-02
       82100000   -7,760929465e-01    6,471943855e-02
       82175000   -7,739441395e-01    6,817138940e-02
       82250000   -7,742205262e-01    7,201316953e-02
       82325000   -7,726810575e-01    7,472958416e-02
       82400000   -7,720935345e-01    7,722144574e-02
       82475000   -7,713744044e-01    8,228592575e-02
       82550000   -7,711055279e-01    8,479284495e-02
       82625000   -7,707934976e-01    9,017654508e-02
       82700000   -7,684829831e-01    9,304913133e-02
       82775000   -7,689462900e-01    9,733961523e-02
       82850000   -7,683286667e-01    1,004951000e-01
       82925000   -7,679545283e-01    1,040525585e-01
       83000000   -7,672784925e-01    1,071539223e-01
       83075000   -7,660929561e-01    1,122368649e-01
       83150000   -7,656059861e-01    1,155246943e-01
       83225000   -7,648780942e-01    1,200164407e-01
       83300000   -7,631129026e-01    1,233539730e-01
       83375000   -7,629316449e-01    1,276257783e-01
       83450000   -7,616627216e-01    1,309478134e-01
       83525000   -7,610530257e-01    1,336639076e-01
       83600000   -7,591359019e-01    1,388856322e-01
       83675000   -7,583692074e-01    1,437093318e-01
       83750000   -7,579000592e-01    1,479208171e-01
       83825000   -7,560979128e-01    1,511912644e-01
       83900000   -7,561264634e-01    1,531797647e-01
       83975000   -7,533175945e-01    1,589441895e-01
       84050000   -7,522793412e-01    1,618897915e-01
       84125000   -7,513063550e-01    1,671620458e-01
       84200000   -7,498167753e-01    1,709772646e-01
       84275000   -7,476057410e-01    1,739193201e-01
       84350000   -7,462854385e-01    1,790798753e-01
       84425000   -7,439396381e-01    1,829647571e-01
       84500000   -7,432513237e-01    1,862499714e-01
       84575000   -7,420880795e-01    1,911579520e-01
       84650000   -7,403405309e-01    1,930747032e-01
       84725000   -7,385364771e-01    1,989801973e-01
       84800000   -7,363331914e-01    2,025379241e-01
       84875000   -7,333349586e-01    2,069462538e-01
       84950000   -7,327648401e-01    2,106738836e-01
       85025000   -7,301586270e-01    2,139829844e-01
       85100000   -7,298621535e-01    2,179734111e-01
       85175000   -7,250108719e-01    2,225795388e-01
       85250000   -7,239015102e-01    2,255486697e-01
       85325000   -7,219801545e-01    2,302380800e-01
       85400000   -7,193726301e-01    2,339910716e-01
       85475000   -7,176405191e-01    2,384015769e-01
       85550000   -7,142609358e-01    2,419592142e-01
       85625000   -7,122541666e-01    2,448234111e-01
       85700000   -7,088245153e-01    2,477486730e-01
       85775000   -7,068320513e-01    2,537722886e-01
       85850000   -7,040000558e-01    2,555346489e-01
       85925000   -7,018197775e-01    2,594497800e-01
       86000000   -6,994345188e-01    2,628849745e-01
       86075000   -6,952434182e-01    2,654749453e-01
       86150000   -6,918122768e-01    2,693585753e-01
       86225000   -6,897408962e-01    2,713893950e-01
       86300000   -6,882565618e-01    2,760067582e-01
       86375000   -6,843048930e-01    2,791291177e-01
       86450000   -6,809175014e-01    2,822954357e-01
       86525000   -6,772820950e-01    2,843131423e-01
       86600000   -6,744349003e-01    2,885930836e-01
       86675000   -6,718745828e-01    2,911106646e-01
       86750000   -6,692575812e-01    2,936251462e-01
       86825000   -6,650060415e-01    2,963083088e-01
       86900000   -6,609295607e-01    2,983910143e-01
       86975000   -6,580898762e-01    3,000358641e-01
       87050000   -6,553125381e-01    3,030788004e-01
       87125000   -6,539849639e-01    3,036432564e-01
       87200000   -6,491674781e-01    3,063439429e-01
       87275000   -6,467096806e-01    3,094264865e-01
       87350000   -6,445201039e-01    3,102462292e-01
       87425000   -6,406868696e-01    3,124839365e-01
       87500000   -6,356933713e-01    3,138383627e-01
       87575000   -6,347479224e-01    3,154890239e-01
       87650000   -6,320824623e-01    3,171542585e-01
       87725000   -6,285684705e-01    3,202808499e-01
       87800000   -6,261583567e-01    3,208539784e-01
       87875000   -6,237966418e-01    3,238601089e-01
       87950000   -6,204652786e-01    3,238790333e-01
       88025000   -6,198101640e-01    3,259440362e-01
       88100000   -6,167623401e-01    3,270640075e-01
       88175000   -6,140201092e-01    3,299547732e-01
       88250000   -6,111947298e-01    3,316964507e-01
       88325000   -6,108658314e-01    3,318117261e-01
       88400000   -6,065815687e-01    3,340642154e-01
       88475000   -6,046066284e-01    3,347176909e-01
       88550000   -6,014372706e-01    3,373791873e-01
       88625000   -6,011677384e-01    3,404583037e-01
       88700000   -5,978820324e-01    3,409901261e-01
       88775000   -5,970974565e-01    3,419115841e-01
       88850000   -5,925097466e-01    3,450628519e-01
       88925000   -5,908895135e-01    3,466177881e-01
       89000000   -5,885637403e-01    3,485460877e-01
       89075000   -5,861300230e-01    3,486518860e-01
       89150000   -5,842717886e-01    3,494632244e-01
       89225000   -5,801770687e-01    3,510307968e-01
       89300000   -5,787374377e-01    3,521164060e-01
       89375000   -5,755016804e-01    3,532239199e-01
       89450000   -5,728273392e-01    3,536187410e-01
       89525000   -5,729138851e-01    3,554136455e-01
       89600000   -5,705169439e-01    3,557451963e-01
       89675000   -5,682051778e-01    3,559359312e-01
       89750000   -5,662249327e-01    3,582299948e-01
       89825000   -5,648557544e-01    3,573263884e-01
       89900000   -5,640345812e-01    3,579070270e-01
       89975000   -5,623313785e-01    3,575168550e-01
       90050000   -5,607727170e-01    3,590726256e-01
       90125000   -5,617937446e-01    3,603570461e-01
       90200000   -5,607293844e-01    3,593877554e-01
       90275000   -5,598376393e-01    3,601485789e-01
       90350000   -5,583125949e-01    3,621385098e-01
       90425000   -5,599945188e-01    3,629628420e-01
       90500000   -5,604000092e-01    3,635339737e-01
       90575000   -5,598018765e-01    3,654525578e-01
       90650000   -5,601286888e-01    3,674727380e-01
       90725000   -5,598030090e-01    3,684976399e-01
       90800000   -5,605422854e-01    3,709749579e-01
       90875000   -5,610873699e-01    3,728082478e-01
       90950000   -5,611339211e-01    3,759212792e-01
       91025000   -5,608898997e-01    3,789081275e-01
       91100000   -5,615568757e-01    3,820228875e-01
       91175000   -5,628868341e-01    3,851960897e-01
       91250000   -5,631065369e-01    3,888557255e-01
       91325000   -5,631021261e-01    3,913478851e-01
       91400000   -5,631253123e-01    3,936799169e-01
       91475000   -5,615930557e-01    3,983502984e-01
       91550000   -5,614270568e-01    4,017365575e-01
       91625000   -5,604413152e-01    4,057952464e-01
       91700000   -5,610808730e-01    4,100104272e-01
       91775000   -5,583342910e-01    4,141373038e-01
       91850000   -5,591257811e-01    4,189563692e-01
       91925000   -5,574280024e-01    4,234371185e-01
