! NanoVNA-App
! Date: 2025-08-09 13:10:52
! Start: 65MHz Stop: 95MHz Points: 401
! S-Parameter data: F S11
# Hz S RI R 50
!     Frequency           S11_Real           S11_Imag
       65000000    5,693978667e-01   -7,900431752e-02
       65075000    5,726377368e-01   -7,968984544e-02
       65150000    5,694371462e-01   -8,326914161e-02
       65225000    5,688666105e-01   -8,605619520e-02
       65300000    5,670698881e-01   -9,022935480e-02
       65375000    5,646592975e-01   -9,234738350e-02
       65450000    5,627337098e-01   -9,538500756e-02
       65525000    5,619356036e-01   -9,924606234e-02
       65600000    5,593933463e-01   -1,023583114e-01
       65675000    5,572838187e-01   -1,051825285e-01
       65750000    5,552014709e-01   -1,085987091e-01
       65825000    5,542061329e-01   -1,122105494e-01
       65900000    5,523599386e-01   -1,147702336e-01
       65975000    5,503525138e-01   -1,190883145e-01
       66050000    5,487123728e-01   -1,208514795e-01
       66125000    5,486426950e-01   -1,231019497e-01
       66200000    5,457796454e-01   -1,268154830e-01
       66275000    5,443381667e-01   -1,298627704e-01
       66350000    5,423748493e-01   -1,333738267e-01
       66425000    5,409202576e-01   -1,358118057e-01
       66500000    5,394275784e-01   -1,398452818e-01
       66575000    5,374324322e-01   -1,419293731e-01
       66650000    5,365668535e-01   -1,449343115e-01
       66725000    5,341303945e-01   -1,468728930e-01
       66800000    5,332089663e-01   -1,497306377e-01
       66875000    5,321539044e-01   -1,518718153e-01
       66950000    5,308182240e-01   -1,550476700e-01
       67025000    5,291734338e-01   -1,581994891e-01
       67100000    5,278010964e-01   -1,616645753e-01
       67175000    5,276470184e-01   -1,636280417e-01
       67250000    5,271875858e-01   -1,669436395e-01
       67325000    5,260343552e-01   -1,697981805e-01
       67400000    5,244731903e-01   -1,726370454e-01
       67475000    5,215169191e-01   -1,760443747e-01
       67550000    5,210956931e-01   -1,784557104e-01
       67625000    5,205271840e-01   -1,806525737e-01
       67700000    5,181341767e-01   -1,843135357e-01
       67775000    5,171979666e-01   -1,877061576e-01
       67850000    5,159804821e-01   -1,906883568e-01
       67925000    5,146422386e-01   -1,930834055e-01
       68000000    5,132744908e-01   -1,971890628e-01
       68075000    5,112535357e-01   -1,995643675e-01
       68150000    5,101962686e-01   -2,020848393e-01
       68225000    5,088206530e-01   -2,067433745e-01
       68300000    5,076063275e-01   -2,091549039e-01
       68375000    5,055357218e-01   -2,130852789e-01
       68450000    5,034991503e-01   -2,149202526e-01
       68525000    5,024735928e-01   -2,184964716e-01
       68600000    5,002648234e-01   -2,212033272e-01
       68675000    4,981172681e-01   -2,244671732e-01
       68750000    4,961423576e-01   -2,268194258e-01
       68825000    4,932616949e-01   -2,312682718e-01
       68900000    4,921188951e-01   -2,335729003e-01
       68975000    4,898138642e-01   -2,367828041e-01
       69050000    4,873252213e-01   -2,396412939e-01
       69125000    4,856926203e-01   -2,418252975e-01
       69200000    4,826438129e-01   -2,444392741e-01
       69275000    4,808482528e-01   -2,479060441e-01
       69350000    4,778354168e-01   -2,496200055e-01
       69425000    4,750843942e-01   -2,527720332e-01
       69500000    4,727013111e-01   -2,545546591e-01
       69575000    4,710215628e-01   -2,571637630e-01
       69650000    4,683702588e-01   -2,585559487e-01
       69725000    4,656252563e-01   -2,605514526e-01
       69800000    4,622503817e-01   -2,624858320e-01
       69875000    4,613960087e-01   -2,634898722e-01
       69950000    4,569605291e-01   -2,673355639e-01
       70025000    4,545753300e-01   -2,675913274e-01
       70100000    4,520198405e-01   -2,703402936e-01
       70175000    4,496604502e-01   -2,719739974e-01
       70250000    4,466606081e-01   -2,720183730e-01
       70325000    4,440639317e-01   -2,732164860e-01
       70400000    4,411032498e-01   -2,750252783e-01
       70475000    4,397826493e-01   -2,780688703e-01
       70550000    4,370380044e-01   -2,772323787e-01
       70625000    4,343802929e-01   -2,773337662e-01
       70700000    4,332849979e-01   -2,802566886e-01
       70775000    4,309860766e-01   -2,807500660e-01
       70850000    4,286693633e-01   -2,804659307e-01
       70925000    4,255116582e-01   -2,829895914e-01
       71000000    4,241765141e-01   -2,832396030e-01
       71075000    4,229646921e-01   -2,838591635e-01
       71150000    4,204933345e-01   -2,855753601e-01
       71225000    4,176429212e-01   -2,852896154e-01
       71300000    4,163023233e-01   -2,856487930e-01
       71375000    4,152766168e-01   -2,881501317e-01
       71450000    4,135414362e-01   -2,870877981e-01
       71525000    4,125191271e-01   -2,881222665e-01
       71600000    4,099924862e-01   -2,894786298e-01
       71675000    4,087485671e-01   -2,896897793e-01
       71750000    4,079252481e-01   -2,906458378e-01
       71825000    4,055128992e-01   -2,908875048e-01
       71900000    4,045279026e-01   -2,912486196e-01
       71975000    4,034312069e-01   -2,926675379e-01
       72050000    4,010519087e-01   -2,944673896e-01
       72125000    4,000792205e-01   -2,948270142e-01
       72200000    3,989349008e-01   -2,954958677e-01
       72275000    3,969341516e-01   -2,950053513e-01
       72350000    3,971796632e-01   -2,953308225e-01
       72425000    3,938477039e-01   -2,959303856e-01
       72500000    3,934859335e-01   -2,942244112e-01
       72575000    3,918061852e-01   -2,976831496e-01
       72650000    3,902277052e-01   -2,988018095e-01
       72725000    3,886811435e-01   -2,990911305e-01
       72800000    3,878298402e-01   -2,995026112e-01
       72875000    3,858767748e-01   -3,003817201e-01
       72950000    3,853393197e-01   -3,004834354e-01
       73025000    3,833636642e-01   -3,012130857e-01
       73100000    3,834200501e-01   -3,015746474e-01
       73175000    3,815049231e-01   -3,032644391e-01
       73250000    3,815694153e-01   -3,039676845e-01
       73325000    3,808541298e-01   -3,044143915e-01
       73400000    3,789702654e-01   -3,057864606e-01
       73475000    3,785939813e-01   -3,056207299e-01
       73550000    3,783532083e-01   -3,064416647e-01
       73625000    3,770333230e-01   -3,065064251e-01
       73700000    3,772302568e-01   -3,067289591e-01
       73775000    3,746387064e-01   -3,070791960e-01
       73850000    3,738512397e-01   -3,080555797e-01
       73925000    3,732607961e-01   -3,106531203e-01
       74000000    3,725759685e-01   -3,104254305e-01
       74075000    3,729000092e-01   -3,113396168e-01
       74150000    3,699043095e-01   -3,117712438e-01
       74225000    3,694179952e-01   -3,119473159e-01
       74300000    3,684389293e-01   -3,135089278e-01
       74375000    3,682699203e-01   -3,143822849e-01
       74450000    3,679472506e-01   -3,140795529e-01
       74525000    3,669135273e-01   -3,145591319e-01
       74600000    3,657266200e-01   -3,151232898e-01
       74675000    3,642987013e-01   -3,170027435e-01
       74750000    3,635716438e-01   -3,171760738e-01
       74825000    3,635866642e-01   -3,197872937e-01
       74900000    3,629074991e-01   -3,195249140e-01
       74975000    3,622687459e-01   -3,197600245e-01
       75050000    3,600293100e-01   -3,199965060e-01
       75125000    3,596894145e-01   -3,209879398e-01
       75200000    3,579169512e-01   -3,209834099e-01
       75275000    3,575937152e-01   -3,223573864e-01
       75350000    3,562807143e-01   -3,232103586e-01
       75425000    3,560928702e-01   -3,242840469e-01
       75500000    3,549954295e-01   -3,260542452e-01
       75575000    3,553552032e-01   -3,268171847e-01
       75650000    3,540235460e-01   -3,275428116e-01
       75725000    3,527722359e-01   -3,270817101e-01
       75800000    3,529752493e-01   -3,284326196e-01
       75875000    3,522346318e-01   -3,282220662e-01
       75950000    3,506274223e-01   -3,294116259e-01
       76025000    3,484936655e-01   -3,307967782e-01
       76100000    3,482113779e-01   -3,302105665e-01
       76175000    3,481043577e-01   -3,317709565e-01
       76250000    3,472036719e-01   -3,310294449e-01
       76325000    3,481139839e-01   -3,317405283e-01
       76400000    3,461935520e-01   -3,303863108e-01
       76475000    3,434842229e-01   -3,319312930e-01
       76550000    3,444198072e-01   -3,317413330e-01
       76625000    3,421230316e-01   -3,312884569e-01
       76700000    3,420186937e-01   -3,321421146e-01
       76775000    3,423984051e-01   -3,334856927e-01
       76850000    3,390262127e-01   -3,329053819e-01
       76925000    3,399108350e-01   -3,346656561e-01
       77000000    3,400591016e-01   -3,360982239e-01
       77075000    3,381918669e-01   -3,368823528e-01
       77150000    3,364460766e-01   -3,353656828e-01
       77225000    3,370797932e-01   -3,342186213e-01
       77300000    3,345775902e-01   -3,352046311e-01
       77375000    3,345521092e-01   -3,347105384e-01
       77450000    3,340418041e-01   -3,372345269e-01
       77525000    3,343588710e-01   -3,362867236e-01
       77600000    3,336631060e-01   -3,368684351e-01
       77675000    3,328616321e-01   -3,353071213e-01
       77750000    3,323832452e-01   -3,341637552e-01
       77825000    3,318966925e-01   -3,351757228e-01
       77900000    3,307823539e-01   -3,329928219e-01
       77975000    3,290836513e-01   -3,342527151e-01
       78050000    3,308865726e-01   -3,332921863e-01
       78125000    3,306928575e-01   -3,308752775e-01
       78200000    3,292999566e-01   -3,318563998e-01
       78275000    3,311716318e-01   -3,284384310e-01
       78350000    3,315704167e-01   -3,294848204e-01
       78425000    3,338931203e-01   -3,285025656e-01
       78500000    3,338238597e-01   -3,292436004e-01
       78575000    3,369631469e-01   -3,307332397e-01
       78650000    3,379383683e-01   -3,325433433e-01
       78725000    3,365613818e-01   -3,312667012e-01
       78800000    3,390881419e-01   -3,327104449e-01
       78875000    3,395041227e-01   -3,335481882e-01
       78950000    3,401136994e-01   -3,327888846e-01
       79025000    3,411125243e-01   -3,330185711e-01
       79100000    3,409742713e-01   -3,327848017e-01
       79175000    3,405465186e-01   -3,348585963e-01
       79250000    3,408342600e-01   -3,355961144e-01
       79325000    3,436248600e-01   -3,352543116e-01
       79400000    3,445700407e-01   -3,371265829e-01
       79475000    3,444512784e-01   -3,351607025e-01
       79550000    3,441140950e-01   -3,363207281e-01
       79625000    3,449880183e-01   -3,378799260e-01
       79700000    3,487251401e-01   -3,384042382e-01
       79775000    3,490210772e-01   -3,384866416e-01
       79850000    3,478749990e-01   -3,399253786e-01
       79925000    3,508884311e-01   -3,391259909e-01
       80000000    3,512574136e-01   -3,379873037e-01
       80075000    3,515717685e-01   -3,433336318e-01
       80150000    3,555826545e-01   -3,438579738e-01
       80225000    3,545131981e-01   -3,430115581e-01
       80300000    3,553180993e-01   -3,444089293e-01
       80375000    3,570104837e-01   -3,466949463e-01
       80450000    3,595294654e-01   -3,479080796e-01
       80525000    3,610582948e-01   -3,487547338e-01
       80600000    3,630492091e-01   -3,501438200e-01
       80675000    3,622370362e-01   -3,498568535e-01
       80750000    3,630414605e-01   -3,526161611e-01
       80825000    3,657139540e-01   -3,555092812e-01
       80900000    3,676862419e-01   -3,558172286e-01
       80975000    3,671577871e-01   -3,577564657e-01
       81050000    3,692994714e-01   -3,615949154e-01
       81125000    3,705777824e-01   -3,619212508e-01
       81200000    3,717433512e-01   -3,647166491e-01
       81275000    3,729202449e-01   -3,650675714e-01
       81350000    3,744195700e-01   -3,682870567e-01
       81425000    3,727504313e-01   -3,689858615e-01
       81500000    3,747873008e-01   -3,712294102e-01
       81575000    3,749217093e-01   -3,738679290e-01
       81650000    3,788239658e-01   -3,749058247e-01
       81725000    3,792960346e-01   -3,788346648e-01
       81800000    3,814218938e-01   -3,818349540e-01
       81875000    3,812300563e-01   -3,818739057e-01
       81950000    3,813025355e-01   -3,833939135e-01
       82025000    3,819039166e-01   -3,854699731e-01
       82100000    3,825373054e-01   -3,892359138e-01
       82175000    3,822831213e-01   -3,922158182e-01
       82250000    3,835396767e-01   -3,950402737e-01
       82325000    3,860512078e-01   -3,995620906e-01
       82400000    3,874021173e-01   -4,014136493e-01
       82475000    3,883437514e-01   -4,029395580e-01
       82550000    3,887166083e-01   -4,047902524e-01
       82625000    3,881410658e-01   -4,075485170e-01
       82700000    3,883592188e-01   -4,104450941e-01
       82775000    3,898132145e-01   -4,128710628e-01
       82850000    3,894154131e-01   -4,153931141e-01
       82925000    3,896634281e-01   -4,187977612e-01
       83000000    3,890630603e-01   -4,215854704e-01
       83075000    3,903314471e-01   -4,249777496e-01
       83150000    3,904864490e-01   -4,276429415e-01
       83225000    3,901018202e-01   -4,311431050e-01
       83300000    3,896147609e-01   -4,347700179e-01
       83375000    3,901225030e-01   -4,384580851e-01
       83450000    3,927487433e-01   -4,433339238e-01
       83525000    3,926861584e-01   -4,454483986e-01
       83600000    3,922555447e-01   -4,497473538e-01
       83675000    3,883091211e-01   -4,523195624e-01
       83750000    3,892399371e-01   -4,559204280e-01
       83825000    3,913157880e-01   -4,602358639e-01
       83900000    3,909400702e-01   -4,628625512e-01
       83975000    3,893231153e-01   -4,637492001e-01
       84050000    3,875450492e-01   -4,672766626e-01
       84125000    3,871349096e-01   -4,712131023e-01
       84200000    3,874124289e-01   -4,768327177e-01
       84275000    3,862098157e-01   -4,763611555e-01
       84350000    3,864462972e-01   -4,803245664e-01
       84425000    3,835763335e-01   -4,829719663e-01
       84500000    3,834991455e-01   -4,872028232e-01
       84575000    3,844448030e-01   -4,942403436e-01
       84650000    3,846820593e-01   -4,938441813e-01
       84725000    3,806535304e-01   -4,978510439e-01
       84800000    3,778982162e-01   -5,009745955e-01
       84875000    3,772273362e-01   -5,049417019e-01
       84950000    3,803139031e-01   -5,104965568e-01
       85025000    3,743773997e-01   -5,138661861e-01
       85100000    3,762644529e-01   -5,154940486e-01
       85175000    3,731145859e-01   -5,172252655e-01
       85250000    3,709211946e-01   -5,197632313e-01
       85325000    3,687169552e-01   -5,267961621e-01
       85400000    3,682879210e-01   -5,313287973e-01
       85475000    3,673708439e-01   -5,328292847e-01
       85550000    3,633749485e-01   -5,364225507e-01
       85625000    3,625657558e-01   -5,364171267e-01
       85700000    3,567681909e-01   -5,400245190e-01
       85775000    3,587775528e-01   -5,456028581e-01
       85850000    3,548950553e-01   -5,461905599e-01
       85925000    3,557546735e-01   -5,497581959e-01
       86000000    3,530434072e-01   -5,510110855e-01
       86075000    3,491369188e-01   -5,539950728e-01
       86150000    3,461815417e-01   -5,601563454e-01
       86225000    3,425934613e-01   -5,599359870e-01
       86300000    3,442558050e-01   -5,644105673e-01
       86375000    3,413792849e-01   -5,667712092e-01
       86450000    3,389024436e-01   -5,718300343e-01
       86525000    3,327024579e-01   -5,715125799e-01
       86600000    3,336659670e-01   -5,745944977e-01
       86675000    3,308640420e-01   -5,768488050e-01
       86750000    3,283323944e-01   -5,780338049e-01
       86825000    3,258878291e-01   -5,821273923e-01
       86900000    3,203578889e-01   -5,817877054e-01
       86975000    3,175691366e-01   -5,845472217e-01
       87050000    3,175091743e-01   -5,885826945e-01
       87125000    3,123339713e-01   -5,863686800e-01
       87200000    3,097981811e-01   -5,887732506e-01
       87275000    3,068519235e-01   -5,940324664e-01
       87350000    3,040549159e-01   -5,915718079e-01
       87425000    3,015088439e-01   -5,939140320e-01
       87500000    2,996752858e-01   -5,981006622e-01
       87575000    2,978079915e-01   -5,961907506e-01
       87650000    2,922466099e-01   -5,978917480e-01
       87725000    2,933488190e-01   -6,031134725e-01
       87800000    2,908226252e-01   -6,059545875e-01
       87875000    2,891077101e-01   -6,036500931e-01
       87950000    2,844682038e-01   -6,086800098e-01
       88025000    2,816474438e-01   -6,050862074e-01
       88100000    2,765423954e-01   -6,076845527e-01
       88175000    2,781018317e-01   -6,100912094e-01
       88250000    2,755570710e-01   -6,131502986e-01
       88325000    2,693054080e-01   -6,118226051e-01
       88400000    2,681781054e-01   -6,138202548e-01
       88475000    2,639564574e-01   -6,152431965e-01
       88550000    2,632552087e-01   -6,171163917e-01
       88625000    2,626249492e-01   -6,156304479e-01
       88700000    2,572593689e-01   -6,210060716e-01
       88775000    2,538236678e-01   -6,167330742e-01
       88850000    2,535091043e-01   -6,210708618e-01
       88925000    2,505694628e-01   -6,187618375e-01
       89000000    2,470540404e-01   -6,182333827e-01
       89075000    2,437591702e-01   -6,222921014e-01
       89150000    2,388998419e-01   -6,218149066e-01
       89225000    2,384084165e-01   -6,241988540e-01
       89300000    2,338622063e-01   -6,252623200e-01
       89375000    2,327401489e-01   -6,245160103e-01
       89450000    2,299123406e-01   -6,252474785e-01
       89525000    2,278635949e-01   -6,205267906e-01
       89600000    2,258179337e-01   -6,208769679e-01
       89675000    2,252298892e-01   -6,222170591e-01
       89750000    2,221637070e-01   -6,194548011e-01
       89825000    2,204068154e-01   -6,226101518e-01
       89900000    2,173818946e-01   -6,228398085e-01
       89975000    2,168274820e-01   -6,206003428e-01
       90050000    2,161818445e-01   -6,188382506e-01
       90125000    2,111767828e-01   -6,170834303e-01
       90200000    2,095417380e-01   -6,174103618e-01
       90275000    2,110317051e-01   -6,166862845e-01
       90350000    2,093220651e-01   -6,145754457e-01
       90425000    2,056955695e-01   -6,148153543e-01
       90500000    2,045867592e-01   -6,136923432e-01
       90575000    2,093499750e-01   -6,143655181e-01
       90650000    2,049250603e-01   -6,115823388e-01
       90725000    2,071859986e-01   -6,154957414e-01
       90800000    2,085036635e-01   -6,140949726e-01
       90875000    2,083181292e-01   -6,134054661e-01
       90950000    2,081306577e-01   -6,109358668e-01
       91025000    2,076539397e-01   -6,118841767e-01
       91100000    2,077741772e-01   -6,109989285e-01
       91175000    2,068179250e-01   -6,139405370e-01
       91250000    2,061214596e-01   -6,140329242e-01
       91325000    2,080555260e-01   -6,163672805e-01
       91400000    2,083327025e-01   -6,203094125e-01
       91475000    2,112992704e-01   -6,200221777e-01
       91550000    2,118573487e-01   -6,214755177e-01
       91625000    2,126337886e-01   -6,213660836e-01
       91700000    2,129766196e-01   -6,231635809e-01
       91775000    2,124615014e-01   -6,219113469e-01
       91850000    2,115870565e-01   -6,249282360e-01
       91925000    2,102440596e-01   -6,271214485e-01
