! NanoVNA-App
! Date: 2025-08-02 16:39:48
! Start: 65MHz Stop: 95MHz Points: 401
! S-Parameter data: F S11
# Hz S RI R 50
!     Frequency           S11_Real           S11_Imag
       65000000    3,183741570e-01    1,068646908e-01
       65075000    3,239912391e-01    1,028910801e-01
       65150000    3,268660009e-01    9,651225060e-02
       65225000    3,300407529e-01    8,927681297e-02
       65300000    3,319607079e-01    8,322650939e-02
       65375000    3,354165256e-01    7,722122967e-02
       65450000    3,346120715e-01    6,957131624e-02
       65525000    3,364024162e-01    6,337948889e-02
       65600000    3,385502994e-01    5,657228455e-02
       65675000    3,380772471e-01    5,030722171e-02
       65750000    3,399265110e-01    4,395146668e-02
       65825000    3,400790095e-01    3,697757795e-02
       65900000    3,402347267e-01    3,165192902e-02
       65975000    3,400703669e-01    2,471576817e-02
       66050000    3,402295709e-01    1,999751851e-02
       66125000    3,409106731e-01    1,412871666e-02
       66200000    3,398846388e-01    8,257384412e-03
       66275000    3,403986990e-01    2,972555347e-03
       66350000    3,403228223e-01   -2,026059898e-03
       66425000    3,394043744e-01   -8,103720844e-03
       66500000    3,396601975e-01   -1,201250590e-02
       66575000    3,386113644e-01   -1,772844791e-02
       66650000    3,391240835e-01   -2,267452702e-02
       66725000    3,386379182e-01   -2,903814428e-02
       66800000    3,393721879e-01   -3,215310350e-02
       66875000    3,377318978e-01   -3,731487319e-02
       66950000    3,381071687e-01   -4,176911339e-02
       67025000    3,386892080e-01   -4,684371874e-02
       67100000    3,379777074e-01   -5,251647532e-02
       67175000    3,375340402e-01   -5,628589913e-02
       67250000    3,382470310e-01   -6,140393391e-02
       67325000    3,372922540e-01   -6,688870490e-02
       67400000    3,361310661e-01   -7,163654268e-02
       67475000    3,355599940e-01   -7,686746866e-02
       67550000    3,342661858e-01   -8,328762650e-02
       67625000    3,330349326e-01   -8,641020954e-02
       67700000    3,329685032e-01   -9,227493405e-02
       67775000    3,298104703e-01   -9,699445218e-02
       67850000    3,295624554e-01   -1,009158716e-01
       67925000    3,273917735e-01   -1,070445925e-01
       68000000    3,263786733e-01   -1,105169505e-01
       68075000    3,247059286e-01   -1,155453324e-01
       68150000    3,230925798e-01   -1,190063953e-01
       68225000    3,226655424e-01   -1,231188104e-01
       68300000    3,195035458e-01   -1,265542060e-01
       68375000    3,180925250e-01   -1,315486729e-01
       68450000    3,151490986e-01   -1,348484457e-01
       68525000    3,141386211e-01   -1,393498182e-01
       68600000    3,114640713e-01   -1,437671781e-01
       68675000    3,101594150e-01   -1,474218369e-01
       68750000    3,063857555e-01   -1,526681483e-01
       68825000    3,048864603e-01   -1,553121209e-01
       68900000    3,021917343e-01   -1,593916863e-01
       68975000    2,999614477e-01   -1,622287482e-01
       69050000    2,969562411e-01   -1,670966446e-01
       69125000    2,946987450e-01   -1,690592170e-01
       69200000    2,917550802e-01   -1,727631539e-01
       69275000    2,894742191e-01   -1,748349220e-01
       69350000    2,851948142e-01   -1,784616858e-01
       69425000    2,840064764e-01   -1,794542819e-01
       69500000    2,802753150e-01   -1,831634194e-01
       69575000    2,786462903e-01   -1,843607724e-01
       69650000    2,748033106e-01   -1,875301898e-01
       69725000    2,733787298e-01   -1,886175275e-01
       69800000    2,691339552e-01   -1,922959238e-01
       69875000    2,685813308e-01   -1,916536838e-01
       69950000    2,673168778e-01   -1,939132363e-01
       70025000    2,618466020e-01   -1,967709959e-01
       70100000    2,614401281e-01   -1,969066262e-01
       70175000    2,597984672e-01   -1,982479095e-01
       70250000    2,554800510e-01   -1,998864114e-01
       70325000    2,556973100e-01   -2,003262937e-01
       70400000    2,520650625e-01   -2,025165707e-01
       70475000    2,512426376e-01   -2,044309080e-01
       70550000    2,503434420e-01   -2,054426670e-01
       70625000    2,475840300e-01   -2,053662837e-01
       70700000    2,461531460e-01   -2,078291327e-01
       70775000    2,438925058e-01   -2,103860825e-01
       70850000    2,434456646e-01   -2,103212476e-01
       70925000    2,421450168e-01   -2,112511396e-01
       71000000    2,398965210e-01   -2,122661322e-01
       71075000    2,389442772e-01   -2,139328867e-01
       71150000    2,371825576e-01   -2,163619846e-01
       71225000    2,348538637e-01   -2,189137042e-01
       71300000    2,342272401e-01   -2,187645733e-01
       71375000    2,312980741e-01   -2,214388847e-01
       71450000    2,304394543e-01   -2,205517590e-01
       71525000    2,293802202e-01   -2,222837210e-01
       71600000    2,267595679e-01   -2,238328606e-01
       71675000    2,270472348e-01   -2,265866250e-01
       71750000    2,247095108e-01   -2,265929729e-01
       71825000    2,223127931e-01   -2,288322300e-01
       71900000    2,210089862e-01   -2,295406461e-01
       71975000    2,195064127e-01   -2,314983159e-01
       72050000    2,179680020e-01   -2,312333733e-01
       72125000    2,128419429e-01   -2,342747003e-01
       72200000    2,134718299e-01   -2,347286642e-01
       72275000    2,098233551e-01   -2,367183417e-01
       72350000    2,087852210e-01   -2,371032089e-01
       72425000    2,057616264e-01   -2,398927808e-01
       72500000    2,087406516e-01   -2,394628525e-01
       72575000    2,013274729e-01   -2,421166152e-01
       72650000    2,019248456e-01   -2,385283709e-01
       72725000    1,986427903e-01   -2,410817593e-01
       72800000    1,944285631e-01   -2,424847484e-01
       72875000    1,939968169e-01   -2,407639027e-01
       72950000    1,904527396e-01   -2,433763146e-01
       73025000    1,889872551e-01   -2,418357581e-01
       73100000    1,899786144e-01   -2,419230640e-01
       73175000    1,869294792e-01   -2,428269833e-01
       73250000    1,837737411e-01   -2,457928210e-01
       73325000    1,814840138e-01   -2,431928515e-01
       73400000    1,823799610e-01   -2,419533134e-01
       73475000    1,781543046e-01   -2,429343015e-01
       73550000    1,787787378e-01   -2,439969629e-01
       73625000    1,759445965e-01   -2,435157895e-01
       73700000    1,751132905e-01   -2,437443137e-01
       73775000    1,731234789e-01   -2,454583943e-01
       73850000    1,746953130e-01   -2,418591380e-01
       73925000    1,710549891e-01   -2,415036261e-01
       74000000    1,696627736e-01   -2,409060895e-01
       74075000    1,695959419e-01   -2,398066819e-01
       74150000    1,663401872e-01   -2,425261587e-01
       74225000    1,634188741e-01   -2,420112491e-01
       74300000    1,653973162e-01   -2,393457443e-01
       74375000    1,625557840e-01   -2,417140007e-01
       74450000    1,626575887e-01   -2,377068400e-01
       74525000    1,636670530e-01   -2,384187579e-01
       74600000    1,607109457e-01   -2,370800078e-01
       74675000    1,600874066e-01   -2,371575534e-01
       74750000    1,584637910e-01   -2,366794944e-01
       74825000    1,573752165e-01   -2,371938229e-01
       74900000    1,553236693e-01   -2,383237481e-01
       74975000    1,583679616e-01   -2,373642623e-01
       75050000    1,569082290e-01   -2,364064008e-01
       75125000    1,562861204e-01   -2,348709404e-01
       75200000    1,558617502e-01   -2,367960066e-01
       75275000    1,546082497e-01   -2,342772931e-01
       75350000    1,540816575e-01   -2,348657995e-01
       75425000    1,528140604e-01   -2,326207757e-01
       75500000    1,530267149e-01   -2,319988012e-01
       75575000    1,507927179e-01   -2,305993885e-01
       75650000    1,519326419e-01   -2,321519405e-01
       75725000    1,513647139e-01   -2,297186553e-01
       75800000    1,504557729e-01   -2,305358201e-01
       75875000    1,498742551e-01   -2,296660841e-01
       75950000    1,499295235e-01   -2,295901179e-01
       76025000    1,486715078e-01   -2,307167649e-01
       76100000    1,486437768e-01   -2,290005684e-01
       76175000    1,483391672e-01   -2,298151106e-01
       76250000    1,476386189e-01   -2,268770635e-01
       76325000    1,473278701e-01   -2,270067185e-01
       76400000    1,467624009e-01   -2,258948237e-01
       76475000    1,449869126e-01   -2,250558585e-01
       76550000    1,461280137e-01   -2,236040980e-01
       76625000    1,450455934e-01   -2,226917893e-01
       76700000    1,460823566e-01   -2,226392031e-01
       76775000    1,441219151e-01   -2,232189029e-01
       76850000    1,448968649e-01   -2,206714004e-01
       76925000    1,449581683e-01   -2,183808386e-01
       77000000    1,436275095e-01   -2,174172103e-01
       77075000    1,450533271e-01   -2,162274420e-01
       77150000    1,459279656e-01   -2,157491744e-01
       77225000    1,452156603e-01   -2,150232345e-01
       77300000    1,450313181e-01   -2,162556946e-01
       77375000    1,468024701e-01   -2,126407623e-01
       77450000    1,475825608e-01   -2,120569199e-01
       77525000    1,470513940e-01   -2,117064744e-01
       77600000    1,484063268e-01   -2,092524767e-01
       77675000    1,495943815e-01   -2,093459517e-01
       77750000    1,504654884e-01   -2,055906504e-01
       77825000    1,511234492e-01   -2,057569772e-01
       77900000    1,537690163e-01   -2,057034224e-01
       77975000    1,527501494e-01   -2,015232891e-01
       78050000    1,549021453e-01   -2,022338659e-01
       78125000    1,570557803e-01   -2,028861791e-01
       78200000    1,583562344e-01   -1,998480856e-01
       78275000    1,594355553e-01   -2,006905228e-01
       78350000    1,625854671e-01   -2,000332922e-01
       78425000    1,617816836e-01   -1,999175251e-01
       78500000    1,650972813e-01   -1,982701421e-01
       78575000    1,674267054e-01   -1,971805841e-01
       78650000    1,688608378e-01   -1,954895258e-01
       78725000    1,700608879e-01   -1,963575929e-01
       78800000    1,732033342e-01   -1,972989589e-01
       78875000    1,755616814e-01   -1,940908134e-01
       78950000    1,776548326e-01   -1,961894482e-01
       79025000    1,787825823e-01   -1,937725097e-01
       79100000    1,823036820e-01   -1,945073605e-01
       79175000    1,818128675e-01   -1,951928735e-01
       79250000    1,860879511e-01   -1,955809295e-01
       79325000    1,884531230e-01   -1,976261586e-01
       79400000    1,911363006e-01   -1,959947795e-01
       79475000    1,941891164e-01   -1,971866339e-01
       79550000    1,946322173e-01   -1,963378489e-01
       79625000    1,981142610e-01   -1,966927052e-01
       79700000    1,988126785e-01   -2,008623481e-01
       79775000    2,026921809e-01   -2,011710107e-01
       79850000    2,059808820e-01   -2,003446966e-01
       79925000    2,067594677e-01   -2,044332474e-01
       80000000    2,091702223e-01   -2,045325488e-01
       80075000    2,135688961e-01   -2,054968178e-01
       80150000    2,136014551e-01   -2,061018646e-01
       80225000    2,160881013e-01   -2,089251131e-01
       80300000    2,179714888e-01   -2,120949328e-01
       80375000    2,205000073e-01   -2,128251940e-01
       80450000    2,232037932e-01   -2,131629586e-01
       80525000    2,236658335e-01   -2,154948413e-01
       80600000    2,275401503e-01   -2,180598527e-01
       80675000    2,263665348e-01   -2,190842479e-01
       80750000    2,282191962e-01   -2,227850556e-01
       80825000    2,303005606e-01   -2,276052833e-01
       80900000    2,326417267e-01   -2,274961323e-01
       80975000    2,329659909e-01   -2,293467820e-01
       81050000    2,334889323e-01   -2,344507277e-01
       81125000    2,356243730e-01   -2,346248478e-01
       81200000    2,350275815e-01   -2,389369160e-01
       81275000    2,360679954e-01   -2,397590429e-01
       81350000    2,363456488e-01   -2,437068373e-01
       81425000    2,390354127e-01   -2,435977459e-01
       81500000    2,403555214e-01   -2,468802333e-01
       81575000    2,396791428e-01   -2,476719171e-01
       81650000    2,392691672e-01   -2,513038814e-01
       81725000    2,404152751e-01   -2,519678771e-01
       81800000    2,389096320e-01   -2,544856966e-01
       81875000    2,401768118e-01   -2,571912110e-01
       81950000    2,387524396e-01   -2,616437972e-01
       82025000    2,403173745e-01   -2,624373734e-01
       82100000    2,399484962e-01   -2,652620077e-01
       82175000    2,407397330e-01   -2,658499181e-01
       82250000    2,396734357e-01   -2,691125572e-01
       82325000    2,410590947e-01   -2,679238617e-01
       82400000    2,420116961e-01   -2,713171244e-01
       82475000    2,400381714e-01   -2,706730664e-01
       82550000    2,411056608e-01   -2,720892131e-01
       82625000    2,396411002e-01   -2,731370926e-01
       82700000    2,405546606e-01   -2,757095397e-01
       82775000    2,400233150e-01   -2,760923803e-01
       82850000    2,408756167e-01   -2,776255906e-01
       82925000    2,396790683e-01   -2,785106897e-01
       83000000    2,411757708e-01   -2,804498374e-01
       83075000    2,398866713e-01   -2,806894779e-01
       83150000    2,411087006e-01   -2,822554410e-01
       83225000    2,403119653e-01   -2,837277949e-01
       83300000    2,418921739e-01   -2,847846746e-01
       83375000    2,407238036e-01   -2,850954831e-01
       83450000    2,414628118e-01   -2,884571552e-01
       83525000    2,403789610e-01   -2,904615700e-01
       83600000    2,417566925e-01   -2,905265093e-01
       83675000    2,435419410e-01   -2,906353772e-01
       83750000    2,432981431e-01   -2,899679244e-01
       83825000    2,431832701e-01   -2,919419706e-01
       83900000    2,418487072e-01   -2,935403585e-01
       83975000    2,442189902e-01   -2,949995995e-01
       84050000    2,441096306e-01   -2,980562150e-01
       84125000    2,456873506e-01   -2,976421118e-01
       84200000    2,482841164e-01   -2,970915735e-01
       84275000    2,451328784e-01   -2,981927693e-01
       84350000    2,473388314e-01   -2,996813655e-01
       84425000    2,466754466e-01   -3,010653257e-01
       84500000    2,494880557e-01   -3,016822636e-01
       84575000    2,507995665e-01   -3,064402342e-01
       84650000    2,528101206e-01   -3,033855855e-01
       84725000    2,525966763e-01   -3,045138419e-01
       84800000    2,534501851e-01   -3,063246906e-01
       84875000    2,558756769e-01   -3,074029684e-01
       84950000    2,547901869e-01   -3,121700585e-01
       85025000    2,557237744e-01   -3,093430102e-01
       85100000    2,579564154e-01   -3,126656413e-01
       85175000    2,594369650e-01   -3,153742552e-01
       85250000    2,605935335e-01   -3,159402907e-01
       85325000    2,632606626e-01   -3,158066571e-01
       85400000    2,633133531e-01   -3,165310919e-01
       85475000    2,653689384e-01   -3,179213405e-01
       85550000    2,674348354e-01   -3,226594627e-01
       85625000    2,644051015e-01   -3,241494000e-01
       85700000    2,677014470e-01   -3,250459433e-01
       85775000    2,723698318e-01   -3,268327117e-01
       85850000    2,700478733e-01   -3,308035433e-01
       85925000    2,719298005e-01   -3,288424611e-01
       86000000    2,759980261e-01   -3,323880434e-01
       86075000    2,743411362e-01   -3,343176842e-01
       86150000    2,776678205e-01   -3,377912641e-01
       86225000    2,782613635e-01   -3,399621844e-01
       86300000    2,825232446e-01   -3,442327380e-01
       86375000    2,820312679e-01   -3,480141163e-01
       86450000    2,838073969e-01   -3,484469354e-01
       86525000    2,838396430e-01   -3,511448205e-01
       86600000    2,850902081e-01   -3,565588593e-01
       86675000    2,872751653e-01   -3,573210537e-01
       86750000    2,885073721e-01   -3,621097803e-01
       86825000    2,866472602e-01   -3,659136295e-01
       86900000    2,885539234e-01   -3,647362590e-01
       86975000    2,903948128e-01   -3,678493202e-01
       87050000    2,900538743e-01   -3,734753132e-01
       87125000    2,936625183e-01   -3,763254285e-01
       87200000    2,932442427e-01   -3,783032596e-01
       87275000    2,943694890e-01   -3,801986277e-01
       87350000    2,944998443e-01   -3,871980011e-01
       87425000    2,946570516e-01   -3,884790540e-01
       87500000    2,955275774e-01   -3,943169117e-01
       87575000    2,954526544e-01   -3,955451846e-01
       87650000    2,953113019e-01   -4,004313350e-01
       87725000    2,937463224e-01   -3,997164369e-01
       87800000    2,956873178e-01   -4,032754898e-01
       87875000    2,928253412e-01   -4,068067074e-01
       87950000    2,964191735e-01   -4,114114046e-01
       88025000    2,947290838e-01   -4,149577916e-01
       88100000    2,944341004e-01   -4,210168123e-01
       88175000    2,966332138e-01   -4,186939299e-01
       88250000    2,975099981e-01   -4,235103428e-01
       88325000    2,933096886e-01   -4,293322563e-01
       88400000    2,948974669e-01   -4,314547777e-01
       88475000    2,930197120e-01   -4,363447726e-01
       88550000    2,962039709e-01   -4,386637509e-01
       88625000    2,970986962e-01   -4,386938810e-01
       88700000    2,956322730e-01   -4,475259185e-01
       88775000    2,916701436e-01   -4,457268715e-01
       88850000    2,959780693e-01   -4,516643882e-01
       88925000    2,974944115e-01   -4,532430470e-01
       89000000    2,958660722e-01   -4,553173482e-01
       89075000    2,962164581e-01   -4,591784775e-01
       89150000    2,933772802e-01   -4,616262615e-01
       89225000    2,934812903e-01   -4,668087661e-01
       89300000    2,911848426e-01   -4,704294205e-01
       89375000    2,924248874e-01   -4,744057953e-01
       89450000    2,910793722e-01   -4,782571793e-01
       89525000    2,933331430e-01   -4,843645096e-01
       89600000    2,925109863e-01   -4,908427000e-01
       89675000    2,881549299e-01   -4,927609861e-01
       89750000    2,901963592e-01   -4,964331985e-01
       89825000    2,895320952e-01   -4,978751242e-01
       89900000    2,869612873e-01   -5,001000762e-01
       89975000    2,876628935e-01   -5,048426986e-01
       90050000    2,840103805e-01   -5,105758309e-01
       90125000    2,853205502e-01   -5,159890056e-01
       90200000    2,828312516e-01   -5,232384205e-01
       90275000    2,813487053e-01   -5,206285119e-01
       90350000    2,823238373e-01   -5,243413448e-01
       90425000    2,777751386e-01   -5,336457491e-01
       90500000    2,786605060e-01   -5,364308357e-01
       90575000    2,806043327e-01   -5,408390164e-01
       90650000    2,727276683e-01   -5,414419174e-01
       90725000    2,755415440e-01   -5,489201546e-01
       90800000    2,737170458e-01   -5,539903045e-01
       90875000    2,720541358e-01   -5,544067621e-01
       90950000    2,710092664e-01   -5,585809946e-01
       91025000    2,687193155e-01   -5,618376732e-01
       91100000    2,670319676e-01   -5,677404404e-01
       91175000    2,628023028e-01   -5,684432983e-01
       91250000    2,615961134e-01   -5,726519227e-01
       91325000    2,565152347e-01   -5,760937929e-01
       91400000    2,529550791e-01   -5,822335482e-01
       91475000    2,478627861e-01   -5,872132182e-01
       91550000    2,481768429e-01   -5,913991332e-01
       91625000    2,430035323e-01   -5,956780314e-01
       91700000    2,422273010e-01   -5,989477634e-01
       91775000    2,385538369e-01   -6,054620743e-01
       91850000    2,380431890e-01   -6,055410504e-01
       91925000    2,351461351e-01   -6,130792499e-01
