! NanoVNA-App
! Date: 2025-08-02 16:40:54
! Start: 65MHz Stop: 95MHz Points: 401
! S-Parameter data: F S11
# Hz S RI R 50
!     Frequency           S11_Real           S11_Imag
       65000000   -8,756627887e-02    2,337251455e-01
       65075000   -8,269031346e-02    2,304864824e-01
       65150000   -7,424923778e-02    2,278904170e-01
       65225000   -6,836676598e-02    2,249489129e-01
       65300000   -6,070331857e-02    2,221645564e-01
       65375000   -5,454687402e-02    2,174719721e-01
       65450000   -4,709330574e-02    2,150166631e-01
       65525000   -4,138554633e-02    2,109401822e-01
       65600000   -3,508656099e-02    2,064044476e-01
       65675000   -2,850871906e-02    2,034014016e-01
       65750000   -2,222098596e-02    1,987133622e-01
       65825000   -1,752244495e-02    1,951656789e-01
       65900000   -1,211538631e-02    1,912663728e-01
       65975000   -5,891515873e-03    1,864314824e-01
       66050000   -2,220025985e-03    1,820875257e-01
       66125000    3,150300588e-03    1,774848253e-01
       66200000    7,744469680e-03    1,731277555e-01
       66275000    1,163293794e-02    1,676072776e-01
       66350000    1,642705873e-02    1,640677452e-01
       66425000    2,053368650e-02    1,593888849e-01
       66500000    2,451414242e-02    1,549366862e-01
       66575000    2,762723900e-02    1,506534368e-01
       66650000    3,169284388e-02    1,465898156e-01
       66725000    3,398348019e-02    1,411619782e-01
       66800000    3,694373369e-02    1,374154091e-01
       66875000    4,057030007e-02    1,333303452e-01
       66950000    4,379935935e-02    1,303377450e-01
       67025000    4,754259437e-02    1,265994608e-01
       67100000    5,125674978e-02    1,213046387e-01
       67175000    5,471959710e-02    1,183954775e-01
       67250000    5,817223713e-02    1,142166033e-01
       67325000    6,196273118e-02    1,098527536e-01
       67400000    6,529546529e-02    1,050781012e-01
       67475000    6,769052148e-02    1,009144336e-01
       67550000    7,163519412e-02    9,563685954e-02
       67625000    7,452548295e-02    9,065818787e-02
       67700000    7,698684186e-02    8,683024347e-02
       67775000    7,874040306e-02    8,110929281e-02
       67850000    8,153748512e-02    7,655531168e-02
       67925000    8,334951848e-02    7,172675431e-02
       68000000    8,559663594e-02    6,693805754e-02
       68075000    8,786603808e-02    6,161626801e-02
       68150000    8,959937841e-02    5,689762905e-02
       68225000    9,071563184e-02    5,201969668e-02
       68300000    9,263878316e-02    4,623569548e-02
       68375000    9,402965009e-02    4,217463732e-02
       68450000    9,518226236e-02    3,684432060e-02
       68525000    9,629505873e-02    3,154757991e-02
       68600000    9,678741544e-02    2,687986940e-02
       68675000    9,735508263e-02    2,158094943e-02
       68750000    9,842391312e-02    1,682061516e-02
       68825000    9,755994380e-02    1,169322897e-02
       68900000    9,812824428e-02    7,561950013e-03
       68975000    9,757353365e-02    1,935671666e-03
       69050000    9,660149366e-02   -1,272958354e-03
       69125000    9,596366435e-02   -6,253768690e-03
       69200000    9,537654370e-02   -9,977367707e-03
       69275000    9,488664567e-02   -1,468861289e-02
       69350000    9,372696280e-02   -1,726615429e-02
       69425000    9,255222231e-02   -2,242998406e-02
       69500000    9,166336060e-02   -2,496293932e-02
       69575000    9,080162644e-02   -2,851278707e-02
       69650000    8,910968155e-02   -3,141150996e-02
       69725000    8,783879131e-02   -3,489281610e-02
       69800000    8,695705980e-02   -3,675226495e-02
       69875000    8,603659272e-02   -3,971805051e-02
       69950000    8,381333947e-02   -4,284987599e-02
       70025000    8,312355727e-02   -4,380326718e-02
       70100000    8,143960685e-02   -4,663677886e-02
       70175000    8,012584597e-02   -4,988546297e-02
       70250000    7,991701365e-02   -5,010536686e-02
       70325000    7,913326472e-02   -5,239470303e-02
       70400000    7,704886049e-02   -5,430889130e-02
       70475000    7,710805535e-02   -5,585841835e-02
       70550000    7,623174042e-02   -5,857341737e-02
       70625000    7,564742118e-02   -5,954527110e-02
       70700000    7,547193021e-02   -6,073093414e-02
       70775000    7,444351166e-02   -6,239722669e-02
       70850000    7,324986160e-02   -6,462331116e-02
       70925000    7,441850752e-02   -6,609973311e-02
       71000000    7,374386489e-02   -6,735997647e-02
       71075000    7,269648463e-02   -6,918255985e-02
       71150000    7,272525877e-02   -7,153407484e-02
       71225000    7,177176327e-02   -7,274708152e-02
       71300000    7,171383500e-02   -7,444591075e-02
       71375000    7,120483369e-02   -7,678472996e-02
       71450000    7,150642574e-02   -7,675641775e-02
       71525000    7,037264854e-02   -7,936616242e-02
       71600000    7,062259316e-02   -8,108911663e-02
       71675000    7,045937330e-02   -8,324784040e-02
       71750000    6,921264529e-02   -8,439036459e-02
       71825000    6,909715384e-02   -8,679434657e-02
       71900000    6,868729740e-02   -8,818115294e-02
       71975000    6,770791113e-02   -9,002318978e-02
       72050000    6,691408902e-02   -9,165681154e-02
       72125000    6,574780494e-02   -9,434846044e-02
       72200000    6,479669362e-02   -9,500374645e-02
       72275000    6,439504027e-02   -9,842040390e-02
       72350000    6,438192725e-02   -9,925258905e-02
       72425000    6,195030361e-02   -1,009262130e-01
       72500000    6,247320771e-02   -1,025997549e-01
       72575000    5,961357802e-02   -1,037465706e-01
       72650000    5,839905888e-02   -1,046216264e-01
       72725000    5,757755414e-02   -1,065217555e-01
       72800000    5,563386157e-02   -1,075177714e-01
       72875000    5,481068417e-02   -1,088188663e-01
       72950000    5,326925218e-02   -1,104682013e-01
       73025000    5,113645643e-02   -1,114372090e-01
       73100000    4,915533960e-02   -1,114563346e-01
       73175000    4,892997444e-02   -1,122474372e-01
       73250000    4,758115113e-02   -1,122445241e-01
       73325000    4,586028308e-02   -1,137316972e-01
       73400000    4,531489685e-02   -1,138763800e-01
       73475000    4,375204444e-02   -1,142031550e-01
       73550000    4,218618199e-02   -1,136159003e-01
       73625000    4,049161449e-02   -1,155307814e-01
       73700000    3,879040480e-02   -1,155480966e-01
       73775000    3,878233582e-02   -1,144281104e-01
       73850000    3,583895415e-02   -1,172925085e-01
       73925000    3,641732782e-02   -1,157225370e-01
       74000000    3,593903407e-02   -1,145424768e-01
       74075000    3,300510719e-02   -1,153368652e-01
       74150000    3,206057847e-02   -1,166614518e-01
       74225000    3,247808665e-02   -1,147718579e-01
       74300000    2,906631492e-02   -1,157065257e-01
       74375000    2,913209796e-02   -1,163710803e-01
       74450000    2,983096987e-02   -1,151085421e-01
       74525000    2,722743526e-02   -1,135279685e-01
       74600000    2,676365897e-02   -1,145982072e-01
       74675000    2,586378716e-02   -1,135091111e-01
       74750000    2,429526486e-02   -1,140846461e-01
       74825000    2,375281416e-02   -1,145500392e-01
       74900000    2,508647926e-02   -1,130031198e-01
       74975000    2,290176228e-02   -1,122440100e-01
       75050000    2,209287696e-02   -1,109879836e-01
       75125000    2,265506797e-02   -1,113242581e-01
       75200000    2,079226822e-02   -1,096158475e-01
       75275000    2,022553422e-02   -1,100736558e-01
       75350000    2,066640370e-02   -1,094936132e-01
       75425000    1,918133162e-02   -1,087586209e-01
       75500000    1,766427420e-02   -1,088515967e-01
       75575000    1,823222265e-02   -1,086511090e-01
       75650000    1,714107022e-02   -1,080281809e-01
       75725000    1,760120504e-02   -1,073562726e-01
       75800000    1,646203175e-02   -1,066685170e-01
       75875000    1,628418639e-02   -1,062507704e-01
       75950000    1,443634834e-02   -1,051029116e-01
       76025000    1,500335243e-02   -1,037397236e-01
       76100000    1,535047870e-02   -1,032131687e-01
       76175000    1,324694138e-02   -1,014980748e-01
       76250000    1,417615823e-02   -1,016512960e-01
       76325000    1,344638225e-02   -1,013915837e-01
       76400000    1,440991182e-02   -9,934571385e-02
       76475000    1,339262165e-02   -9,843546152e-02
       76550000    1,307244785e-02   -9,919144213e-02
       76625000    1,318271086e-02   -9,630517662e-02
       76700000    1,257338282e-02   -9,518032521e-02
       76775000    1,178588532e-02   -9,478584677e-02
       76850000    1,277236827e-02   -9,227073938e-02
       76925000    1,262820512e-02   -9,079043567e-02
       77000000    1,187663432e-02   -8,998972923e-02
       77075000    1,240831614e-02   -8,747312427e-02
       77150000    1,279601734e-02   -8,634393662e-02
       77225000    1,224705204e-02   -8,578253537e-02
       77300000    1,220584009e-02   -8,364448696e-02
       77375000    1,321137976e-02   -8,156325668e-02
       77450000    1,257034205e-02   -8,108616620e-02
       77525000    1,435861364e-02   -7,844461501e-02
       77600000    1,528172940e-02   -7,630983740e-02
       77675000    1,520194020e-02   -7,602771372e-02
       77750000    1,696626097e-02   -7,130017132e-02
       77825000    1,757787541e-02   -7,108869404e-02
       77900000    1,833136939e-02   -6,954064965e-02
       77975000    1,927914098e-02   -6,646538526e-02
       78050000    2,136238664e-02   -6,534555554e-02
       78125000    2,193805389e-02   -6,449051201e-02
       78200000    2,318448015e-02   -6,118499488e-02
       78275000    2,543164603e-02   -6,010621786e-02
       78350000    2,623434924e-02   -5,843416974e-02
       78425000    2,840541117e-02   -5,611527711e-02
       78500000    2,996578813e-02   -5,415824428e-02
       78575000    3,189451993e-02   -5,292014033e-02
       78650000    3,391275927e-02   -5,124854669e-02
       78725000    3,697346523e-02   -4,948719218e-02
       78800000    3,854003176e-02   -4,838689044e-02
       78875000    4,070616886e-02   -4,636129737e-02
       78950000    4,309802502e-02   -4,558891803e-02
       79025000    4,531898350e-02   -4,437617213e-02
       79100000    4,861107841e-02   -4,294034094e-02
       79175000    5,203576759e-02   -4,204358906e-02
       79250000    5,491434783e-02   -3,983541206e-02
       79325000    5,719149858e-02   -3,872783482e-02
       79400000    6,018180400e-02   -3,792637959e-02
       79475000    6,341812015e-02   -3,789670020e-02
       79550000    6,526952982e-02   -3,749421984e-02
       79625000    6,962341815e-02   -3,684286028e-02
       79700000    7,299955189e-02   -3,654126823e-02
       79775000    7,481595129e-02   -3,549190611e-02
       79850000    7,935282588e-02   -3,562574834e-02
       79925000    8,218240738e-02   -3,662352264e-02
       80000000    8,460390568e-02   -3,639916703e-02
       80075000    8,939220756e-02   -3,606041521e-02
       80150000    9,299880266e-02   -3,731340170e-02
       80225000    9,456045181e-02   -3,751170635e-02
       80300000    9,898048639e-02   -3,859265894e-02
       80375000    1,010940075e-01   -4,002445936e-02
       80450000    1,050369740e-01   -3,974432871e-02
       80525000    1,080933586e-01   -4,168513417e-02
       80600000    1,106483638e-01   -4,245454073e-02
       80675000    1,140138358e-01   -4,345593229e-02
       80750000    1,161310822e-01   -4,515052587e-02
       80825000    1,201246977e-01   -4,552213103e-02
       80900000    1,225931346e-01   -4,849994928e-02
       80975000    1,237502918e-01   -4,978071898e-02
       81050000    1,273804754e-01   -5,105616897e-02
       81125000    1,296040714e-01   -5,325335637e-02
       81200000    1,319619119e-01   -5,389318243e-02
       81275000    1,337898225e-01   -5,640449375e-02
       81350000    1,364952177e-01   -5,727077648e-02
       81425000    1,383054554e-01   -6,002914160e-02
       81500000    1,389651895e-01   -6,195793673e-02
       81575000    1,420047581e-01   -6,367929280e-02
       81650000    1,436904818e-01   -6,586414576e-02
       81725000    1,452807486e-01   -6,820920110e-02
       81800000    1,473959982e-01   -6,932269037e-02
       81875000    1,484063864e-01   -7,176658511e-02
       81950000    1,493537128e-01   -7,211906463e-02
       82025000    1,510519236e-01   -7,468754053e-02
       82100000    1,519774944e-01   -7,551242411e-02
       82175000    1,535570472e-01   -7,838668674e-02
       82250000    1,537414789e-01   -7,921591401e-02
       82325000    1,557831466e-01   -8,127437532e-02
       82400000    1,552240849e-01   -8,362883329e-02
       82475000    1,580009311e-01   -8,393201232e-02
       82550000    1,588077545e-01   -8,609096706e-02
       82625000    1,594513506e-01   -8,623468876e-02
       82700000    1,598386765e-01   -8,863946795e-02
       82775000    1,621731073e-01   -8,920530975e-02
       82850000    1,616906971e-01   -9,102942050e-02
       82925000    1,630354375e-01   -9,057387710e-02
       83000000    1,639377922e-01   -9,296605736e-02
       83075000    1,645985395e-01   -9,296300262e-02
       83150000    1,656658202e-01   -9,442344308e-02
       83225000    1,668799371e-01   -9,427408874e-02
       83300000    1,677616239e-01   -9,613228589e-02
       83375000    1,689210385e-01   -9,513759613e-02
       83450000    1,701816916e-01   -9,797468036e-02
       83525000    1,703645140e-01   -9,839528054e-02
       83600000    1,730533987e-01   -9,889579564e-02
       83675000    1,738210768e-01   -9,949737042e-02
       83750000    1,751227528e-01   -9,814482182e-02
       83825000    1,766909212e-01   -1,002295241e-01
       83900000    1,770408899e-01   -1,010809913e-01
       83975000    1,800265908e-01   -1,012467369e-01
       84050000    1,806315929e-01   -1,024621502e-01
       84125000    1,829241365e-01   -1,022297964e-01
       84200000    1,838379055e-01   -1,029317752e-01
       84275000    1,853488684e-01   -1,042050645e-01
       84350000    1,880423129e-01   -1,051265895e-01
       84425000    1,883466542e-01   -1,059301347e-01
       84500000    1,917515397e-01   -1,057543606e-01
       84575000    1,931108087e-01   -1,064665392e-01
       84650000    1,941793561e-01   -1,067639962e-01
       84725000    1,977001131e-01   -1,077511981e-01
       84800000    1,976262480e-01   -1,099222004e-01
       84875000    2,013607770e-01   -1,094801947e-01
       84950000    2,031498849e-01   -1,099564284e-01
       85025000    2,053048313e-01   -1,114396006e-01
       85100000    2,066071332e-01   -1,104798317e-01
       85175000    2,092441916e-01   -1,127539575e-01
       85250000    2,104348987e-01   -1,129027754e-01
       85325000    2,145853937e-01   -1,141716987e-01
       85400000    2,162492722e-01   -1,158138439e-01
       85475000    2,196818292e-01   -1,152799278e-01
       85550000    2,217332572e-01   -1,174867451e-01
       85625000    2,238068879e-01   -1,180237681e-01
       85700000    2,251732647e-01   -1,197178811e-01
       85775000    2,297236174e-01   -1,206326112e-01
       85850000    2,326128930e-01   -1,223742440e-01
       85925000    2,358437926e-01   -1,243862659e-01
       86000000    2,386709154e-01   -1,239902824e-01
       86075000    2,416511923e-01   -1,265460253e-01
       86150000    2,430343628e-01   -1,295543611e-01
       86225000    2,457697541e-01   -1,296505034e-01
       86300000    2,503963709e-01   -1,322351545e-01
       86375000    2,528407276e-01   -1,343970746e-01
       86450000    2,548133135e-01   -1,376619339e-01
       86525000    2,572649717e-01   -1,390650421e-01
       86600000    2,618170679e-01   -1,421416700e-01
       86675000    2,636943460e-01   -1,447464973e-01
       86750000    2,681576610e-01   -1,464744806e-01
       86825000    2,703352273e-01   -1,503523886e-01
       86900000    2,721322179e-01   -1,523505449e-01
       86975000    2,752050757e-01   -1,554786414e-01
       87050000    2,761377692e-01   -1,590834707e-01
       87125000    2,795092762e-01   -1,599856019e-01
       87200000    2,827771008e-01   -1,649208963e-01
       87275000    2,831659317e-01   -1,673957258e-01
       87350000    2,869964540e-01   -1,697773039e-01
       87425000    2,897716761e-01   -1,746560782e-01
       87500000    2,908077240e-01   -1,763892770e-01
       87575000    2,941755652e-01   -1,810165644e-01
       87650000    2,957505286e-01   -1,828431189e-01
       87725000    2,964948714e-01   -1,868597269e-01
       87800000    2,976287603e-01   -1,905465722e-01
       87875000    3,010907173e-01   -1,938723475e-01
       87950000    3,036733568e-01   -1,960680336e-01
       88025000    3,051062524e-01   -2,017756402e-01
       88100000    3,076477349e-01   -2,026428580e-01
       88175000    3,079700768e-01   -2,068291605e-01
       88250000    3,080075383e-01   -2,101654708e-01
       88325000    3,127073348e-01   -2,133541256e-01
       88400000    3,151262403e-01   -2,182353139e-01
       88475000    3,169307709e-01   -2,204584628e-01
       88550000    3,179655373e-01   -2,247515470e-01
       88625000    3,178387582e-01   -2,298459560e-01
       88700000    3,205416501e-01   -2,309561968e-01
       88775000    3,237352073e-01   -2,365738899e-01
       88850000    3,247552514e-01   -2,389554530e-01
       88925000    3,245173991e-01   -2,452158332e-01
       89000000    3,276265860e-01   -2,485081851e-01
       89075000    3,289780021e-01   -2,532422543e-01
       89150000    3,316814899e-01   -2,572849095e-01
       89225000    3,327380121e-01   -2,609502673e-01
       89300000    3,344899118e-01   -2,632015646e-01
       89375000    3,363089859e-01   -2,693770826e-01
       89450000    3,373979330e-01   -2,708783746e-01
       89525000    3,375416696e-01   -2,794549465e-01
       89600000    3,367487192e-01   -2,830773890e-01
       89675000    3,388465941e-01   -2,851074636e-01
       89750000    3,403535783e-01   -2,918733060e-01
       89825000    3,433973491e-01   -2,956581116e-01
       89900000    3,437478542e-01   -2,991614342e-01
       89975000    3,446768820e-01   -3,053551316e-01
       90050000    3,444037139e-01   -3,088182509e-01
       90125000    3,436941206e-01   -3,158124983e-01
       90200000    3,431481421e-01   -3,216472566e-01
       90275000    3,471165895e-01   -3,233179450e-01
       90350000    3,497762084e-01   -3,324072957e-01
       90425000    3,435567021e-01   -3,383752406e-01
       90500000    3,469215035e-01   -3,417498767e-01
       90575000    3,479515612e-01   -3,482529819e-01
       90650000    3,443837762e-01   -3,501807153e-01
       90725000    3,492578566e-01   -3,562204540e-01
       90800000    3,465989530e-01   -3,644250631e-01
       90875000    3,481664062e-01   -3,658403754e-01
       90950000    3,468039632e-01   -3,730060458e-01
       91025000    3,463769555e-01   -3,753404915e-01
       91100000    3,463856876e-01   -3,842191696e-01
       91175000    3,425285220e-01   -3,867750466e-01
       91250000    3,416021168e-01   -3,943771124e-01
       91325000    3,392896652e-01   -3,975510001e-01
       91400000    3,395487964e-01   -4,058237970e-01
       91475000    3,364908099e-01   -4,121850133e-01
       91550000    3,381308019e-01   -4,167639315e-01
       91625000    3,352713287e-01   -4,239648581e-01
       91700000    3,357450664e-01   -4,277017117e-01
       91775000    3,339571357e-01   -4,337265491e-01
       91850000    3,326110840e-01   -4,357003868e-01
       91925000    3,286039233e-01   -4,423302412e-01
