! NanoVNA-App
! Date: 2025-08-02 16:45:28
! Start: 65MHz Stop: 95MHz Points: 401
! S-Parameter data: F S11
# Hz S RI R 50
!     Frequency           S11_Real           S11_Imag
       65000000   -5,557568669e-01   -5,981166661e-02
       65075000   -5,519251823e-01   -5,564347655e-02
       65150000   -5,465596914e-01   -5,061060190e-02
       65225000   -5,415040255e-01   -4,650924355e-02
       65300000   -5,366314054e-01   -4,241153970e-02
       65375000   -5,310228467e-01   -3,803233430e-02
       65450000   -5,262428522e-01   -3,492527455e-02
       65525000   -5,204644799e-01   -3,127266839e-02
       65600000   -5,153292418e-01   -2,757279389e-02
       65675000   -5,099175572e-01   -2,484781481e-02
       65750000   -5,040979385e-01   -2,171204984e-02
       65825000   -4,982045591e-01   -1,977733523e-02
       65900000   -4,931811690e-01   -1,683382876e-02
       65975000   -4,874774218e-01   -1,525712293e-02
       66050000   -4,827833176e-01   -1,223095134e-02
       66125000   -4,772740901e-01   -9,420012124e-03
       66200000   -4,729246497e-01   -8,921947330e-03
       66275000   -4,675751626e-01   -6,766413338e-03
       66350000   -4,628024995e-01   -4,272378515e-03
       66425000   -4,571867883e-01   -3,818910802e-03
       66500000   -4,526764750e-01   -1,495272620e-03
       66575000   -4,473372698e-01   -8,812675951e-04
       66650000   -4,434077740e-01    5,130916252e-04
       66725000   -4,387428164e-01    1,658250461e-03
       66800000   -4,338878393e-01    3,134460188e-03
       66875000   -4,290286005e-01    4,039140418e-03
       66950000   -4,257032573e-01    5,539568607e-03
       67025000   -4,207247496e-01    7,367187645e-03
       67100000   -4,151212275e-01    8,240209892e-03
       67175000   -4,114234149e-01    8,746128529e-03
       67250000   -4,057625830e-01    1,041249093e-02
       67325000   -4,019008279e-01    1,064712834e-02
       67400000   -3,978954554e-01    1,168104820e-02
       67475000   -3,914543986e-01    1,301561389e-02
       67550000   -3,867865801e-01    1,353335939e-02
       67625000   -3,827545643e-01    1,324100699e-02
       67700000   -3,770728409e-01    1,427911036e-02
       67775000   -3,726405501e-01    1,375461835e-02
       67850000   -3,682130575e-01    1,342203282e-02
       67925000   -3,630819321e-01    1,398552582e-02
       68000000   -3,594135940e-01    1,323599927e-02
       68075000   -3,553965688e-01    1,364785247e-02
       68150000   -3,494787514e-01    1,276797056e-02
       68225000   -3,458074033e-01    1,209073327e-02
       68300000   -3,403110206e-01    1,181022078e-02
       68375000   -3,363982439e-01    1,081608981e-02
       68450000   -3,327326477e-01    9,883111343e-03
       68525000   -3,285413980e-01    8,499180898e-03
       68600000   -3,241631091e-01    7,423458621e-03
       68675000   -3,202339113e-01    5,270302296e-03
       68750000   -3,158310056e-01    4,580962937e-03
       68825000   -3,121520877e-01    2,834537299e-03
       68900000   -3,095497489e-01    1,307364786e-03
       68975000   -3,065703809e-01   -1,175918034e-03
       69050000   -3,033098876e-01   -2,512507839e-03
       69125000   -3,005118966e-01   -4,667665344e-03
       69200000   -2,975570560e-01   -6,200117525e-03
       69275000   -2,948833108e-01   -8,824916556e-03
       69350000   -2,925156653e-01   -9,440334514e-03
       69425000   -2,901338041e-01   -1,190084126e-02
       69500000   -2,884911597e-01   -1,366635039e-02
       69575000   -2,861407697e-01   -1,582222991e-02
       69650000   -2,845544517e-01   -1,666814834e-02
       69725000   -2,825796902e-01   -1,876073331e-02
       69800000   -2,816951871e-01   -2,067103051e-02
       69875000   -2,798256576e-01   -2,184547111e-02
       69950000   -2,790017128e-01   -2,291493863e-02
       70025000   -2,776623368e-01   -2,480826713e-02
       70100000   -2,758069932e-01   -2,564196102e-02
       70175000   -2,745340168e-01   -2,689555846e-02
       70250000   -2,738304734e-01   -2,826831117e-02
       70325000   -2,724632025e-01   -2,837843448e-02
       70400000   -2,715777457e-01   -2,912904136e-02
       70475000   -2,697333097e-01   -3,118394688e-02
       70550000   -2,689838707e-01   -3,115742840e-02
       70625000   -2,677280903e-01   -3,109609708e-02
       70700000   -2,670334578e-01   -3,325448185e-02
       70775000   -2,655429542e-01   -3,242506459e-02
       70850000   -2,639207244e-01   -3,400177509e-02
       70925000   -2,631776035e-01   -3,490649536e-02
       71000000   -2,619817257e-01   -3,444410115e-02
       71075000   -2,607074678e-01   -3,509186953e-02
       71150000   -2,597674429e-01   -3,627492115e-02
       71225000   -2,581462264e-01   -3,616414219e-02
       71300000   -2,556991279e-01   -3,684131801e-02
       71375000   -2,563122809e-01   -3,893965483e-02
       71450000   -2,533966303e-01   -3,745163977e-02
       71525000   -2,529664636e-01   -3,883453831e-02
       71600000   -2,519132793e-01   -4,107576609e-02
       71675000   -2,501428127e-01   -4,063575715e-02
       71750000   -2,490120232e-01   -4,100396857e-02
       71825000   -2,486872971e-01   -4,247310758e-02
       71900000   -2,459341884e-01   -4,289893433e-02
       71975000   -2,449748516e-01   -4,405687004e-02
       72050000   -2,450477630e-01   -4,574554786e-02
       72125000   -2,436014712e-01   -4,659563676e-02
       72200000   -2,417601198e-01   -4,806106538e-02
       72275000   -2,419794798e-01   -4,795736820e-02
       72350000   -2,408668995e-01   -4,937275872e-02
       72425000   -2,402124256e-01   -5,064732581e-02
       72500000   -2,391463816e-01   -5,084339902e-02
       72575000   -2,396000326e-01   -5,346040055e-02
       72650000   -2,385288477e-01   -5,368286744e-02
       72725000   -2,383701056e-01   -5,494670942e-02
       72800000   -2,398513407e-01   -5,630821735e-02
       72875000   -2,377132922e-01   -5,714948475e-02
       72950000   -2,385902554e-01   -5,791391060e-02
       73025000   -2,399725467e-01   -5,844478309e-02
       73100000   -2,387155294e-01   -6,025860086e-02
       73175000   -2,381114066e-01   -5,992668867e-02
       73250000   -2,399012893e-01   -6,023509800e-02
       73325000   -2,386957258e-01   -6,188703701e-02
       73400000   -2,387168109e-01   -6,203696132e-02
       73475000   -2,404826283e-01   -6,129714847e-02
       73550000   -2,404672354e-01   -6,292972714e-02
       73625000   -2,400053740e-01   -6,341079623e-02
       73700000   -2,412628233e-01   -6,165628880e-02
       73775000   -2,412556410e-01   -6,451885402e-02
       73850000   -2,417194843e-01   -6,416054070e-02
       73925000   -2,416061908e-01   -6,323943287e-02
       74000000   -2,432797402e-01   -6,518239528e-02
       74075000   -2,426558286e-01   -6,425585598e-02
       74150000   -2,435930669e-01   -6,349479407e-02
       74225000   -2,443268597e-01   -6,455334276e-02
       74300000   -2,441997081e-01   -6,317347288e-02
       74375000   -2,442928404e-01   -6,311116368e-02
       74450000   -2,455359250e-01   -6,336802989e-02
       74525000   -2,459020019e-01   -6,315704435e-02
       74600000   -2,458636463e-01   -6,089557707e-02
       74675000   -2,478290945e-01   -6,146467850e-02
       74750000   -2,483477443e-01   -6,121220812e-02
       74825000   -2,470211089e-01   -6,003094092e-02
       74900000   -2,480892092e-01   -6,010372937e-02
       74975000   -2,495603859e-01   -5,954007804e-02
       75050000   -2,480620295e-01   -5,861455947e-02
       75125000   -2,498395741e-01   -5,776427314e-02
       75200000   -2,498372495e-01   -5,681548640e-02
       75275000   -2,497241646e-01   -5,642922595e-02
       75350000   -2,502413094e-01   -5,510609224e-02
       75425000   -2,507087588e-01   -5,470243469e-02
       75500000   -2,505061626e-01   -5,302264914e-02
       75575000   -2,500006855e-01   -5,307945982e-02
       75650000   -2,517136335e-01   -5,178179592e-02
       75725000   -2,515276968e-01   -5,143338069e-02
       75800000   -2,507987022e-01   -4,966853559e-02
       75875000   -2,527421415e-01   -4,931510985e-02
       75950000   -2,526846826e-01   -4,760589823e-02
       76025000   -2,508734763e-01   -4,772303253e-02
       76100000   -2,537089586e-01   -4,634588212e-02
       76175000   -2,539345920e-01   -4,475455359e-02
       76250000   -2,532502711e-01   -4,477987811e-02
       76325000   -2,546409667e-01   -4,183382168e-02
       76400000   -2,549115717e-01   -4,184355587e-02
       76475000   -2,548673153e-01   -4,114221781e-02
       76550000   -2,555629611e-01   -3,924580291e-02
       76625000   -2,557276189e-01   -3,761944175e-02
       76700000   -2,558830678e-01   -3,644813970e-02
       76775000   -2,564175129e-01   -3,440021724e-02
       76850000   -2,567774355e-01   -3,319767863e-02
       76925000   -2,569126785e-01   -3,224589676e-02
       77000000   -2,572629154e-01   -2,976499498e-02
       77075000   -2,576169372e-01   -2,823290043e-02
       77150000   -2,579255402e-01   -2,722390555e-02
       77225000   -2,584692240e-01   -2,472442389e-02
       77300000   -2,585516870e-01   -2,210167423e-02
       77375000   -2,595789135e-01   -2,121104300e-02
       77450000   -2,593517303e-01   -1,801454835e-02
       77525000   -2,594740093e-01   -1,536978316e-02
       77600000   -2,600447834e-01   -1,443968900e-02
       77675000   -2,592401505e-01   -1,122834627e-02
       77750000   -2,589164674e-01   -8,982121944e-03
       77825000   -2,600749433e-01   -7,126914337e-03
       77900000   -2,592740655e-01   -3,876160597e-03
       77975000   -2,588725388e-01   -1,437050523e-03
       78050000   -2,591241300e-01    6,519630551e-04
       78125000   -2,581894100e-01    3,669062862e-03
       78200000   -2,577496171e-01    6,793386769e-03
       78275000   -2,574594319e-01    8,649556898e-03
       78350000   -2,569130361e-01    1,229197066e-02
       78425000   -2,564777434e-01    1,528856903e-02
       78500000   -2,546797693e-01    1,744620316e-02
       78575000   -2,550636828e-01    2,051711641e-02
       78650000   -2,529439330e-01    2,385612950e-02
       78725000   -2,522694767e-01    2,609053627e-02
       78800000   -2,510628104e-01    2,967514843e-02
       78875000   -2,497292161e-01    3,347221017e-02
       78950000   -2,488411963e-01    3,619700670e-02
       79025000   -2,473555505e-01    3,874693438e-02
       79100000   -2,451140732e-01    4,190222174e-02
       79175000   -2,436372340e-01    4,526638612e-02
       79250000   -2,420429736e-01    4,801928625e-02
       79325000   -2,394907475e-01    5,114574730e-02
       79400000   -2,366060168e-01    5,397912487e-02
       79475000   -2,358458042e-01    5,661449581e-02
       79550000   -2,328646183e-01    5,984225124e-02
       79625000   -2,307157516e-01    6,215764582e-02
       79700000   -2,283871472e-01    6,584750116e-02
       79775000   -2,248027623e-01    6,799874455e-02
       79850000   -2,228541672e-01    7,048326731e-02
       79925000   -2,198633403e-01    7,330968976e-02
       80000000   -2,165422887e-01    7,500322163e-02
       80075000   -2,143637240e-01    7,840213925e-02
       80150000   -2,104176581e-01    8,067756891e-02
       80225000   -2,066797763e-01    8,271601796e-02
       80300000   -2,034898996e-01    8,482706547e-02
       80375000   -2,001197338e-01    8,625499904e-02
       80450000   -1,964231730e-01    8,781223744e-02
       80525000   -1,941118389e-01    9,054553509e-02
       80600000   -1,900562346e-01    9,082116932e-02
       80675000   -1,870952249e-01    9,243004024e-02
       80750000   -1,830863059e-01    9,462534636e-02
       80825000   -1,800338030e-01    9,544141591e-02
       80900000   -1,768721193e-01    9,693773091e-02
       80975000   -1,726043969e-01    9,766171128e-02
       81050000   -1,700306237e-01    9,836537391e-02
       81125000   -1,662291735e-01    9,906434268e-02
       81200000   -1,636341363e-01    1,000251174e-01
       81275000   -1,589623690e-01    1,005362943e-01
       81350000   -1,570591778e-01    1,006898880e-01
       81425000   -1,524667591e-01    1,009779572e-01
       81500000   -1,490159035e-01    1,011725590e-01
       81575000   -1,467228830e-01    1,015708819e-01
       81650000   -1,438850909e-01    1,018610969e-01
       81725000   -1,403552145e-01    1,019762531e-01
       81800000   -1,376317441e-01    1,022187322e-01
       81875000   -1,351371109e-01    1,027594656e-01
       81950000   -1,322975755e-01    1,015954167e-01
       82025000   -1,297022998e-01    1,021239534e-01
       82100000   -1,266563088e-01    1,009237617e-01
       82175000   -1,248026565e-01    1,017248109e-01
       82250000   -1,220647171e-01    1,009517610e-01
       82325000   -1,198923662e-01    1,012462005e-01
       82400000   -1,170094982e-01    1,011928692e-01
       82475000   -1,152667850e-01    1,011191532e-01
       82550000   -1,125397012e-01    1,018129736e-01
       82625000   -1,101204827e-01    1,013309136e-01
       82700000   -1,088362560e-01    1,011848003e-01
       82775000   -1,067475453e-01    1,013133898e-01
       82850000   -1,041907296e-01    1,009610295e-01
       82925000   -1,037633121e-01    1,020853817e-01
       83000000   -1,011945233e-01    1,022593081e-01
       83075000   -9,980709106e-02    1,018993556e-01
       83150000   -9,807582945e-02    1,028297395e-01
       83225000   -9,640603513e-02    1,037894264e-01
       83300000   -9,362540394e-02    1,037150100e-01
       83375000   -9,308574349e-02    1,046957001e-01
       83450000   -9,110285342e-02    1,048867404e-01
       83525000   -8,900441229e-02    1,055180654e-01
       83600000   -8,735106885e-02    1,064007208e-01
       83675000   -8,546466380e-02    1,087062806e-01
       83750000   -8,360431343e-02    1,082086489e-01
       83825000   -8,137343824e-02    1,093318015e-01
       83900000   -7,953565568e-02    1,093718708e-01
       83975000   -7,733220607e-02    1,105151922e-01
       84050000   -7,490544766e-02    1,116049662e-01
       84125000   -7,283106446e-02    1,126747653e-01
       84200000   -7,091370225e-02    1,138697863e-01
       84275000   -6,847723573e-02    1,149029061e-01
       84350000   -6,624666601e-02    1,158527732e-01
       84425000   -6,311095506e-02    1,162024438e-01
       84500000   -6,133546308e-02    1,178674325e-01
       84575000   -5,894301087e-02    1,201526821e-01
       84650000   -5,689189956e-02    1,202562451e-01
       84725000   -5,474252626e-02    1,213381365e-01
       84800000   -5,168431625e-02    1,220132485e-01
       84875000   -4,881341755e-02    1,234346554e-01
       84950000   -4,611469805e-02    1,253692806e-01
       85025000   -4,359351844e-02    1,265120357e-01
       85100000   -4,116977006e-02    1,276384145e-01
       85175000   -3,889177367e-02    1,296457201e-01
       85250000   -3,520533070e-02    1,304734051e-01
       85325000   -3,163325042e-02    1,310202181e-01
       85400000   -2,887535654e-02    1,332195103e-01
       85475000   -2,550732717e-02    1,345967948e-01
       85550000   -2,212053910e-02    1,352940947e-01
       85625000   -1,904339157e-02    1,374182403e-01
       85700000   -1,534230262e-02    1,388007104e-01
       85775000   -1,146386098e-02    1,391102225e-01
       85850000   -8,167836815e-03    1,415542364e-01
       85925000   -3,093500389e-03    1,421134919e-01
       86000000    6,484128535e-04    1,427572668e-01
       86075000    4,697267897e-03    1,444494724e-01
       86150000    8,930564858e-03    1,457420439e-01
       86225000    1,325698476e-02    1,462654918e-01
       86300000    1,747487485e-02    1,466383636e-01
       86375000    2,235993557e-02    1,476876587e-01
       86450000    2,675809897e-02    1,475004852e-01
       86525000    3,137283400e-02    1,487718821e-01
       86600000    3,618195653e-02    1,486405581e-01
       86675000    4,121051729e-02    1,484744251e-01
       86750000    4,587976635e-02    1,486028582e-01
       86825000    5,072261021e-02    1,490211189e-01
       86900000    5,669933558e-02    1,493951231e-01
       86975000    6,087293848e-02    1,488719583e-01
       87050000    6,512716413e-02    1,480443478e-01
       87125000    7,045383006e-02    1,462226510e-01
       87200000    7,514211535e-02    1,469063759e-01
       87275000    7,996021211e-02    1,457002014e-01
       87350000    8,471794426e-02    1,443359107e-01
       87425000    8,975303918e-02    1,438773423e-01
       87500000    9,426803887e-02    1,415845156e-01
       87575000    9,956179559e-02    1,416195333e-01
       87650000    1,039720997e-01    1,411377341e-01
       87725000    1,087808385e-01    1,398789436e-01
       87800000    1,129990071e-01    1,379316598e-01
       87875000    1,177200824e-01    1,376983076e-01
       87950000    1,233050525e-01    1,350648254e-01
       88025000    1,273057163e-01    1,336102337e-01
       88100000    1,320728213e-01    1,318611801e-01
       88175000    1,366243660e-01    1,317976117e-01
       88250000    1,409795433e-01    1,292399913e-01
       88325000    1,461864412e-01    1,276482791e-01
       88400000    1,510409713e-01    1,257655919e-01
       88475000    1,548179686e-01    1,242417023e-01
       88550000    1,600368321e-01    1,227615327e-01
       88625000    1,646983773e-01    1,214951277e-01
       88700000    1,690695286e-01    1,188250557e-01
       88775000    1,741439104e-01    1,177902371e-01
       88850000    1,793728620e-01    1,147756502e-01
       88925000    1,832653284e-01    1,126601920e-01
       89000000    1,891416013e-01    1,114132479e-01
       89075000    1,936150640e-01    1,084297374e-01
       89150000    1,980735511e-01    1,064902768e-01
       89225000    2,039539516e-01    1,039292961e-01
       89300000    2,088078409e-01    1,016523317e-01
       89375000    2,130180001e-01    9,836179763e-02
       89450000    2,186786383e-01    9,589723498e-02
       89525000    2,240100652e-01    9,317807853e-02
       89600000    2,283389270e-01    8,993017673e-02
       89675000    2,336052209e-01    8,732411265e-02
       89750000    2,392520756e-01    8,357884735e-02
       89825000    2,440726906e-01    8,008570969e-02
       89900000    2,484507710e-01    7,703220844e-02
       89975000    2,541528046e-01    7,291426510e-02
       90050000    2,585095167e-01    6,924152374e-02
       90125000    2,642194033e-01    6,598134339e-02
       90200000    2,691596150e-01    6,122745946e-02
       90275000    2,731532454e-01    5,779522285e-02
       90350000    2,788288295e-01    5,299695209e-02
       90425000    2,830474973e-01    5,094463751e-02
       90500000    2,883569598e-01    4,375904426e-02
       90575000    2,926919162e-01    3,914023191e-02
       90650000    2,969948351e-01    3,347595036e-02
       90725000    3,018570542e-01    2,872223593e-02
       90800000    3,061969876e-01    2,287369408e-02
       90875000    3,112295866e-01    1,850683987e-02
       90950000    3,153679371e-01    1,225116011e-02
       91025000    3,192392290e-01    8,117956109e-03
       91100000    3,235418797e-01    9,732317994e-04
       91175000    3,270000815e-01   -3,459612140e-03
       91250000    3,317102492e-01   -1,031406876e-02
       91325000    3,346339464e-01   -1,601427235e-02
       91400000    3,382916451e-01   -2,295031399e-02
       91475000    3,407334685e-01   -2,942935750e-02
       91550000    3,450233638e-01   -3,556886688e-02
       91625000    3,466596603e-01   -4,225058109e-02
       91700000    3,509614468e-01   -4,874847829e-02
       91775000    3,531754017e-01   -5,569962040e-02
       91850000    3,562027812e-01   -6,222433224e-02
       91925000    3,586919904e-01   -6,937513500e-02
