! NanoVNA-App
! Date: 2025-08-09 13:02:33
! Start: 65MHz Stop: 95MHz Points: 401
! S-Parameter data: F S11
# Hz S RI R 50
!     Frequency           S11_Real           S11_Imag
       65000000   -2,230046242e-01    2,650714815e-01
       65075000   -2,243981957e-01    2,643591166e-01
       65150000   -2,191509455e-01    2,607172132e-01
       65225000   -2,152255476e-01    2,597208619e-01
       65300000   -2,113010436e-01    2,592893839e-01
       65375000   -2,079762667e-01    2,569198608e-01
       65450000   -2,036134005e-01    2,562559545e-01
       65525000   -1,995455474e-01    2,538578808e-01
       65600000   -1,940705776e-01    2,521042824e-01
       65675000   -1,903279424e-01    2,513172626e-01
       65750000   -1,850858331e-01    2,501577735e-01
       65825000   -1,817149818e-01    2,495699376e-01
       65900000   -1,780812740e-01    2,474236935e-01
       65975000   -1,733486503e-01    2,468263507e-01
       66050000   -1,703229547e-01    2,450184375e-01
       66125000   -1,658887416e-01    2,431601733e-01
       66200000   -1,619171202e-01    2,429013252e-01
       66275000   -1,572604626e-01    2,411177605e-01
       66350000   -1,531645060e-01    2,400568724e-01
       66425000   -1,489786804e-01    2,383883893e-01
       66500000   -1,451236457e-01    2,373772860e-01
       66575000   -1,412061900e-01    2,352477908e-01
       66650000   -1,371900737e-01    2,343203574e-01
       66725000   -1,349546462e-01    2,336077094e-01
       66800000   -1,313331872e-01    2,319574058e-01
       66875000   -1,277586371e-01    2,309727967e-01
       66950000   -1,236720011e-01    2,292523384e-01
       67025000   -1,193736643e-01    2,288479805e-01
       67100000   -1,150517166e-01    2,274550349e-01
       67175000   -1,112504154e-01    2,250832468e-01
       67250000   -1,058767587e-01    2,238104939e-01
       67325000   -1,033464894e-01    2,236121297e-01
       67400000   -9,955851734e-02    2,207935750e-01
       67475000   -9,477218240e-02    2,196296006e-01
       67550000   -9,084762633e-02    2,188723385e-01
       67625000   -8,736903220e-02    2,156689763e-01
       67700000   -8,320372552e-02    2,138803303e-01
       67775000   -7,932835072e-02    2,136384100e-01
       67850000   -7,542841882e-02    2,113506645e-01
       67925000   -7,062227279e-02    2,088241279e-01
       68000000   -6,605258584e-02    2,070804536e-01
       68075000   -6,201589853e-02    2,056543231e-01
       68150000   -5,841147527e-02    2,029707879e-01
       68225000   -5,485643819e-02    1,998042464e-01
       68300000   -5,054192618e-02    1,976773590e-01
       68375000   -4,707689956e-02    1,942888349e-01
       68450000   -4,284055158e-02    1,924375594e-01
       68525000   -3,926710412e-02    1,899568588e-01
       68600000   -3,603006527e-02    1,867135912e-01
       68675000   -3,286189586e-02    1,836576313e-01
       68750000   -2,823918872e-02    1,808458567e-01
       68825000   -2,679619938e-02    1,784370393e-01
       68900000   -2,397456765e-02    1,741798520e-01
       68975000   -2,092541941e-02    1,709928662e-01
       69050000   -1,755129360e-02    1,685567796e-01
       69125000   -1,504702400e-02    1,650057435e-01
       69200000   -1,186375041e-02    1,612330824e-01
       69275000   -1,002910268e-02    1,580982804e-01
       69350000   -8,274366148e-03    1,548834890e-01
       69425000   -5,383268930e-03    1,505349576e-01
       69500000   -2,544421237e-03    1,480179280e-01
       69575000   -1,574864145e-03    1,448103338e-01
       69650000    4,329844378e-04    1,403406858e-01
       69725000    2,811131300e-03    1,382848024e-01
       69800000    3,346572630e-03    1,349445432e-01
       69875000    4,884046502e-03    1,315365881e-01
       69950000    5,690303165e-03    1,278144419e-01
       70025000    7,109218277e-03    1,253476590e-01
       70100000    7,633590605e-03    1,213140935e-01
       70175000    9,411349893e-03    1,189932078e-01
       70250000    1,041949540e-02    1,158853322e-01
       70325000    1,039069798e-02    1,131949425e-01
       70400000    1,096516568e-02    1,104760617e-01
       70475000    1,115689054e-02    1,074955463e-01
       70550000    1,151060965e-02    1,049199253e-01
       70625000    1,269175112e-02    1,026007459e-01
       70700000    1,172518171e-02    1,004006714e-01
       70775000    1,181626040e-02    9,828349203e-02
       70850000    1,253559161e-02    9,580906481e-02
       70925000    1,280224137e-02    9,428562969e-02
       71000000    1,302312408e-02    9,252142906e-02
       71075000    1,361426897e-02    9,039364010e-02
       71150000    1,383452024e-02    8,876588941e-02
       71225000    1,390474103e-02    8,753950149e-02
       71300000    1,365120430e-02    8,519382030e-02
       71375000    1,320087258e-02    8,448394388e-02
       71450000    1,478335541e-02    8,213125169e-02
       71525000    1,400961354e-02    8,044722676e-02
       71600000    1,529474184e-02    7,938151807e-02
       71675000    1,554962341e-02    7,724487782e-02
       71750000    1,484586857e-02    7,622343302e-02
       71825000    1,508219074e-02    7,512778789e-02
       71900000    1,614083350e-02    7,334244251e-02
       71975000    1,623816043e-02    7,215337455e-02
       72050000    1,576356404e-02    7,027455419e-02
       72125000    1,647947542e-02    6,958951056e-02
       72200000    1,585116796e-02    6,893225759e-02
       72275000    1,645528711e-02    6,752159446e-02
       72350000    1,631090976e-02    6,622438878e-02
       72425000    1,654538140e-02    6,569420546e-02
       72500000    1,684324257e-02    6,487584114e-02
       72575000    1,701294817e-02    6,332901120e-02
       72650000    1,661822014e-02    6,312090158e-02
       72725000    1,757485978e-02    6,259994954e-02
       72800000    1,739381067e-02    6,079816446e-02
       72875000    1,754119061e-02    6,121784449e-02
       72950000    1,807344519e-02    6,019046903e-02
       73025000    1,777983084e-02    5,897634849e-02
       73100000    1,774904877e-02    5,929465964e-02
       73175000    1,863513328e-02    5,888234824e-02
       73250000    1,848377474e-02    5,740844086e-02
       73325000    1,898305863e-02    5,719783902e-02
       73400000    1,959337853e-02    5,703457072e-02
       73475000    1,974101551e-02    5,657019094e-02
       73550000    2,018711902e-02    5,607305840e-02
       73625000    2,058714069e-02    5,621678010e-02
       73700000    2,086270414e-02    5,528572947e-02
       73775000    2,127410099e-02    5,485536531e-02
       73850000    2,145945467e-02    5,503338203e-02
       73925000    2,263539657e-02    5,437351763e-02
       74000000    2,316568233e-02    5,403596163e-02
       74075000    2,317427285e-02    5,380037054e-02
       74150000    2,371736430e-02    5,353184044e-02
       74225000    2,516971715e-02    5,332890153e-02
       74300000    2,501778677e-02    5,369691178e-02
       74375000    2,678481303e-02    5,216174200e-02
       74450000    2,663273178e-02    5,187660083e-02
       74525000    2,758313343e-02    5,251821503e-02
       74600000    2,817377076e-02    5,148892477e-02
       74675000    2,900052629e-02    5,067354441e-02
       74750000    2,984268777e-02    5,147126690e-02
       74825000    3,051403724e-02    5,048857257e-02
       74900000    3,156262264e-02    4,964504391e-02
       74975000    3,140373528e-02    5,044849962e-02
       75050000    3,310081363e-02    4,919690266e-02
       75125000    3,337462246e-02    4,910252988e-02
       75200000    3,385180980e-02    4,884568602e-02
       75275000    3,425030038e-02    4,772420228e-02
       75350000    3,546199575e-02    4,772950709e-02
       75425000    3,662917390e-02    4,767226055e-02
       75500000    3,666211292e-02    4,661036283e-02
       75575000    3,823694214e-02    4,663494602e-02
       75650000    3,858574480e-02    4,580516741e-02
       75725000    3,880991414e-02    4,593892768e-02
       75800000    4,003310204e-02    4,543951899e-02
       75875000    4,054959863e-02    4,474202543e-02
       75950000    4,151811823e-02    4,493697733e-02
       76025000    4,175226390e-02    4,383767396e-02
       76100000    4,267397895e-02    4,362656921e-02
       76175000    4,256800190e-02    4,355430976e-02
       76250000    4,374632612e-02    4,309265688e-02
       76325000    4,412886128e-02    4,236732796e-02
       76400000    4,403735325e-02    4,191332683e-02
       76475000    4,457563162e-02    4,207807779e-02
       76550000    4,532122612e-02    4,143708199e-02
       76625000    4,606269300e-02    4,097241536e-02
       76700000    4,648345336e-02    4,030480236e-02
       76775000    4,676333442e-02    3,987719864e-02
       76850000    4,774019495e-02    4,030464962e-02
       76925000    4,786550626e-02    3,949369118e-02
       77000000    4,793833196e-02    3,921448067e-02
       77075000    4,853989929e-02    3,882583976e-02
       77150000    4,760690406e-02    3,839198127e-02
       77225000    4,809109867e-02    3,815609589e-02
       77300000    4,884797707e-02    3,778026998e-02
       77375000    4,878189415e-02    3,850107267e-02
       77450000    4,774400219e-02    3,738598898e-02
       77525000    4,876984283e-02    3,714444116e-02
       77600000    4,859040678e-02    3,830216080e-02
       77675000    4,775691777e-02    3,849033266e-02
       77750000    4,831158370e-02    3,783636540e-02
       77825000    4,726555198e-02    3,858690336e-02
       77900000    4,691615701e-02    4,013680667e-02
       77975000    4,590502754e-02    4,044305161e-02
       78050000    4,541424662e-02    4,234422371e-02
       78125000    4,517609626e-02    4,409197718e-02
       78200000    4,429778457e-02    4,567284510e-02
       78275000    4,497061670e-02    4,839666560e-02
       78350000    4,556166753e-02    5,063574016e-02
       78425000    4,670564830e-02    5,284680426e-02
       78500000    4,849949852e-02    5,505798757e-02
       78575000    5,074147880e-02    5,741916597e-02
       78650000    5,283147097e-02    5,790327489e-02
       78725000    5,488700792e-02    5,875610933e-02
       78800000    5,708535761e-02    6,007613242e-02
       78875000    5,794841796e-02    6,084821001e-02
       78950000    5,965447426e-02    6,152805313e-02
       79025000    6,081693247e-02    6,232338771e-02
       79100000    6,178190187e-02    6,334596872e-02
       79175000    6,342898309e-02    6,505466253e-02
       79250000    6,550818682e-02    6,573659182e-02
       79325000    6,663263589e-02    6,828496605e-02
       79400000    6,851863116e-02    6,884142011e-02
       79475000    7,075333595e-02    6,981979311e-02
       79550000    7,141654938e-02    7,074193656e-02
       79625000    7,326843590e-02    7,288742065e-02
       79700000    7,572904974e-02    7,334641367e-02
       79775000    7,794217020e-02    7,490144670e-02
       79850000    7,967597246e-02    7,588908076e-02
       79925000    8,147943020e-02    7,724954933e-02
       80000000    8,361860365e-02    7,879606634e-02
       80075000    8,640969545e-02    8,017824590e-02
       80150000    8,840914816e-02    8,183855563e-02
       80225000    9,154006839e-02    8,301471919e-02
       80300000    9,396742284e-02    8,407808840e-02
       80375000    9,679803997e-02    8,622026443e-02
       80450000    9,967226535e-02    8,685560524e-02
       80525000    1,024011001e-01    8,753660321e-02
       80600000    1,051623672e-01    8,937448263e-02
       80675000    1,090755612e-01    9,011808038e-02
       80750000    1,109614745e-01    9,116552770e-02
       80825000    1,150775477e-01    9,208337218e-02
       80900000    1,183000952e-01    9,319690615e-02
       80975000    1,211921200e-01    9,460375458e-02
       81050000    1,250635237e-01    9,388184547e-02
       81125000    1,286424696e-01    9,422720224e-02
       81200000    1,314359158e-01    9,579522908e-02
       81275000    1,355942637e-01    9,556570649e-02
       81350000    1,393563896e-01    9,647051245e-02
       81425000    1,427263618e-01    9,659811854e-02
       81500000    1,473141909e-01    9,718535841e-02
       81575000    1,504405588e-01    9,655843675e-02
       81650000    1,540845484e-01    9,770372510e-02
       81725000    1,582311839e-01    9,737782925e-02
       81800000    1,616947204e-01    9,723711759e-02
       81875000    1,667701602e-01    9,756103903e-02
       81950000    1,697800159e-01    9,658552706e-02
       82025000    1,737807542e-01    9,684253484e-02
       82100000    1,779000759e-01    9,690634161e-02
       82175000    1,820073873e-01    9,534621984e-02
       82250000    1,860411912e-01    9,566759318e-02
       82325000    1,899362057e-01    9,474642575e-02
       82400000    1,949625164e-01    9,398631752e-02
       82475000    1,988871098e-01    9,329483658e-02
       82550000    2,030553073e-01    9,277552366e-02
       82625000    2,071041018e-01    9,160332382e-02
       82700000    2,114629447e-01    8,955127746e-02
       82775000    2,159924507e-01    8,946613222e-02
       82850000    2,202663720e-01    8,784117550e-02
       82925000    2,241830677e-01    8,636543155e-02
       83000000    2,282466590e-01    8,548144251e-02
       83075000    2,333478034e-01    8,327335864e-02
       83150000    2,377880067e-01    8,242411911e-02
       83225000    2,421754748e-01    8,061780035e-02
       83300000    2,464302480e-01    7,854957879e-02
       83375000    2,507696450e-01    7,687441260e-02
       83450000    2,555263340e-01    7,394791394e-02
       83525000    2,602910697e-01    7,254004478e-02
       83600000    2,639524937e-01    6,953393668e-02
       83675000    2,681408226e-01    6,698808819e-02
       83750000    2,730004191e-01    6,470885128e-02
       83825000    2,769601941e-01    6,195763499e-02
       83900000    2,807680666e-01    5,870082229e-02
       83975000    2,854623199e-01    5,607578158e-02
       84050000    2,889423966e-01    5,270454660e-02
       84125000    2,931510210e-01    5,009641498e-02
       84200000    2,971199155e-01    4,663921520e-02
       84275000    3,004262149e-01    4,386689514e-02
       84350000    3,042995930e-01    3,951724619e-02
       84425000    3,087590933e-01    3,694046289e-02
       84500000    3,119861186e-01    3,345681354e-02
       84575000    3,165762424e-01    2,986130677e-02
       84650000    3,201611340e-01    2,499400452e-02
       84725000    3,238148093e-01    2,154502459e-02
       84800000    3,266119361e-01    1,710307784e-02
       84875000    3,300108016e-01    1,315630227e-02
       84950000    3,336068988e-01    8,257995360e-03
       85025000    3,366008103e-01    4,733749200e-03
       85100000    3,403021097e-01   -3,050660307e-04
       85175000    3,417292237e-01   -4,646959715e-03
       85250000    3,452236950e-01   -8,809137158e-03
       85325000    3,485193253e-01   -1,372936554e-02
       85400000    3,504575491e-01   -1,869777404e-02
       85475000    3,528639376e-01   -2,355204150e-02
       85550000    3,558272123e-01   -2,818449214e-02
       85625000    3,575796485e-01   -3,445039690e-02
       85700000    3,597290516e-01   -3,795037791e-02
       85775000    3,618532717e-01   -4,264813289e-02
       85850000    3,630244136e-01   -4,879406467e-02
       85925000    3,656299710e-01   -5,340863392e-02
       86000000    3,667192757e-01   -5,929831043e-02
       86075000    3,683014214e-01   -6,377623975e-02
       86150000    3,696920872e-01   -6,816451997e-02
       86225000    3,697544336e-01   -7,297690213e-02
       86300000    3,717171848e-01   -7,865599543e-02
       86375000    3,714984357e-01   -8,404500037e-02
       86450000    3,720019162e-01   -8,953354508e-02
       86525000    3,731125593e-01   -9,453958273e-02
       86600000    3,736234605e-01   -9,956115484e-02
       86675000    3,742152154e-01   -1,036438495e-01
       86750000    3,735767603e-01   -1,094583496e-01
       86825000    3,746493757e-01   -1,133916825e-01
       86900000    3,734498024e-01   -1,183507591e-01
       86975000    3,738972843e-01   -1,229962185e-01
       87050000    3,731684089e-01   -1,282171160e-01
       87125000    3,732943237e-01   -1,324763000e-01
       87200000    3,716675043e-01   -1,372649521e-01
       87275000    3,724386990e-01   -1,411894411e-01
       87350000    3,718094528e-01   -1,453661472e-01
       87425000    3,706368506e-01   -1,501243114e-01
       87500000    3,682269156e-01   -1,550602913e-01
       87575000    3,686404526e-01   -1,578793228e-01
       87650000    3,673561215e-01   -1,626840532e-01
       87725000    3,680492938e-01   -1,663877070e-01
       87800000    3,659577370e-01   -1,695221514e-01
       87875000    3,653017282e-01   -1,733152419e-01
       87950000    3,641146123e-01   -1,782778651e-01
       88025000    3,629289865e-01   -1,806726307e-01
       88100000    3,626331985e-01   -1,855146736e-01
       88175000    3,597630858e-01   -1,881933212e-01
       88250000    3,594659865e-01   -1,917640567e-01
       88325000    3,580704331e-01   -1,956926137e-01
       88400000    3,574431837e-01   -2,002266943e-01
       88475000    3,565556109e-01   -2,022529989e-01
       88550000    3,546981215e-01   -2,067466527e-01
       88625000    3,524816632e-01   -2,097691596e-01
       88700000    3,508291245e-01   -2,139535546e-01
       88775000    3,497945964e-01   -2,172005028e-01
       88850000    3,452373147e-01   -2,207267284e-01
       88925000    3,449942172e-01   -2,237483263e-01
       89000000    3,418321609e-01   -2,260146290e-01
       89075000    3,400082290e-01   -2,291153818e-01
       89150000    3,368999362e-01   -2,316018641e-01
       89225000    3,346933722e-01   -2,347376943e-01
       89300000    3,327638507e-01   -2,372484952e-01
       89375000    3,294626474e-01   -2,406605184e-01
       89450000    3,268344998e-01   -2,410053164e-01
       89525000    3,235243261e-01   -2,427173555e-01
       89600000    3,208939135e-01   -2,441216260e-01
       89675000    3,183517158e-01   -2,450730056e-01
       89750000    3,140138984e-01   -2,458154857e-01
       89825000    3,128362894e-01   -2,465404719e-01
       89900000    3,090220392e-01   -2,469820231e-01
       89975000    3,077273667e-01   -2,466401309e-01
       90050000    3,045717180e-01   -2,470003963e-01
       90125000    3,027108014e-01   -2,471313477e-01
       90200000    3,009767830e-01   -2,449144572e-01
       90275000    2,993933856e-01   -2,449095696e-01
       90350000    2,974424064e-01   -2,445018440e-01
       90425000    2,977583706e-01   -2,427366376e-01
       90500000    2,953503430e-01   -2,413457036e-01
       90575000    2,963185310e-01   -2,401454449e-01
       90650000    2,958306670e-01   -2,382880598e-01
       90725000    2,965283692e-01   -2,368965745e-01
       90800000    2,961148620e-01   -2,363549471e-01
       90875000    2,974003255e-01   -2,344079465e-01
       90950000    2,980723679e-01   -2,338503003e-01
       91025000    3,003769517e-01   -2,322459072e-01
       91100000    3,011221886e-01   -2,299938798e-01
       91175000    3,042022288e-01   -2,295959741e-01
       91250000    3,053142130e-01   -2,294061184e-01
       91325000    3,082602024e-01   -2,286979407e-01
       91400000    3,107747436e-01   -2,285957485e-01
       91475000    3,137111068e-01   -2,286490649e-01
       91550000    3,169661760e-01   -2,288604826e-01
       91625000    3,204409480e-01   -2,292298824e-01
       91700000    3,228224814e-01   -2,307361811e-01
       91775000    3,265299797e-01   -2,317670733e-01
       91850000    3,297166526e-01   -2,330968976e-01
       91925000    3,329503238e-01   -2,349780053e-01
