! NanoVNA-App
! Date: 2025-08-02 15:57:16
! Start: 65MHz Stop: 95MHz Points: 401
! S-Parameter data: F S11
# Hz S RI R 50
!     Frequency           S11_Real           S11_Imag
       65000000   -2,015716285e-01    2,463460565e-01
       65075000   -1,944744736e-01    2,460991889e-01
       65150000   -1,860283911e-01    2,447084039e-01
       65225000   -1,784566343e-01    2,445788682e-01
       65300000   -1,710784584e-01    2,426267564e-01
       65375000   -1,644678712e-01    2,413470447e-01
       65450000   -1,581614465e-01    2,384872288e-01
       65525000   -1,498179883e-01    2,361934334e-01
       65600000   -1,422135532e-01    2,338113338e-01
       65675000   -1,369623691e-01    2,306770086e-01
       65750000   -1,295433491e-01    2,280828804e-01
       65825000   -1,215949655e-01    2,248294502e-01
       65900000   -1,166495010e-01    2,218090147e-01
       65975000   -1,100915223e-01    2,183976322e-01
       66050000   -1,050994918e-01    2,157603353e-01
       66125000   -9,951680899e-02    2,127853334e-01
       66200000   -9,414655715e-02    2,083446532e-01
       66275000   -8,871144801e-02    2,061550170e-01
       66350000   -8,418825269e-02    2,035417408e-01
       66425000   -7,874474674e-02    1,987502575e-01
       66500000   -7,448326051e-02    1,961942315e-01
       66575000   -6,909457594e-02    1,926887780e-01
       66650000   -6,525455415e-02    1,892765015e-01
       66725000   -6,127648801e-02    1,872774363e-01
       66800000   -5,676122755e-02    1,830061823e-01
       66875000   -5,235018209e-02    1,813652217e-01
       66950000   -4,846552387e-02    1,782702059e-01
       67025000   -4,322570562e-02    1,751303077e-01
       67100000   -3,899065033e-02    1,720538139e-01
       67175000   -3,315007314e-02    1,679587811e-01
       67250000   -2,872402966e-02    1,650558114e-01
       67325000   -2,467743494e-02    1,616546661e-01
       67400000   -1,928826608e-02    1,576050818e-01
       67475000   -1,544463728e-02    1,536744982e-01
       67550000   -1,159577537e-02    1,508087367e-01
       67625000   -6,496614311e-03    1,449976712e-01
       67700000   -2,960018581e-03    1,409386098e-01
       67775000    3,931911488e-04    1,369163841e-01
       67850000    3,475242062e-03    1,315192431e-01
       67925000    7,058271207e-03    1,273517013e-01
       68000000    9,844852611e-03    1,222693250e-01
       68075000    1,278233435e-02    1,178435236e-01
       68150000    1,623168960e-02    1,134147495e-01
       68225000    1,718490757e-02    1,089546084e-01
       68300000    2,113931440e-02    1,052066088e-01
       68375000    2,321830019e-02    9,957641363e-02
       68450000    2,367028408e-02    9,587990493e-02
       68525000    2,698644437e-02    9,052818269e-02
       68600000    2,866037935e-02    8,694840223e-02
       68675000    3,069198690e-02    8,141686767e-02
       68750000    3,182914108e-02    7,689099759e-02
       68825000    3,399312496e-02    7,304504514e-02
       68900000    3,370928392e-02    6,865763664e-02
       68975000    3,536021337e-02    6,386536360e-02
       69050000    3,554168344e-02    5,927674845e-02
       69125000    3,686311096e-02    5,502015725e-02
       69200000    3,647680953e-02    5,099933967e-02
       69275000    3,778664768e-02    4,728848860e-02
       69350000    3,674887866e-02    4,342380911e-02
       69425000    3,769601882e-02    4,010912776e-02
       69500000    3,614069894e-02    3,547333553e-02
       69575000    3,784538060e-02    3,245763853e-02
       69650000    3,582148999e-02    2,879551239e-02
       69725000    3,614687547e-02    2,642828599e-02
       69800000    3,546838462e-02    2,182745934e-02
       69875000    3,576610610e-02    2,077563480e-02
       69950000    3,557801247e-02    1,708948053e-02
       70025000    3,429182619e-02    1,370797772e-02
       70100000    3,293129429e-02    1,306680031e-02
       70175000    3,440663591e-02    1,036114711e-02
       70250000    3,271276131e-02    7,100951392e-03
       70325000    3,336947039e-02    6,630823482e-03
       70400000    3,310585022e-02    3,425533185e-03
       70475000    3,208506852e-02    1,634136075e-03
       70550000    3,274786845e-02    2,450854518e-04
       70625000    3,113564290e-02   -2,068399917e-03
       70700000    3,126653656e-02   -4,032609984e-03
       70775000    3,213750198e-02   -6,459061056e-03
       70850000    3,182473034e-02   -6,876502652e-03
       70925000    3,169926256e-02   -9,616833180e-03
       71000000    3,161568940e-02   -1,127472427e-02
       71075000    3,185798228e-02   -1,283497363e-02
       71150000    3,193248808e-02   -1,496093534e-02
       71225000    3,230130300e-02   -1,757259481e-02
       71300000    3,134896234e-02   -1,804645360e-02
       71375000    3,203243762e-02   -2,113059536e-02
       71450000    3,088187799e-02   -2,319637127e-02
       71525000    3,085889481e-02   -2,454743348e-02
       71600000    3,007983789e-02   -2,551098913e-02
       71675000    3,107619286e-02   -2,711007744e-02
       71750000    3,051775321e-02   -2,956845053e-02
       71825000    3,096338362e-02   -3,078587539e-02
       71900000    3,006034344e-02   -3,378427401e-02
       71975000    3,004595451e-02   -3,480773047e-02
       72050000    2,938178927e-02   -3,610423207e-02
       72125000    3,081098758e-02   -3,878221288e-02
       72200000    2,930577286e-02   -4,012901336e-02
       72275000    2,920742705e-02   -4,189424589e-02
       72350000    2,782497555e-02   -4,364637285e-02
       72425000    2,836691588e-02   -4,570714384e-02
       72500000    2,541748807e-02   -4,580340534e-02
       72575000    2,654781379e-02   -4,893769696e-02
       72650000    2,527055144e-02   -5,144122615e-02
       72725000    2,317647263e-02   -5,101385340e-02
       72800000    2,320803888e-02   -5,338215828e-02
       72875000    2,134161629e-02   -5,467994139e-02
       72950000    2,178274468e-02   -5,478299037e-02
       73025000    2,055227198e-02   -5,687114969e-02
       73100000    1,859189942e-02   -5,848487839e-02
       73175000    1,690288261e-02   -5,711795017e-02
       73250000    1,684450731e-02   -5,798250437e-02
       73325000    1,632604003e-02   -6,021782011e-02
       73400000    1,429482177e-02   -6,053533033e-02
       73475000    1,405175589e-02   -5,972009897e-02
       73550000    1,271774527e-02   -6,311189383e-02
       73625000    1,248367783e-02   -6,116321683e-02
       73700000    1,138345245e-02   -6,228357181e-02
       73775000    9,744927287e-03   -6,272435933e-02
       73850000    9,553644806e-03   -6,348448992e-02
       73925000    7,327914704e-03   -6,187168881e-02
       74000000    7,280612364e-03   -6,427054107e-02
       74075000    5,172077566e-03   -6,487667561e-02
       74150000    5,600278266e-03   -6,165067479e-02
       74225000    4,252669401e-03   -6,371166557e-02
       74300000    4,773325287e-03   -6,418672204e-02
       74375000    4,168401938e-03   -6,205400079e-02
       74450000    2,672702540e-03   -6,311253458e-02
       74525000    1,224030508e-03   -6,400761753e-02
       74600000    2,858585678e-03   -6,137390062e-02
       74675000    4,979876685e-04   -6,353519857e-02
       74750000    4,480811549e-05   -6,197386980e-02
       74825000    1,269320841e-03   -6,232477725e-02
       74900000   -1,351067331e-03   -6,115750223e-02
       74975000   -5,965293967e-04   -6,143237278e-02
       75050000   -1,617761794e-03   -6,178847700e-02
       75125000   -1,396850683e-03   -6,054879725e-02
       75200000   -3,758266568e-03   -6,066030264e-02
       75275000   -1,072822837e-03   -6,036821008e-02
       75350000   -4,293445963e-03   -6,013834476e-02
       75425000   -3,250623588e-03   -5,807667971e-02
       75500000   -2,734101843e-03   -5,987615138e-02
       75575000   -4,392404109e-03   -5,792045221e-02
       75650000   -4,399199039e-03   -5,843425170e-02
       75725000   -4,883039743e-03   -5,770377815e-02
       75800000   -4,603343550e-03   -5,761859939e-02
       75875000   -5,867572036e-03   -5,522182956e-02
       75950000   -5,293618422e-03   -5,680593848e-02
       76025000   -5,979721900e-03   -5,655051768e-02
       76100000   -6,009441800e-03   -5,332838371e-02
       76175000   -6,249075290e-03   -5,497941002e-02
       76250000   -6,234423257e-03   -5,311843380e-02
       76325000   -6,531519815e-03   -5,240458995e-02
       76400000   -7,451929618e-03   -5,068283156e-02
       76475000   -6,482719444e-03   -5,103992671e-02
       76550000   -7,458714303e-03   -4,957186431e-02
       76625000   -9,212988429e-03   -4,824459553e-02
       76700000   -7,242050953e-03   -4,972722009e-02
       76775000   -8,213929832e-03   -4,744863510e-02
       76850000   -9,306145832e-03   -4,439087585e-02
       76925000   -7,855422795e-03   -4,486974329e-02
       77000000   -8,935797960e-03   -4,314051196e-02
       77075000   -9,794484824e-03   -4,076262563e-02
       77150000   -9,477498010e-03   -3,967494145e-02
       77225000   -7,942745462e-03   -3,693768382e-02
       77300000   -8,323438466e-03   -3,682797030e-02
       77375000   -8,759683929e-03   -3,419727087e-02
       77450000   -6,760894321e-03   -3,252762184e-02
       77525000   -6,240547635e-03   -3,107895516e-02
       77600000   -7,646657526e-03   -2,910108864e-02
       77675000   -4,773128778e-03   -2,702124231e-02
       77750000   -5,275112111e-03   -2,594533935e-02
       77825000   -4,125290550e-03   -2,331294678e-02
       77900000   -1,804288593e-03   -2,169579454e-02
       77975000   -1,948373741e-03   -2,047025599e-02
       78050000   -1,440822147e-03   -1,710100286e-02
       78125000    1,777844387e-03   -1,638324559e-02
       78200000    1,537170843e-03   -1,504491176e-02
       78275000    2,881349763e-03   -1,254258398e-02
       78350000    5,953110754e-03   -9,400893003e-03
       78425000    7,852530107e-03   -7,959233597e-03
       78500000    7,968568243e-03   -6,642046850e-03
       78575000    1,125621144e-02   -4,145815037e-03
       78650000    1,330557745e-02   -3,452053992e-03
       78725000    1,458592899e-02   -1,536002732e-03
       78800000    1,824917458e-02    1,373643172e-03
       78875000    1,984216459e-02    1,792123308e-03
       78950000    2,282036468e-02    4,464910831e-03
       79025000    2,540704235e-02    3,896679031e-03
       79100000    2,735863440e-02    7,384166587e-03
       79175000    3,131233156e-02    7,338216994e-03
       79250000    3,265706450e-02    8,452895097e-03
       79325000    3,739179298e-02    1,024108380e-02
       79400000    3,936952725e-02    1,060922164e-02
       79475000    4,198345169e-02    1,213866193e-02
       79550000    4,644633457e-02    1,210874971e-02
       79625000    4,823746160e-02    1,244137716e-02
       79700000    5,137339607e-02    1,402580645e-02
       79775000    5,497386307e-02    1,333630830e-02
       79850000    5,688502640e-02    1,382937655e-02
       79925000    6,057192385e-02    1,535301842e-02
       80000000    6,453013420e-02    1,335108653e-02
       80075000    6,680920720e-02    1,440513413e-02
       80150000    7,084487379e-02    1,555528492e-02
       80225000    7,481273264e-02    1,427246444e-02
       80300000    7,659613341e-02    1,498109940e-02
       80375000    8,108721673e-02    1,428640634e-02
       80450000    8,283989877e-02    1,331722923e-02
       80525000    8,737712353e-02    1,385847572e-02
       80600000    8,995807916e-02    1,242691744e-02
       80675000    9,423539042e-02    1,255640015e-02
       80750000    9,638772160e-02    1,072613616e-02
       80825000    9,953017533e-02    1,081515849e-02
       80900000    1,040143743e-01    9,378554299e-03
       80975000    1,062106192e-01    7,057969458e-03
       81050000    1,087039113e-01    6,571012549e-03
       81125000    1,123064086e-01    5,007996690e-03
       81200000    1,139798537e-01    4,198941868e-03
       81275000    1,185133830e-01    2,182070399e-03
       81350000    1,195275784e-01    1,086945063e-03
       81425000    1,228180528e-01   -5,646764766e-04
       81500000    1,249796078e-01   -3,302561585e-03
       81575000    1,280811578e-01   -3,802025924e-03
       81650000    1,303561330e-01   -5,808817223e-03
       81725000    1,327212155e-01   -8,715639822e-03
       81800000    1,338237375e-01   -9,751532227e-03
       81875000    1,356920153e-01   -1,178189088e-02
       81950000    1,357640922e-01   -1,477908529e-02
       82025000    1,400424838e-01   -1,504874323e-02
       82100000    1,394089460e-01   -1,809436642e-02
       82175000    1,428002119e-01   -1,741844602e-02
       82250000    1,431295723e-01   -2,150030620e-02
       82325000    1,442393512e-01   -2,088601701e-02
       82400000    1,456154883e-01   -2,422972582e-02
       82475000    1,470298618e-01   -2,440467663e-02
       82550000    1,494692564e-01   -2,664582431e-02
       82625000    1,487188041e-01   -2,672033198e-02
       82700000    1,511838287e-01   -2,792892978e-02
       82775000    1,504928172e-01   -2,921133861e-02
       82850000    1,528031975e-01   -3,038441576e-02
       82925000    1,535105109e-01   -3,098924831e-02
       83000000    1,555990726e-01   -3,190490231e-02
       83075000    1,556873769e-01   -3,252018988e-02
       83150000    1,588774174e-01   -3,300039098e-02
       83225000    1,579826921e-01   -3,318296000e-02
       83300000    1,609836370e-01   -3,462742269e-02
       83375000    1,608409286e-01   -3,495071456e-02
       83450000    1,632424891e-01   -3,545189276e-02
       83525000    1,647127122e-01   -3,757612035e-02
       83600000    1,665115058e-01   -3,685077280e-02
       83675000    1,683717966e-01   -3,710453957e-02
       83750000    1,681738794e-01   -3,728230670e-02
       83825000    1,716378331e-01   -3,782842308e-02
       83900000    1,720008999e-01   -3,943022341e-02
       83975000    1,745091081e-01   -3,851334006e-02
       84050000    1,772203743e-01   -4,068411142e-02
       84125000    1,780602485e-01   -3,949012980e-02
       84200000    1,810321510e-01   -4,003704339e-02
       84275000    1,823681742e-01   -4,251256213e-02
       84350000    1,844777465e-01   -4,065226391e-02
       84425000    1,867513210e-01   -4,375344887e-02
       84500000    1,888599098e-01   -4,236696288e-02
       84575000    1,919042170e-01   -4,295131192e-02
       84650000    1,932346970e-01   -4,509706795e-02
       84725000    1,954354793e-01   -4,460174963e-02
       84800000    1,977634579e-01   -4,692279920e-02
       84875000    2,001587451e-01   -4,567026719e-02
       84950000    2,031154633e-01   -4,664441198e-02
       85025000    2,056408823e-01   -4,784718528e-02
       85100000    2,065331936e-01   -4,830516875e-02
       85175000    2,110225558e-01   -4,835857823e-02
       85250000    2,124220431e-01   -5,048781633e-02
       85325000    2,151846290e-01   -4,953951761e-02
       85400000    2,198156267e-01   -5,222629756e-02
       85475000    2,202676386e-01   -5,153119192e-02
       85550000    2,246967703e-01   -5,298570544e-02
       85625000    2,283607870e-01   -5,470732227e-02
       85700000    2,300426662e-01   -5,675471574e-02
       85775000    2,341589481e-01   -5,619692057e-02
       85850000    2,376897782e-01   -5,809300393e-02
       85925000    2,408694923e-01   -5,913073197e-02
       86000000    2,425690740e-01   -6,105884910e-02
       86075000    2,474246919e-01   -6,244567782e-02
       86150000    2,504206598e-01   -6,579500437e-02
       86225000    2,535172105e-01   -6,763924658e-02
       86300000    2,564414442e-01   -6,812720001e-02
       86375000    2,596557736e-01   -7,000871003e-02
       86450000    2,649401128e-01   -7,363985479e-02
       86525000    2,663667202e-01   -7,640396804e-02
       86600000    2,700156569e-01   -7,684320211e-02
       86675000    2,745586336e-01   -8,078067750e-02
       86750000    2,756613195e-01   -8,255332708e-02
       86825000    2,798491120e-01   -8,555129915e-02
       86900000    2,835591435e-01   -8,849205822e-02
       86975000    2,867932916e-01   -9,218997508e-02
       87050000    2,900218666e-01   -9,587892890e-02
       87125000    2,912545204e-01   -9,814134985e-02
       87200000    2,958013415e-01   -1,007840931e-01
       87275000    2,968481183e-01   -1,055929288e-01
       87350000    2,993256450e-01   -1,077534854e-01
       87425000    3,037937582e-01   -1,118289083e-01
       87500000    3,036827147e-01   -1,134301797e-01
       87575000    3,089028001e-01   -1,174720153e-01
       87650000    3,090348244e-01   -1,207327768e-01
       87725000    3,126111627e-01   -1,246553808e-01
       87800000    3,137622476e-01   -1,299130768e-01
       87875000    3,169730306e-01   -1,311455369e-01
       87950000    3,193688393e-01   -1,353692412e-01
       88025000    3,228323162e-01   -1,399987489e-01
       88100000    3,229599893e-01   -1,426389962e-01
       88175000    3,259057105e-01   -1,460508406e-01
       88250000    3,262459040e-01   -1,517797709e-01
       88325000    3,288156390e-01   -1,529762894e-01
       88400000    3,318403661e-01   -1,574092060e-01
       88475000    3,320371509e-01   -1,603805125e-01
       88550000    3,366423845e-01   -1,642352343e-01
       88625000    3,382537663e-01   -1,699765325e-01
       88700000    3,377494216e-01   -1,734278202e-01
       88775000    3,415090442e-01   -1,750485748e-01
       88850000    3,435641825e-01   -1,794860661e-01
       88925000    3,454160988e-01   -1,858668327e-01
       89000000    3,466549814e-01   -1,870772243e-01
       89075000    3,500401974e-01   -1,927033365e-01
       89150000    3,497338295e-01   -1,951060593e-01
       89225000    3,530434370e-01   -2,002295405e-01
       89300000    3,527320921e-01   -2,033320218e-01
       89375000    3,573281169e-01   -2,079248577e-01
       89450000    3,556010723e-01   -2,123932540e-01
       89525000    3,587753475e-01   -2,173172534e-01
       89600000    3,603872657e-01   -2,239283770e-01
       89675000    3,597362936e-01   -2,282388359e-01
       89750000    3,638776243e-01   -2,295450121e-01
       89825000    3,660642505e-01   -2,340762168e-01
       89900000    3,642338216e-01   -2,398101538e-01
       89975000    3,689385653e-01   -2,437447906e-01
       90050000    3,659891188e-01   -2,499715835e-01
       90125000    3,698627353e-01   -2,544174790e-01
       90200000    3,711382747e-01   -2,623959780e-01
       90275000    3,702099919e-01   -2,644205689e-01
       90350000    3,743368983e-01   -2,719486654e-01
       90425000    3,747479320e-01   -2,771646082e-01
       90500000    3,742903173e-01   -2,803570032e-01
       90575000    3,776951432e-01   -2,851703465e-01
       90650000    3,739946187e-01   -2,929328382e-01
       90725000    3,766215444e-01   -2,947183847e-01
       90800000    3,784237802e-01   -3,022820950e-01
       90875000    3,757974803e-01   -3,062596917e-01
       90950000    3,780192137e-01   -3,120346069e-01
       91025000    3,750022054e-01   -3,172513843e-01
       91100000    3,779975772e-01   -3,233668208e-01
       91175000    3,723806739e-01   -3,321037292e-01
       91250000    3,761277795e-01   -3,345782161e-01
       91325000    3,739016354e-01   -3,428787291e-01
       91400000    3,761995137e-01   -3,469103873e-01
       91475000    3,756128550e-01   -3,553462029e-01
       91550000    3,738383949e-01   -3,570562005e-01
       91625000    3,739865720e-01   -3,651904762e-01
       91700000    3,713462651e-01   -3,683729172e-01
       91775000    3,711923361e-01   -3,743398488e-01
       91850000    3,668913841e-01   -3,783963323e-01
       91925000    3,674026430e-01   -3,853442371e-01
