! NanoVNA-App
! Date: 2025-08-09 13:47:40
! Start: 65MHz Stop: 95MHz Points: 401
! S-Parameter data: F S11
# Hz S RI R 50
!     Frequency           S11_Real           S11_Imag
       65000000   -5,868474841e-01    2,856146991e-01
       65075000   -5,901687741e-01    2,841419280e-01
       65150000   -5,868901014e-01    2,884340286e-01
       65225000   -5,829447508e-01    2,904638052e-01
       65300000   -5,766530037e-01    2,931697965e-01
       65375000   -5,709102154e-01    2,963360846e-01
       65450000   -5,661615133e-01    2,999143898e-01
       65525000   -5,623530746e-01    3,020062745e-01
       65600000   -5,575116873e-01    3,053168058e-01
       65675000   -5,541113019e-01    3,072397709e-01
       65750000   -5,488274693e-01    3,109481633e-01
       65825000   -5,438495874e-01    3,120343685e-01
       65900000   -5,387241244e-01    3,146529198e-01
       65975000   -5,335667729e-01    3,168628812e-01
       66050000   -5,292934775e-01    3,194828928e-01
       66125000   -5,246477723e-01    3,239300251e-01
       66200000   -5,208115578e-01    3,247466385e-01
       66275000   -5,134968758e-01    3,288264573e-01
       66350000   -5,114471316e-01    3,300395012e-01
       66425000   -5,056561232e-01    3,313610554e-01
       66500000   -4,996205568e-01    3,338329792e-01
       66575000   -4,958709776e-01    3,358187079e-01
       66650000   -4,892205000e-01    3,384151459e-01
       66725000   -4,867460132e-01    3,419300318e-01
       66800000   -4,815550745e-01    3,441899121e-01
       66875000   -4,779360890e-01    3,458712101e-01
       66950000   -4,724029601e-01    3,479615152e-01
       67025000   -4,689732492e-01    3,502165973e-01
       67100000   -4,633586705e-01    3,521457016e-01
       67175000   -4,580066800e-01    3,536869884e-01
       67250000   -4,516471028e-01    3,562181592e-01
       67325000   -4,463170171e-01    3,576211333e-01
       67400000   -4,423415959e-01    3,597484231e-01
       67475000   -4,374244213e-01    3,628619611e-01
       67550000   -4,324869812e-01    3,623152375e-01
       67625000   -4,278476536e-01    3,641327322e-01
       67700000   -4,219742715e-01    3,670524061e-01
       67775000   -4,193882942e-01    3,674156070e-01
       67850000   -4,121855199e-01    3,688462675e-01
       67925000   -4,080858529e-01    3,706214428e-01
       68000000   -4,023887515e-01    3,718939126e-01
       68075000   -3,967823386e-01    3,751015663e-01
       68150000   -3,920876980e-01    3,774132431e-01
       68225000   -3,881283104e-01    3,772882819e-01
       68300000   -3,828480840e-01    3,780884147e-01
       68375000   -3,774170280e-01    3,793634176e-01
       68450000   -3,699662983e-01    3,794868588e-01
       68525000   -3,652076125e-01    3,808001578e-01
       68600000   -3,604121804e-01    3,817555904e-01
       68675000   -3,544153273e-01    3,838745356e-01
       68750000   -3,492984772e-01    3,841004968e-01
       68825000   -3,456875980e-01    3,839033842e-01
       68900000   -3,402403295e-01    3,847959340e-01
       68975000   -3,365862668e-01    3,848514855e-01
       69050000   -3,313005269e-01    3,841954470e-01
       69125000   -3,261281550e-01    3,842644393e-01
       69200000   -3,198486865e-01    3,844184577e-01
       69275000   -3,149185181e-01    3,833253980e-01
       69350000   -3,099199831e-01    3,832361102e-01
       69425000   -3,057233691e-01    3,826088309e-01
       69500000   -3,008397222e-01    3,820959628e-01
       69575000   -2,955722511e-01    3,804517388e-01
       69650000   -2,907316983e-01    3,803504705e-01
       69725000   -2,846272588e-01    3,800634146e-01
       69800000   -2,806356847e-01    3,791856766e-01
       69875000   -2,765408456e-01    3,787038624e-01
       69950000   -2,741928995e-01    3,796826005e-01
       70025000   -2,686238289e-01    3,767711520e-01
       70100000   -2,660202086e-01    3,769771755e-01
       70175000   -2,610249221e-01    3,749263883e-01
       70250000   -2,558358312e-01    3,739244044e-01
       70325000   -2,523082197e-01    3,737273812e-01
       70400000   -2,494707704e-01    3,731672764e-01
       70475000   -2,477046400e-01    3,722817004e-01
       70550000   -2,425490469e-01    3,692722619e-01
       70625000   -2,395819277e-01    3,694649041e-01
       70700000   -2,372451574e-01    3,695739806e-01
       70775000   -2,345653921e-01    3,686986566e-01
       70850000   -2,319788784e-01    3,680281639e-01
       70925000   -2,269915491e-01    3,654063344e-01
       71000000   -2,252629846e-01    3,653437793e-01
       71075000   -2,233185172e-01    3,660381436e-01
       71150000   -2,192491889e-01    3,638340533e-01
       71225000   -2,173347473e-01    3,625301123e-01
       71300000   -2,139313519e-01    3,619278669e-01
       71375000   -2,127318680e-01    3,617991209e-01
       71450000   -2,082415819e-01    3,630367517e-01
       71525000   -2,057003975e-01    3,623863459e-01
       71600000   -2,037593573e-01    3,608750701e-01
       71675000   -2,004082799e-01    3,616149426e-01
       71750000   -1,973369271e-01    3,615467250e-01
       71825000   -1,950170547e-01    3,612141609e-01
       71900000   -1,917447895e-01    3,606672585e-01
       71975000   -1,889888197e-01    3,603665531e-01
       72050000   -1,878510118e-01    3,581032157e-01
       72125000   -1,839424968e-01    3,579556942e-01
       72200000   -1,808291972e-01    3,581520319e-01
       72275000   -1,783452928e-01    3,585083783e-01
       72350000   -1,768785715e-01    3,583720922e-01
       72425000   -1,730876118e-01    3,582003117e-01
       72500000   -1,671431214e-01    3,576561511e-01
       72575000   -1,686109155e-01    3,582046032e-01
       72650000   -1,683071703e-01    3,560946584e-01
       72725000   -1,631704867e-01    3,575707376e-01
       72800000   -1,609570086e-01    3,576250672e-01
       72875000   -1,582193226e-01    3,572498560e-01
       72950000   -1,567835510e-01    3,567133248e-01
       73025000   -1,553492844e-01    3,575167656e-01
       73100000   -1,518131942e-01    3,548913002e-01
       73175000   -1,504786015e-01    3,567662835e-01
       73250000   -1,479255110e-01    3,543048501e-01
       73325000   -1,460382342e-01    3,551681936e-01
       73400000   -1,436802298e-01    3,551751673e-01
       73475000   -1,405056715e-01    3,549594879e-01
       73550000   -1,364939511e-01    3,541972935e-01
       73625000   -1,340816021e-01    3,542695940e-01
       73700000   -1,312777102e-01    3,555833101e-01
       73775000   -1,286009401e-01    3,553948700e-01
       73850000   -1,265408844e-01    3,559973836e-01
       73925000   -1,257266551e-01    3,536081016e-01
       74000000   -1,234911233e-01    3,539360464e-01
       74075000   -1,189514175e-01    3,539568782e-01
       74150000   -1,181345433e-01    3,554734588e-01
       74225000   -1,147308275e-01    3,553314507e-01
       74300000   -1,110943332e-01    3,551733792e-01
       74375000   -1,099906787e-01    3,547631204e-01
       74450000   -1,054936051e-01    3,530893624e-01
       74525000   -1,028176621e-01    3,534146845e-01
       74600000   -1,006441563e-01    3,531893194e-01
       74675000   -9,897203743e-02    3,538975120e-01
       74750000   -9,607485682e-02    3,536127508e-01
       74825000   -9,543204308e-02    3,521523774e-01
       74900000   -9,213327616e-02    3,514060080e-01
       74975000   -8,801029623e-02    3,514314294e-01
       75050000   -8,640389889e-02    3,528352678e-01
       75125000   -8,297397941e-02    3,515558541e-01
       75200000   -8,078090101e-02    3,508221805e-01
       75275000   -7,775270194e-02    3,510410786e-01
       75350000   -7,696253061e-02    3,511902094e-01
       75425000   -7,646934688e-02    3,496555388e-01
       75500000   -7,376544178e-02    3,498005867e-01
       75575000   -7,041978091e-02    3,480190337e-01
       75650000   -6,798402220e-02    3,476642370e-01
       75725000   -6,670981646e-02    3,477030098e-01
       75800000   -6,407854706e-02    3,473296762e-01
       75875000   -6,133323535e-02    3,464445174e-01
       75950000   -5,814406276e-02    3,458859622e-01
       76025000   -5,751539394e-02    3,467556536e-01
       76100000   -5,633763224e-02    3,473106921e-01
       76175000   -5,326886103e-02    3,459885120e-01
       76250000   -5,004207417e-02    3,441687226e-01
       76325000   -4,715978727e-02    3,440527320e-01
       76400000   -4,473833367e-02    3,442720771e-01
       76475000   -4,570528865e-02    3,461628854e-01
       76550000   -4,096422344e-02    3,439850509e-01
       76625000   -3,874197230e-02    3,446593285e-01
       76700000   -3,691984713e-02    3,440868258e-01
       76775000   -3,565938771e-02    3,422012627e-01
       76850000   -3,369876742e-02    3,438635767e-01
       76925000   -3,322583064e-02    3,417786360e-01
       77000000   -3,078576922e-02    3,409721553e-01
       77075000   -2,850432508e-02    3,415218592e-01
       77150000   -2,729994431e-02    3,427319527e-01
       77225000   -2,347195707e-02    3,406577408e-01
       77300000   -2,266451716e-02    3,413018882e-01
       77375000   -2,121698670e-02    3,418204486e-01
       77450000   -2,226782776e-02    3,418757617e-01
       77525000   -1,963984780e-02    3,409102261e-01
       77600000   -1,765714772e-02    3,403758109e-01
       77675000   -1,698942669e-02    3,399033844e-01
       77750000   -1,448444650e-02    3,381160796e-01
       77825000   -1,347136311e-02    3,402126729e-01
       77900000   -1,212775707e-02    3,383642137e-01
       77975000   -1,102089882e-02    3,395186067e-01
       78050000   -1,087771170e-02    3,405489624e-01
       78125000   -9,174672887e-03    3,388669491e-01
       78200000   -7,965572178e-03    3,416085541e-01
       78275000   -7,723486517e-03    3,417391181e-01
       78350000   -5,030292086e-03    3,444903791e-01
       78425000   -4,686463624e-03    3,469650447e-01
       78500000   -2,804020187e-03    3,479749560e-01
       78575000   -1,949123980e-04    3,511054218e-01
       78650000    2,517073182e-03    3,519542515e-01
       78725000    6,113717332e-03    3,512145281e-01
       78800000    7,271670271e-03    3,538846672e-01
       78875000    8,771689609e-03    3,551659882e-01
       78950000    1,153316069e-02    3,549259901e-01
       79025000    1,340550929e-02    3,544632196e-01
       79100000    1,613789424e-02    3,559016287e-01
       79175000    2,008772269e-02    3,575743139e-01
       79250000    2,225906588e-02    3,584172130e-01
       79325000    2,307249047e-02    3,604938686e-01
       79400000    2,580033615e-02    3,612725139e-01
       79475000    2,848785371e-02    3,602731824e-01
       79550000    3,317156434e-02    3,626232445e-01
       79625000    3,600164875e-02    3,630113900e-01
       79700000    3,530200198e-02    3,647093475e-01
       79775000    3,926533461e-02    3,641907871e-01
       79850000    4,322313890e-02    3,666099310e-01
       79925000    4,399096593e-02    3,665885031e-01
       80000000    4,908076301e-02    3,676732779e-01
       80075000    5,139303580e-02    3,709933758e-01
       80150000    5,251477286e-02    3,718082011e-01
       80225000    5,830927566e-02    3,723478317e-01
       80300000    6,094033271e-02    3,734239936e-01
       80375000    6,382079422e-02    3,764860928e-01
       80450000    6,514341384e-02    3,759982884e-01
       80525000    6,892098486e-02    3,777795732e-01
       80600000    7,216943800e-02    3,778880239e-01
       80675000    7,680387795e-02    3,782323897e-01
       80750000    8,401880413e-02    3,797866404e-01
       80825000    8,400572836e-02    3,820480704e-01
       80900000    8,718983829e-02    3,832538426e-01
       80975000    9,287007153e-02    3,843429089e-01
       81050000    9,523429722e-02    3,851937652e-01
       81125000    9,919994324e-02    3,860257268e-01
       81200000    1,041078791e-01    3,863525987e-01
       81275000    1,065561175e-01    3,872006238e-01
       81350000    1,113938391e-01    3,879951239e-01
       81425000    1,175509542e-01    3,878059387e-01
       81500000    1,221104637e-01    3,882274926e-01
       81575000    1,270407140e-01    3,888292015e-01
       81650000    1,290580630e-01    3,885592222e-01
       81725000    1,334750950e-01    3,909589648e-01
       81800000    1,374805570e-01    3,913642168e-01
       81875000    1,421689242e-01    3,902984262e-01
       81950000    1,484437734e-01    3,898580074e-01
       82025000    1,533117294e-01    3,894380927e-01
       82100000    1,581927538e-01    3,906709552e-01
       82175000    1,623857021e-01    3,908003867e-01
       82250000    1,671398431e-01    3,910823464e-01
       82325000    1,707874984e-01    3,915355802e-01
       82400000    1,748875380e-01    3,917183280e-01
       82475000    1,793587357e-01    3,889531195e-01
       82550000    1,857235581e-01    3,883260190e-01
       82625000    1,907510012e-01    3,879023790e-01
       82700000    1,955325752e-01    3,875561953e-01
       82775000    2,005941421e-01    3,873926103e-01
       82850000    2,061390877e-01    3,858839273e-01
       82925000    2,109995931e-01    3,862649798e-01
       83000000    2,163278162e-01    3,853606284e-01
       83075000    2,214860171e-01    3,841222525e-01
       83150000    2,261908054e-01    3,846182823e-01
       83225000    2,320804894e-01    3,826712072e-01
       83300000    2,371279299e-01    3,814096153e-01
       83375000    2,418419421e-01    3,807471693e-01
       83450000    2,456574589e-01    3,771286905e-01
       83525000    2,506518364e-01    3,761142492e-01
       83600000    2,564063668e-01    3,743337095e-01
       83675000    2,620510459e-01    3,742195070e-01
       83750000    2,673312128e-01    3,729052842e-01
       83825000    2,709805667e-01    3,697940707e-01
       83900000    2,767975926e-01    3,666910827e-01
       83975000    2,840288579e-01    3,647763133e-01
       84050000    2,888930738e-01    3,631196320e-01
       84125000    2,930729985e-01    3,615616560e-01
       84200000    2,963925898e-01    3,583563268e-01
       84275000    3,034163415e-01    3,548056781e-01
       84350000    3,084029853e-01    3,531619310e-01
       84425000    3,138601780e-01    3,507281542e-01
       84500000    3,185852468e-01    3,479945660e-01
       84575000    3,214501143e-01    3,452914655e-01
       84650000    3,273994625e-01    3,405146897e-01
       84725000    3,336369693e-01    3,395981491e-01
       84800000    3,380279243e-01    3,357520103e-01
       84875000    3,430148363e-01    3,318686187e-01
       84950000    3,462126553e-01    3,273417950e-01
       85025000    3,517374694e-01    3,253873587e-01
       85100000    3,555076122e-01    3,205859363e-01
       85175000    3,609728813e-01    3,171029985e-01
       85250000    3,651823699e-01    3,134688735e-01
       85325000    3,686639071e-01    3,094916046e-01
       85400000    3,727910519e-01    3,048273027e-01
       85475000    3,767058849e-01    3,011592031e-01
       85550000    3,803734481e-01    2,971707880e-01
       85625000    3,860741556e-01    2,919453084e-01
       85700000    3,891772926e-01    2,875317931e-01
       85775000    3,919366300e-01    2,827698886e-01
       85850000    3,968853652e-01    2,784413695e-01
       85925000    3,997905850e-01    2,732812762e-01
       86000000    4,026719332e-01    2,674444914e-01
       86075000    4,062491655e-01    2,643664479e-01
       86150000    4,087218642e-01    2,593780756e-01
       86225000    4,116095603e-01    2,543821633e-01
       86300000    4,146560133e-01    2,496230602e-01
       86375000    4,168018997e-01    2,436179370e-01
       86450000    4,192045331e-01    2,389280349e-01
       86525000    4,211125970e-01    2,350094169e-01
       86600000    4,237853289e-01    2,284879684e-01
       86675000    4,264138639e-01    2,249884605e-01
       86750000    4,283578694e-01    2,200972289e-01
       86825000    4,299671948e-01    2,143160403e-01
       86900000    4,314526916e-01    2,101481110e-01
       86975000    4,324009717e-01    2,044106722e-01
       87050000    4,343439639e-01    2,000238597e-01
       87125000    4,352058768e-01    1,965365559e-01
       87200000    4,367606342e-01    1,916700304e-01
       87275000    4,374329746e-01    1,866554469e-01
       87350000    4,388895631e-01    1,813102365e-01
       87425000    4,397730231e-01    1,783845276e-01
       87500000    4,408220053e-01    1,746405214e-01
       87575000    4,416173995e-01    1,692535579e-01
       87650000    4,415940940e-01    1,655271947e-01
       87725000    4,432996511e-01    1,601486951e-01
       87800000    4,437619746e-01    1,555700451e-01
       87875000    4,439586103e-01    1,521880776e-01
       87950000    4,452473819e-01    1,482255161e-01
       88025000    4,454083443e-01    1,447558999e-01
       88100000    4,453085065e-01    1,391256899e-01
       88175000    4,470548034e-01    1,360998303e-01
       88250000    4,475064278e-01    1,322889775e-01
       88325000    4,472459257e-01    1,280330569e-01
       88400000    4,479265809e-01    1,238886118e-01
       88475000    4,482942522e-01    1,195614338e-01
       88550000    4,479952157e-01    1,164708808e-01
       88625000    4,487017095e-01    1,130337492e-01
       88700000    4,486164749e-01    1,083454266e-01
       88775000    4,477032125e-01    1,037742719e-01
       88850000    4,475288987e-01    1,007242799e-01
       88925000    4,473328590e-01    9,626457095e-02
       89000000    4,457010925e-01    9,175472707e-02
       89075000    4,458205998e-01    8,891899884e-02
       89150000    4,446162879e-01    8,404844254e-02
       89225000    4,427667558e-01    8,187522739e-02
       89300000    4,421009123e-01    7,795020193e-02
       89375000    4,401192963e-01    7,558593154e-02
       89450000    4,384856224e-01    7,181197405e-02
       89525000    4,365283549e-01    6,881363690e-02
       89600000    4,352957010e-01    6,688824296e-02
       89675000    4,333803058e-01    6,508776546e-02
       89750000    4,303741753e-01    6,246449798e-02
       89825000    4,285067320e-01    6,160145625e-02
       89900000    4,273412228e-01    6,026294455e-02
       89975000    4,243997037e-01    5,975695327e-02
       90050000    4,231412411e-01    5,831195042e-02
       90125000    4,217453599e-01    5,786163732e-02
       90200000    4,202328026e-01    5,817662179e-02
       90275000    4,183546007e-01    5,816739053e-02
       90350000    4,173701406e-01    5,780296773e-02
       90425000    4,167006910e-01    5,954473093e-02
       90500000    4,168990254e-01    5,957004055e-02
       90575000    4,156329930e-01    6,145587191e-02
       90650000    4,165921509e-01    6,239989027e-02
       90725000    4,172030389e-01    6,389323622e-02
       90800000    4,170278907e-01    6,465744227e-02
       90875000    4,185875356e-01    6,729505211e-02
       90950000    4,199786186e-01    6,754065305e-02
       91025000    4,215178788e-01    6,993729621e-02
       91100000    4,236257374e-01    7,028114796e-02
       91175000    4,258366227e-01    7,115294039e-02
       91250000    4,292950332e-01    7,276840508e-02
       91325000    4,312786758e-01    7,447736710e-02
       91400000    4,354446530e-01    7,483450323e-02
       91475000    4,383720756e-01    7,577479631e-02
       91550000    4,419017732e-01    7,595111430e-02
       91625000    4,453734159e-01    7,556918263e-02
       91700000    4,492061734e-01    7,606599480e-02
       91775000    4,528916180e-01    7,488173246e-02
       91850000    4,579885304e-01    7,503239065e-02
       91925000    4,621727467e-01    7,330893725e-02
