! NanoVNA-App
! Date: 2025-08-02 15:38:22
! Start: 65MHz Stop: 95MHz Points: 401
! S-Parameter data: F S11
# Hz S RI R 50
!     Frequency           S11_Real           S11_Imag
       65000000    5,408872962e-01   -1,686663181e-01
       65075000    5,505555272e-01   -1,739678979e-01
       65150000    5,453711748e-01   -1,788598448e-01
       65225000    5,463044047e-01   -1,813753098e-01
       65300000    5,451556444e-01   -1,909827292e-01
       65375000    5,437226892e-01   -1,923250109e-01
       65450000    5,423116684e-01   -1,991075128e-01
       65525000    5,405415297e-01   -2,050947547e-01
       65600000    5,379831791e-01   -2,079440355e-01
       65675000    5,360535979e-01   -2,140738815e-01
       65750000    5,326048136e-01   -2,167472541e-01
       65825000    5,307014585e-01   -2,206016332e-01
       65900000    5,263323188e-01   -2,270141244e-01
       65975000    5,248485208e-01   -2,294416875e-01
       66050000    5,205508471e-01   -2,353084087e-01
       66125000    5,199233294e-01   -2,385579199e-01
       66200000    5,185319185e-01   -2,424273640e-01
       66275000    5,147644281e-01   -2,494809777e-01
       66350000    5,126430988e-01   -2,498170882e-01
       66425000    5,116150975e-01   -2,530670166e-01
       66500000    5,058485866e-01   -2,564357221e-01
       66575000    5,059030056e-01   -2,607799172e-01
       66650000    5,006722808e-01   -2,645907402e-01
       66725000    4,989134669e-01   -2,681074739e-01
       66800000    4,965514541e-01   -2,753365636e-01
       66875000    4,952893257e-01   -2,753065228e-01
       66950000    4,924321771e-01   -2,801715732e-01
       67025000    4,903175831e-01   -2,854499817e-01
       67100000    4,882229269e-01   -2,851463556e-01
       67175000    4,864310026e-01   -2,874709368e-01
       67250000    4,796774387e-01   -2,916452587e-01
       67325000    4,789292812e-01   -2,939889133e-01
       67400000    4,783703089e-01   -2,982927561e-01
       67475000    4,712660015e-01   -3,045394123e-01
       67550000    4,720400572e-01   -3,052039444e-01
       67625000    4,711641669e-01   -3,083035648e-01
       67700000    4,665444195e-01   -3,106810451e-01
       67775000    4,623986781e-01   -3,150601983e-01
       67850000    4,599867463e-01   -3,209829330e-01
       67925000    4,570938945e-01   -3,207746148e-01
       68000000    4,548209608e-01   -3,264093995e-01
       68075000    4,492693841e-01   -3,250164390e-01
       68150000    4,491664767e-01   -3,290682137e-01
       68225000    4,406909943e-01   -3,339445293e-01
       68300000    4,405461550e-01   -3,336210549e-01
       68375000    4,354770482e-01   -3,390369415e-01
       68450000    4,359964728e-01   -3,393211067e-01
       68525000    4,316424429e-01   -3,459832072e-01
       68600000    4,292145669e-01   -3,449526131e-01
       68675000    4,256915152e-01   -3,476241231e-01
       68750000    4,217865765e-01   -3,478719890e-01
       68825000    4,183734357e-01   -3,500293493e-01
       68900000    4,122552574e-01   -3,511947393e-01
       68975000    4,119404256e-01   -3,538399637e-01
       69050000    4,055369794e-01   -3,543847501e-01
       69125000    4,044210613e-01   -3,569490314e-01
       69200000    3,974669278e-01   -3,579851389e-01
       69275000    3,980463743e-01   -3,592977524e-01
       69350000    3,915251195e-01   -3,602035940e-01
       69425000    3,907245994e-01   -3,613017499e-01
       69500000    3,839072585e-01   -3,625120521e-01
       69575000    3,826140761e-01   -3,623345196e-01
       69650000    3,783394992e-01   -3,640173078e-01
       69725000    3,774447143e-01   -3,640231192e-01
       69800000    3,701342344e-01   -3,653018773e-01
       69875000    3,719254732e-01   -3,653673828e-01
       69950000    3,678540289e-01   -3,712921441e-01
       70025000    3,627221286e-01   -3,664423525e-01
       70100000    3,640557826e-01   -3,685934842e-01
       70175000    3,628454208e-01   -3,701500893e-01
       70250000    3,567532301e-01   -3,674550056e-01
       70325000    3,565668464e-01   -3,676125407e-01
       70400000    3,513942361e-01   -3,682343662e-01
       70475000    3,517836630e-01   -3,694332242e-01
       70550000    3,511531353e-01   -3,733897805e-01
       70625000    3,483432233e-01   -3,694667220e-01
       70700000    3,459834754e-01   -3,710616827e-01
       70775000    3,410267830e-01   -3,741732836e-01
       70850000    3,422738612e-01   -3,719673753e-01
       70925000    3,434745371e-01   -3,733580709e-01
       71000000    3,389358521e-01   -3,719356060e-01
       71075000    3,373241425e-01   -3,737414479e-01
       71150000    3,366915882e-01   -3,764220178e-01
       71225000    3,313961327e-01   -3,793620765e-01
       71300000    3,309877515e-01   -3,769252300e-01
       71375000    3,301889300e-01   -3,813724220e-01
       71450000    3,256753683e-01   -3,754712641e-01
       71525000    3,255275488e-01   -3,767797649e-01
       71600000    3,230986297e-01   -3,791081011e-01
       71675000    3,233835101e-01   -3,802540600e-01
       71750000    3,200592697e-01   -3,795160353e-01
       71825000    3,194185793e-01   -3,826464415e-01
       71900000    3,154231608e-01   -3,793042004e-01
       71975000    3,141803145e-01   -3,822861910e-01
       72050000    3,120948076e-01   -3,820428550e-01
       72125000    3,066775501e-01   -3,855399191e-01
       72200000    3,075555265e-01   -3,850167096e-01
       72275000    3,060938120e-01   -3,883442879e-01
       72350000    3,040285110e-01   -3,844047189e-01
       72425000    3,018345237e-01   -3,895018101e-01
       72500000    3,016650379e-01   -3,864289522e-01
       72575000    3,000257313e-01   -3,890296519e-01
       72650000    2,916169167e-01   -3,834658861e-01
       72725000    2,943228781e-01   -3,874500990e-01
       72800000    2,910372317e-01   -3,910433054e-01
       72875000    2,901269495e-01   -3,869138658e-01
       72950000    2,874997556e-01   -3,888877630e-01
       73025000    2,842795551e-01   -3,897194266e-01
       73100000    2,791436911e-01   -3,845645189e-01
       73175000    2,828312516e-01   -3,856399953e-01
       73250000    2,818095088e-01   -3,843953311e-01
       73325000    2,810820043e-01   -3,874200284e-01
       73400000    2,788789272e-01   -3,832889795e-01
       73475000    2,780279219e-01   -3,858024478e-01
       73550000    2,732988894e-01   -3,807777762e-01
       73625000    2,739641964e-01   -3,826828301e-01
       73700000    2,667350769e-01   -3,803825974e-01
       73775000    2,694726586e-01   -3,809089065e-01
       73850000    2,657380402e-01   -3,840466440e-01
       73925000    2,679929137e-01   -3,825198114e-01
       74000000    2,664471567e-01   -3,856601417e-01
       74075000    2,667461932e-01   -3,780873120e-01
       74150000    2,631857395e-01   -3,814355433e-01
       74225000    2,623305321e-01   -3,782249391e-01
       74300000    2,587274313e-01   -3,773168027e-01
       74375000    2,599869668e-01   -3,790743053e-01
       74450000    2,621435225e-01   -3,808116019e-01
       74525000    2,618606687e-01   -3,779401779e-01
       74600000    2,609296441e-01   -3,801020682e-01
       74675000    2,554852962e-01   -3,741578758e-01
       74750000    2,586008608e-01   -3,758818507e-01
       74825000    2,512181103e-01   -3,772217631e-01
       74900000    2,543078959e-01   -3,763297498e-01
       74975000    2,551619411e-01   -3,807714880e-01
       75050000    2,553803921e-01   -3,757299185e-01
       75125000    2,540757954e-01   -3,792791069e-01
       75200000    2,548127770e-01   -3,764627576e-01
       75275000    2,530916929e-01   -3,777404726e-01
       75350000    2,524457574e-01   -3,737460673e-01
       75425000    2,535295188e-01   -3,731020093e-01
       75500000    2,485674024e-01   -3,704509735e-01
       75575000    2,518570721e-01   -3,726216853e-01
       75650000    2,486424297e-01   -3,715020120e-01
       75725000    2,510513067e-01   -3,713631034e-01
       75800000    2,469313741e-01   -3,689140975e-01
       75875000    2,496390641e-01   -3,713914752e-01
       75950000    2,472026944e-01   -3,699452281e-01
       76025000    2,513498962e-01   -3,709295094e-01
       76100000    2,511511743e-01   -3,739966452e-01
       76175000    2,491170913e-01   -3,688962758e-01
       76250000    2,505388856e-01   -3,710326850e-01
       76325000    2,480683625e-01   -3,692603707e-01
       76400000    2,504901886e-01   -3,697493076e-01
       76475000    2,465700209e-01   -3,754773736e-01
       76550000    2,455531955e-01   -3,699326217e-01
       76625000    2,484159619e-01   -3,704330325e-01
       76700000    2,446329147e-01   -3,694851398e-01
       76775000    2,489980906e-01   -3,697579503e-01
       76850000    2,475466281e-01   -3,704030514e-01
       76925000    2,489690632e-01   -3,765775859e-01
       77000000    2,497502267e-01   -3,728386760e-01
       77075000    2,477053702e-01   -3,723759055e-01
       77150000    2,488765866e-01   -3,704557419e-01
       77225000    2,515116036e-01   -3,728592098e-01
       77300000    2,474064827e-01   -3,687906861e-01
       77375000    2,518861294e-01   -3,710012138e-01
       77450000    2,469669580e-01   -3,704127967e-01
       77525000    2,475780845e-01   -3,701422215e-01
       77600000    2,515412569e-01   -3,703707755e-01
       77675000    2,472089380e-01   -3,722867072e-01
       77750000    2,503608465e-01   -3,747886717e-01
       77825000    2,550345063e-01   -3,735777438e-01
       77900000    2,465808988e-01   -3,761774898e-01
       77975000    2,523509264e-01   -3,753074408e-01
       78050000    2,555874586e-01   -3,749991655e-01
       78125000    2,484250963e-01   -3,759688735e-01
       78200000    2,528403699e-01   -3,774119318e-01
       78275000    2,538864613e-01   -3,754312694e-01
       78350000    2,505305409e-01   -3,801436126e-01
       78425000    2,497281581e-01   -3,781446815e-01
       78500000    2,540118396e-01   -3,779970706e-01
       78575000    2,567682862e-01   -3,829834461e-01
       78650000    2,576255202e-01   -3,804754913e-01
       78725000    2,555929720e-01   -3,795033991e-01
       78800000    2,548688054e-01   -3,869145215e-01
       78875000    2,588953078e-01   -3,826953173e-01
       78950000    2,584028840e-01   -3,871625364e-01
       79025000    2,596354783e-01   -3,830200732e-01
       79100000    2,606218755e-01   -3,858523071e-01
       79175000    2,543478906e-01   -3,857320249e-01
       79250000    2,574787438e-01   -3,866029382e-01
       79325000    2,558425963e-01   -3,918259740e-01
       79400000    2,589932084e-01   -3,905477226e-01
       79475000    2,613281310e-01   -3,918009400e-01
       79550000    2,566958666e-01   -3,886774778e-01
       79625000    2,591808140e-01   -3,897987604e-01
       79700000    2,564958036e-01   -3,978686333e-01
       79775000    2,603946924e-01   -3,949293792e-01
       79850000    2,603655756e-01   -3,934024274e-01
       79925000    2,584012449e-01   -4,012194574e-01
       80000000    2,642435730e-01   -3,972541988e-01
       80075000    2,605710030e-01   -3,968159556e-01
       80150000    2,555399835e-01   -3,976928294e-01
       80225000    2,608529627e-01   -3,980120718e-01
       80300000    2,613602281e-01   -4,035140276e-01
       80375000    2,604560852e-01   -3,997247815e-01
       80450000    2,600923777e-01   -4,009542763e-01
       80525000    2,557354271e-01   -4,021415710e-01
       80600000    2,629365027e-01   -4,033767283e-01
       80675000    2,565481067e-01   -4,064870477e-01
       80750000    2,615249753e-01   -4,078395963e-01
       80825000    2,635101378e-01   -4,061990976e-01
       80900000    2,605452538e-01   -4,054989517e-01
       80975000    2,601225376e-01   -4,103762507e-01
       81050000    2,642051876e-01   -4,124144912e-01
       81125000    2,620574832e-01   -4,101325274e-01
       81200000    2,627272904e-01   -4,139292836e-01
       81275000    2,622450888e-01   -4,126314819e-01
       81350000    2,649775445e-01   -4,142329395e-01
       81425000    2,582542002e-01   -4,168302119e-01
       81500000    2,614899278e-01   -4,163909853e-01
       81575000    2,580741644e-01   -4,198189080e-01
       81650000    2,628912032e-01   -4,180852473e-01
       81725000    2,635514736e-01   -4,215965867e-01
       81800000    2,637474239e-01   -4,262272120e-01
       81875000    2,635836005e-01   -4,213206470e-01
       81950000    2,647363842e-01   -4,224435091e-01
       82025000    2,616360188e-01   -4,226206839e-01
       82100000    2,638819516e-01   -4,247786403e-01
       82175000    2,599288225e-01   -4,249521196e-01
       82250000    2,625276446e-01   -4,261694252e-01
       82325000    2,587341070e-01   -4,315226078e-01
       82400000    2,623879015e-01   -4,306894839e-01
       82475000    2,628413141e-01   -4,371545315e-01
       82550000    2,646948397e-01   -4,344063401e-01
       82625000    2,640220821e-01   -4,383957088e-01
       82700000    2,649110556e-01   -4,356217682e-01
       82775000    2,636425495e-01   -4,417425990e-01
       82850000    2,650893331e-01   -4,378044307e-01
       82925000    2,647408545e-01   -4,426779747e-01
       83000000    2,648776472e-01   -4,403585196e-01
       83075000    2,656475604e-01   -4,454137385e-01
       83150000    2,655293643e-01   -4,427618980e-01
       83225000    2,661419809e-01   -4,472312331e-01
       83300000    2,665103674e-01   -4,448660910e-01
       83375000    2,681059837e-01   -4,492036104e-01
       83450000    2,607381344e-01   -4,459009171e-01
       83525000    2,648546398e-01   -4,470811188e-01
       83600000    2,623075843e-01   -4,492855072e-01
       83675000    2,689654231e-01   -4,513197839e-01
       83750000    2,707182169e-01   -4,561653137e-01
       83825000    2,648063004e-01   -4,515376389e-01
       83900000    2,693875432e-01   -4,547626972e-01
       83975000    2,636942267e-01   -4,585474432e-01
       84050000    2,687822282e-01   -4,596003592e-01
       84125000    2,664095461e-01   -4,647291005e-01
       84200000    2,705881000e-01   -4,596356153e-01
       84275000    2,705723047e-01   -4,621840715e-01
       84350000    2,657778561e-01   -4,644936621e-01
       84425000    2,699013650e-01   -4,670773447e-01
       84500000    2,666578889e-01   -4,703944921e-01
       84575000    2,717342377e-01   -4,706571400e-01
       84650000    2,751026452e-01   -4,723219573e-01
       84725000    2,674415112e-01   -4,747476876e-01
       84800000    2,720637918e-01   -4,759361446e-01
       84875000    2,680918872e-01   -4,777855277e-01
       84950000    2,743556499e-01   -4,808419049e-01
       85025000    2,728223801e-01   -4,832874537e-01
       85100000    2,756435573e-01   -4,877240956e-01
       85175000    2,737185955e-01   -4,838520288e-01
       85250000    2,776103914e-01   -4,871269166e-01
       85325000    2,692833543e-01   -4,898882806e-01
       85400000    2,749435604e-01   -4,925257862e-01
       85475000    2,713453472e-01   -4,991613925e-01
       85550000    2,715386748e-01   -4,955091178e-01
       85625000    2,774520516e-01   -4,986650646e-01
       85700000    2,793271244e-01   -5,005959272e-01
       85775000    2,724941671e-01   -5,064826608e-01
       85850000    2,783413231e-01   -5,034324527e-01
       85925000    2,787409723e-01   -5,112774372e-01
       86000000    2,757481933e-01   -5,171974897e-01
       86075000    2,793845236e-01   -5,145486593e-01
       86150000    2,799154520e-01   -5,146716237e-01
       86225000    2,817054987e-01   -5,220633745e-01
       86300000    2,738970816e-01   -5,240732431e-01
       86375000    2,735052705e-01   -5,250894427e-01
       86450000    2,760062814e-01   -5,279056430e-01
       86525000    2,813623548e-01   -5,331918597e-01
       86600000    2,723059058e-01   -5,332157016e-01
       86675000    2,752359211e-01   -5,382134914e-01
       86750000    2,704385519e-01   -5,434190631e-01
       86825000    2,722279429e-01   -5,413255692e-01
       86900000    2,773537338e-01   -5,474876761e-01
       86975000    2,769716382e-01   -5,514608622e-01
       87050000    2,745808661e-01   -5,516404510e-01
       87125000    2,708956599e-01   -5,617339015e-01
       87200000    2,727703452e-01   -5,606337190e-01
       87275000    2,757543623e-01   -5,652105808e-01
       87350000    2,654554248e-01   -5,700795650e-01
       87425000    2,687439919e-01   -5,708453655e-01
       87500000    2,669393420e-01   -5,854158401e-01
       87575000    2,682697773e-01   -5,764609575e-01
       87650000    2,619009912e-01   -5,829596519e-01
       87725000    2,665802538e-01   -5,777204633e-01
       87800000    2,669193447e-01   -5,847435594e-01
       87875000    2,611495256e-01   -5,829248428e-01
       87950000    2,623683512e-01   -5,910581946e-01
       88025000    2,581217289e-01   -5,923420191e-01
       88100000    2,526008785e-01   -6,004868746e-01
       88175000    2,580991387e-01   -5,960470438e-01
       88250000    2,582962513e-01   -6,036540270e-01
       88325000    2,481463999e-01   -6,075005531e-01
       88400000    2,520332038e-01   -6,092247367e-01
       88475000    2,454227507e-01   -6,126378179e-01
       88550000    2,502942979e-01   -6,149586439e-01
       88625000    2,500836253e-01   -6,133461595e-01
       88700000    2,444310188e-01   -6,243773103e-01
       88775000    2,398569137e-01   -6,189948916e-01
       88850000    2,441397160e-01   -6,246709228e-01
       88925000    2,437580079e-01   -6,254780293e-01
       89000000    2,380048335e-01   -6,247417927e-01
       89075000    2,370629013e-01   -6,307949424e-01
       89150000    2,319410890e-01   -6,304763556e-01
       89225000    2,327138782e-01   -6,398980618e-01
       89300000    2,262330204e-01   -6,422088742e-01
       89375000    2,286667824e-01   -6,443110108e-01
       89450000    2,211511880e-01   -6,475373507e-01
       89525000    2,274921983e-01   -6,455798745e-01
       89600000    2,262565792e-01   -6,522721648e-01
       89675000    2,213506550e-01   -6,606699228e-01
       89750000    2,233325541e-01   -6,571269035e-01
       89825000    2,172242999e-01   -6,636087298e-01
       89900000    2,106396556e-01   -6,668243408e-01
       89975000    2,131949663e-01   -6,675648689e-01
       90050000    2,055907845e-01   -6,741587520e-01
       90125000    2,110319883e-01   -6,699919701e-01
       90200000    2,082300931e-01   -6,753569245e-01
       90275000    1,981787980e-01   -6,799873114e-01
       90350000    1,998749226e-01   -6,810348630e-01
       90425000    2,029206008e-01   -6,891834140e-01
       90500000    1,986658275e-01   -6,823002696e-01
       90575000    1,938105971e-01   -6,879382133e-01
       90650000    1,880055815e-01   -6,957890987e-01
       90725000    1,852022856e-01   -6,873635650e-01
       90800000    1,865721196e-01   -6,931359768e-01
       90875000    1,764343083e-01   -6,950405240e-01
       90950000    1,775445342e-01   -6,996670961e-01
       91025000    1,696061790e-01   -7,024430037e-01
       91100000    1,721695513e-01   -7,055475116e-01
       91175000    1,648557335e-01   -7,102594376e-01
       91250000    1,683874577e-01   -7,120462060e-01
       91325000    1,603965163e-01   -7,184689641e-01
       91400000    1,624146104e-01   -7,118965983e-01
       91475000    1,600439698e-01   -7,183282971e-01
       91550000    1,557904631e-01   -7,135862708e-01
       91625000    1,543574482e-01   -7,184681296e-01
       91700000    1,480745673e-01   -7,184555531e-01
       91775000    1,461219192e-01   -7,228610516e-01
       91850000    1,390739977e-01   -7,199068666e-01
       91925000    1,358906925e-01   -7,262058258e-01
