! NanoVNA-App
! Date: 2025-08-02 16:00:02
! Start: 65MHz Stop: 95MHz Points: 401
! S-Parameter data: F S11
# Hz S RI R 50
!     Frequency           S11_Real           S11_Imag
       65000000    7,540774345e-02    2,550847828e-01
       65075000    8,184629679e-02    2,539468706e-01
       65150000    8,733893186e-02    2,481140941e-01
       65225000    9,397542477e-02    2,444268614e-01
       65300000    9,948904812e-02    2,386209965e-01
       65375000    1,050767675e-01    2,346207500e-01
       65450000    1,102480739e-01    2,283992767e-01
       65525000    1,152871698e-01    2,226704061e-01
       65600000    1,199362129e-01    2,179324925e-01
       65675000    1,243249029e-01    2,117045522e-01
       65750000    1,277490407e-01    2,065346688e-01
       65825000    1,337438971e-01    2,004072517e-01
       65900000    1,369081140e-01    1,948506981e-01
       65975000    1,410505772e-01    1,886849701e-01
       66050000    1,433779001e-01    1,834180206e-01
       66125000    1,457445174e-01    1,784736514e-01
       66200000    1,508115828e-01    1,723712683e-01
       66275000    1,519880444e-01    1,673781127e-01
       66350000    1,548092663e-01    1,624419391e-01
       66425000    1,590613723e-01    1,568928659e-01
       66500000    1,605025828e-01    1,520571113e-01
       66575000    1,633843780e-01    1,471206993e-01
       66650000    1,657022089e-01    1,422095150e-01
       66725000    1,672858000e-01    1,383607537e-01
       66800000    1,708616763e-01    1,329467148e-01
       66875000    1,732245386e-01    1,291144192e-01
       66950000    1,761289686e-01    1,228685826e-01
       67025000    1,782411337e-01    1,190783307e-01
       67100000    1,803953201e-01    1,142917797e-01
       67175000    1,837018281e-01    1,095746011e-01
       67250000    1,851856411e-01    1,038177609e-01
       67325000    1,882456243e-01    9,884924442e-02
       67400000    1,917050630e-01    9,341312945e-02
       67475000    1,919082254e-01    8,731092513e-02
       67550000    1,938095689e-01    8,262041956e-02
       67625000    1,962648183e-01    7,641564310e-02
       67700000    1,967091262e-01    7,104401290e-02
       67775000    1,980993897e-01    6,514354050e-02
       67850000    1,992621869e-01    5,923893675e-02
       67925000    1,994849592e-01    5,571467057e-02
       68000000    2,007506639e-01    4,826212302e-02
       68075000    2,008469105e-01    4,346409068e-02
       68150000    2,018569112e-01    3,918971866e-02
       68225000    2,013364285e-01    3,255410865e-02
       68300000    2,010173351e-01    2,890486084e-02
       68375000    2,006263286e-01    2,271522395e-02
       68450000    2,011679858e-01    1,986434124e-02
       68525000    2,015137821e-01    1,338526141e-02
       68600000    1,999287456e-01    9,844035842e-03
       68675000    2,006824762e-01    4,499468952e-03
       68750000    1,988429874e-01   -4,829412792e-04
       68825000    1,986956000e-01   -4,384059459e-03
       68900000    1,977326423e-01   -1,011499204e-02
       68975000    1,971255541e-01   -1,371185482e-02
       69050000    1,948915124e-01   -1,883691736e-02
       69125000    1,948449165e-01   -2,150651067e-02
       69200000    1,930535436e-01   -2,741041966e-02
       69275000    1,917429119e-01   -2,888309583e-02
       69350000    1,894645840e-01   -3,413387761e-02
       69425000    1,886167228e-01   -3,731568530e-02
       69500000    1,862640977e-01   -4,152669013e-02
       69575000    1,860920489e-01   -4,333465919e-02
       69650000    1,832460016e-01   -4,836370051e-02
       69725000    1,825978756e-01   -4,870270565e-02
       69800000    1,804244369e-01   -5,304421112e-02
       69875000    1,789968014e-01   -5,378152058e-02
       69950000    1,783845276e-01   -5,634509027e-02
       70025000    1,762233675e-01   -6,072559208e-02
       70100000    1,734309196e-01   -6,126397103e-02
       70175000    1,736368686e-01   -6,325070560e-02
       70250000    1,715377420e-01   -6,658003479e-02
       70325000    1,703285426e-01   -6,751859188e-02
       70400000    1,697778255e-01   -7,057175040e-02
       70475000    1,687693298e-01   -7,064246386e-02
       70550000    1,674211025e-01   -7,278951257e-02
       70625000    1,658377498e-01   -7,587025315e-02
       70700000    1,656759977e-01   -7,600164413e-02
       70775000    1,651500762e-01   -7,944857329e-02
       70850000    1,631041169e-01   -7,969453931e-02
       70925000    1,630261242e-01   -8,160416037e-02
       71000000    1,615770757e-01   -8,588172495e-02
       71075000    1,600328088e-01   -8,593660593e-02
       71150000    1,605302691e-01   -8,645490557e-02
       71225000    1,596440822e-01   -8,906328678e-02
       71300000    1,559535116e-01   -9,180273116e-02
       71375000    1,581025422e-01   -9,264493734e-02
       71450000    1,565445364e-01   -9,625031799e-02
       71525000    1,551314741e-01   -9,820044786e-02
       71600000    1,539416313e-01   -9,826436639e-02
       71675000    1,538721919e-01   -1,002550200e-01
       71750000    1,513888687e-01   -1,031223759e-01
       71825000    1,520042568e-01   -1,035177410e-01
       71900000    1,506525576e-01   -1,070331782e-01
       71975000    1,477929950e-01   -1,077985391e-01
       72050000    1,482935399e-01   -1,086355150e-01
       72125000    1,477461904e-01   -1,104315892e-01
       72200000    1,442722231e-01   -1,121515855e-01
       72275000    1,451061517e-01   -1,144007370e-01
       72350000    1,428500563e-01   -1,166428551e-01
       72425000    1,416949332e-01   -1,160553917e-01
       72500000    1,387653202e-01   -1,194281280e-01
       72575000    1,394674033e-01   -1,195657477e-01
       72650000    1,382164508e-01   -1,205798313e-01
       72725000    1,354628056e-01   -1,228503659e-01
       72800000    1,344712973e-01   -1,236752421e-01
       72875000    1,320275366e-01   -1,249108836e-01
       72950000    1,308579743e-01   -1,240845621e-01
       73025000    1,304111928e-01   -1,261810809e-01
       73100000    1,290063113e-01   -1,256993115e-01
       73175000    1,256791055e-01   -1,271488965e-01
       73250000    1,252478063e-01   -1,278681159e-01
       73325000    1,244982556e-01   -1,275987178e-01
       73400000    1,224547699e-01   -1,289329380e-01
       73475000    1,207390055e-01   -1,291698068e-01
       73550000    1,212807596e-01   -1,293272525e-01
       73625000    1,194219515e-01   -1,274150163e-01
       73700000    1,174274459e-01   -1,301397234e-01
       73775000    1,150437370e-01   -1,302676350e-01
       73850000    1,158391088e-01   -1,287941933e-01
       73925000    1,128168926e-01   -1,320848018e-01
       74000000    1,128524393e-01   -1,304464191e-01
       74075000    1,129076034e-01   -1,299296767e-01
       74150000    1,086845398e-01   -1,310530007e-01
       74225000    1,082678661e-01   -1,293544173e-01
       74300000    1,095644832e-01   -1,287903488e-01
       74375000    1,056553498e-01   -1,303756386e-01
       74450000    1,062736884e-01   -1,296376586e-01
       74525000    1,081287116e-01   -1,301769614e-01
       74600000    1,055348814e-01   -1,283393949e-01
       74675000    1,053955406e-01   -1,284299344e-01
       74750000    1,035296693e-01   -1,282063425e-01
       74825000    1,030540913e-01   -1,281848550e-01
       74900000    1,005851105e-01   -1,298897713e-01
       74975000    1,024548039e-01   -1,282756031e-01
       75050000    1,016009524e-01   -1,284571886e-01
       75125000    1,007825583e-01   -1,265878230e-01
       75200000    1,018937230e-01   -1,284664124e-01
       75275000    1,000586227e-01   -1,262466013e-01
       75350000    9,930008650e-02   -1,272888035e-01
       75425000    9,762594104e-02   -1,261041164e-01
       75500000    9,894884378e-02   -1,259799004e-01
       75575000    9,591738880e-02   -1,246422604e-01
       75650000    9,849634022e-02   -1,250858456e-01
       75725000    9,577818215e-02   -1,244748905e-01
       75800000    9,631025791e-02   -1,242590919e-01
       75875000    9,418915212e-02   -1,237716377e-01
       75950000    9,643762559e-02   -1,235776842e-01
       76025000    9,605799615e-02   -1,235434636e-01
       76100000    9,409131110e-02   -1,217179671e-01
       76175000    9,564831853e-02   -1,226844788e-01
       76250000    9,289501607e-02   -1,206001788e-01
       76325000    9,333319962e-02   -1,202746183e-01
       76400000    9,140313417e-02   -1,212271154e-01
       76475000    9,301449358e-02   -1,181717888e-01
       76550000    9,335613996e-02   -1,178437993e-01
       76625000    9,089297801e-02   -1,195740178e-01
       76700000    9,294858575e-02   -1,156383380e-01
       76775000    9,216498584e-02   -1,142204106e-01
       76850000    9,061870724e-02   -1,165952459e-01
       76925000    9,219615161e-02   -1,119114459e-01
       77000000    9,346807748e-02   -1,118032262e-01
       77075000    9,199161083e-02   -1,120829880e-01
       77150000    9,187955409e-02   -1,107051596e-01
       77225000    9,158137441e-02   -1,074601412e-01
       77300000    9,264269471e-02   -1,074148342e-01
       77375000    9,226401895e-02   -1,056664139e-01
       77450000    9,463404864e-02   -1,033147052e-01
       77525000    9,399431199e-02   -1,015993655e-01
       77600000    9,475933015e-02   -1,021769270e-01
       77675000    9,713538736e-02   -9,842921793e-02
       77750000    9,779145569e-02   -9,888673574e-02
       77825000    9,726316482e-02   -9,687844664e-02
       77900000    9,971781820e-02   -9,490261227e-02
       77975000    1,013469025e-01   -9,352619201e-02
       78050000    1,009161025e-01   -9,232479334e-02
       78125000    1,037568152e-01   -9,056049585e-02
       78200000    1,059033871e-01   -8,979936689e-02
       78275000    1,067591161e-01   -8,941698819e-02
       78350000    1,089806482e-01   -8,577659726e-02
       78425000    1,105274111e-01   -8,493324369e-02
       78500000    1,127322912e-01   -8,530360460e-02
       78575000    1,134415343e-01   -8,320984989e-02
       78650000    1,169901118e-01   -8,148194849e-02
       78725000    1,183318421e-01   -8,195158839e-02
       78800000    1,203123555e-01   -7,948725671e-02
       78875000    1,241079941e-01   -7,891523838e-02
       78950000    1,239754036e-01   -7,774482667e-02
       79025000    1,292935759e-01   -7,720455527e-02
       79100000    1,303731799e-01   -7,811254263e-02
       79175000    1,338591576e-01   -7,601350546e-02
       79250000    1,370955408e-01   -7,763145119e-02
       79325000    1,389603615e-01   -7,619684935e-02
       79400000    1,425334960e-01   -7,614959031e-02
       79475000    1,439976096e-01   -7,783948630e-02
       79550000    1,479300112e-01   -7,720152289e-02
       79625000    1,501033157e-01   -7,835356146e-02
       79700000    1,518721431e-01   -7,677295059e-02
       79775000    1,561226100e-01   -7,850106806e-02
       79850000    1,578885764e-01   -7,929807156e-02
       79925000    1,601079851e-01   -7,896208763e-02
       80000000    1,635248214e-01   -7,864020765e-02
       80075000    1,665537208e-01   -8,267009258e-02
       80150000    1,696121097e-01   -8,146317303e-02
       80225000    1,720435917e-01   -8,149866015e-02
       80300000    1,738773286e-01   -8,482127637e-02
       80375000    1,775881946e-01   -8,524001390e-02
       80450000    1,815993488e-01   -8,555206656e-02
       80525000    1,818018854e-01   -8,609653264e-02
       80600000    1,867636591e-01   -8,883640170e-02
       80675000    1,876922101e-01   -8,895755559e-02
       80750000    1,913433373e-01   -9,182239324e-02
       80825000    1,936120391e-01   -9,542974830e-02
       80900000    1,955728531e-01   -9,501974285e-02
       80975000    1,979998648e-01   -9,706182778e-02
       81050000    1,988239437e-01   -1,012121066e-01
       81125000    2,023233771e-01   -1,011473313e-01
       81200000    2,033557445e-01   -1,057241186e-01
       81275000    2,057382315e-01   -1,055228189e-01
       81350000    2,076867223e-01   -1,096726507e-01
       81425000    2,083872706e-01   -1,086069867e-01
       81500000    2,110768110e-01   -1,116982400e-01
       81575000    2,107870430e-01   -1,141135767e-01
       81650000    2,140382230e-01   -1,166107953e-01
       81725000    2,149894536e-01   -1,189129725e-01
       81800000    2,159582824e-01   -1,231086552e-01
       81875000    2,173469961e-01   -1,228196621e-01
       81950000    2,184080780e-01   -1,261441112e-01
       82025000    2,196585983e-01   -1,270986944e-01
       82100000    2,210028619e-01   -1,287761033e-01
       82175000    2,199235409e-01   -1,294936687e-01
       82250000    2,224150449e-01   -1,329556853e-01
       82325000    2,206208408e-01   -1,358355433e-01
       82400000    2,225795537e-01   -1,364967227e-01
       82475000    2,233523428e-01   -1,404663324e-01
       82550000    2,241998911e-01   -1,398595572e-01
       82625000    2,242214680e-01   -1,432327181e-01
       82700000    2,246524096e-01   -1,427860260e-01
       82775000    2,255977690e-01   -1,471549422e-01
       82850000    2,269558012e-01   -1,450699270e-01
       82925000    2,274531871e-01   -1,490154415e-01
       83000000    2,287705243e-01   -1,488259882e-01
       83075000    2,292861640e-01   -1,510601640e-01
       83150000    2,298032343e-01   -1,500417441e-01
       83225000    2,317038476e-01   -1,539973021e-01
       83300000    2,315865904e-01   -1,518480033e-01
       83375000    2,333117872e-01   -1,548099816e-01
       83450000    2,309266329e-01   -1,547795087e-01
       83525000    2,336664200e-01   -1,547485292e-01
       83600000    2,328044325e-01   -1,575074047e-01
       83675000    2,371795774e-01   -1,562721133e-01
       83750000    2,384184897e-01   -1,594409347e-01
       83825000    2,369094044e-01   -1,580330729e-01
       83900000    2,400036454e-01   -1,597478539e-01
       83975000    2,394576073e-01   -1,627936959e-01
       84050000    2,419385761e-01   -1,627406627e-01
       84125000    2,426518798e-01   -1,667985618e-01
       84200000    2,448544353e-01   -1,627616882e-01
       84275000    2,468482256e-01   -1,648966223e-01
       84350000    2,453790754e-01   -1,670285314e-01
       84425000    2,489820272e-01   -1,670805514e-01
       84500000    2,495414913e-01   -1,706809849e-01
       84575000    2,527199090e-01   -1,693813950e-01
       84650000    2,550684810e-01   -1,708256602e-01
       84725000    2,535952628e-01   -1,730986983e-01
       84800000    2,569815814e-01   -1,733286530e-01
       84875000    2,566645741e-01   -1,757720262e-01
       84950000    2,606098950e-01   -1,742565185e-01
       85025000    2,626035511e-01   -1,772186905e-01
       85100000    2,659266591e-01   -1,785135120e-01
       85175000    2,644145489e-01   -1,802559197e-01
       85250000    2,682414949e-01   -1,801623553e-01
       85325000    2,692356408e-01   -1,853383631e-01
       85400000    2,718662918e-01   -1,846131086e-01
       85475000    2,749952674e-01   -1,879600585e-01
       85550000    2,745290101e-01   -1,895149648e-01
       85625000    2,780824602e-01   -1,873834282e-01
       85700000    2,804704309e-01   -1,899336874e-01
       85775000    2,828740180e-01   -1,951977313e-01
       85850000    2,826469243e-01   -1,944203228e-01
       85925000    2,894735038e-01   -1,949570179e-01
       86000000    2,922291458e-01   -1,989587396e-01
       86075000    2,919034064e-01   -1,998323351e-01
       86150000    2,943587005e-01   -2,032613903e-01
       86225000    2,974239588e-01   -2,048637718e-01
       86300000    3,008650541e-01   -2,109789848e-01
       86375000    3,002519310e-01   -2,146116942e-01
       86450000    3,037729859e-01   -2,145378441e-01
       86525000    3,062269986e-01   -2,163355649e-01
       86600000    3,071887195e-01   -2,230859846e-01
       86675000    3,104001880e-01   -2,222003490e-01
       86750000    3,133132458e-01   -2,292921245e-01
       86825000    3,130192459e-01   -2,318700552e-01
       86900000    3,138448596e-01   -2,307012528e-01
       86975000    3,160578310e-01   -2,337173969e-01
       87050000    3,185580373e-01   -2,394822091e-01
       87125000    3,226546049e-01   -2,422816157e-01
       87200000    3,219148517e-01   -2,445545495e-01
       87275000    3,236774504e-01   -2,490017861e-01
       87350000    3,275299966e-01   -2,532885671e-01
       87425000    3,264893293e-01   -2,548590899e-01
       87500000    3,298903108e-01   -2,587868571e-01
       87575000    3,287029862e-01   -2,613615394e-01
       87650000    3,322577178e-01   -2,676171958e-01
       87725000    3,274293840e-01   -2,723938227e-01
       87800000    3,311980367e-01   -2,742780447e-01
       87875000    3,314630091e-01   -2,814329863e-01
       87950000    3,326314986e-01   -2,796283662e-01
       88025000    3,365514576e-01   -2,839829326e-01
       88100000    3,377922773e-01   -2,886815369e-01
       88175000    3,330347240e-01   -2,939724922e-01
       88250000    3,376473486e-01   -2,952356040e-01
       88325000    3,401956558e-01   -2,998141646e-01
       88400000    3,388540745e-01   -3,009883761e-01
       88475000    3,416891396e-01   -3,064071834e-01
       88550000    3,383804262e-01   -3,076925278e-01
       88625000    3,402378261e-01   -3,151921034e-01
       88700000    3,409914374e-01   -3,163716495e-01
       88775000    3,438594043e-01   -3,241286278e-01
       88850000    3,394978344e-01   -3,239646256e-01
       88925000    3,429282904e-01   -3,303198516e-01
       89000000    3,429189324e-01   -3,358212411e-01
       89075000    3,458365202e-01   -3,368305862e-01
       89150000    3,466867805e-01   -3,435641825e-01
       89225000    3,466833234e-01   -3,429440260e-01
       89300000    3,474178910e-01   -3,483549953e-01
       89375000    3,465294540e-01   -3,495142460e-01
       89450000    3,492878973e-01   -3,563574255e-01
       89525000    3,444291353e-01   -3,645971119e-01
       89600000    3,479139805e-01   -3,658789992e-01
       89675000    3,475526571e-01   -3,679066300e-01
       89750000    3,438057005e-01   -3,756304979e-01
       89825000    3,465365767e-01   -3,750588298e-01
       89900000    3,487460613e-01   -3,807054460e-01
       89975000    3,454469442e-01   -3,843076825e-01
       90050000    3,475217521e-01   -3,901613355e-01
       90125000    3,438760340e-01   -3,986813426e-01
       90200000    3,479181826e-01   -4,002461433e-01
       90275000    3,471577466e-01   -4,021394253e-01
       90350000    3,435161114e-01   -4,083509445e-01
       90425000    3,465107679e-01   -4,140333533e-01
       90500000    3,417669535e-01   -4,225675464e-01
       90575000    3,462953269e-01   -4,200269580e-01
       90650000    3,433384895e-01   -4,269761741e-01
       90725000    3,469520807e-01   -4,343772829e-01
       90800000    3,447826803e-01   -4,351454973e-01
       90875000    3,433169425e-01   -4,406979084e-01
       90950000    3,378962278e-01   -4,426780939e-01
       91025000    3,398041129e-01   -4,488068223e-01
       91100000    3,346520066e-01   -4,530710280e-01
       91175000    3,353201747e-01   -4,594520330e-01
       91250000    3,286876678e-01   -4,652241468e-01
       91325000    3,316655755e-01   -4,699175060e-01
       91400000    3,291848600e-01   -4,809115827e-01
       91475000    3,307949901e-01   -4,815099239e-01
       91550000    3,290966451e-01   -4,878791869e-01
       91625000    3,279926777e-01   -4,879704118e-01
       91700000    3,261592686e-01   -4,953477383e-01
       91775000    3,208493590e-01   -4,948152006e-01
       91850000    3,212262690e-01   -5,007286072e-01
       91925000    3,124034405e-01   -5,032493472e-01
