! NanoVNA-App
! Date: 2025-08-09 13:06:16
! Start: 65MHz Stop: 95MHz Points: 401
! S-Parameter data: F S11
# Hz S RI R 50
!     Frequency           S11_Real           S11_Imag
       65000000   -4,041419923e-01   -8,108788133e-01
       65075000   -4,062444568e-01   -8,226760030e-01
       65150000   -4,062190652e-01   -8,235260248e-01
       65225000   -4,120427668e-01   -8,220619559e-01
       65300000   -4,121296406e-01   -8,201145530e-01
       65375000   -4,140651524e-01   -8,203508854e-01
       65450000   -4,153845906e-01   -8,165293932e-01
       65525000   -4,173013270e-01   -8,160193563e-01
       65600000   -4,198719859e-01   -8,147798777e-01
       65675000   -4,221935868e-01   -8,113499880e-01
       65750000   -4,221249819e-01   -8,103998303e-01
       65825000   -4,275595844e-01   -8,088784218e-01
       65900000   -4,285672009e-01   -8,072711229e-01
       65975000   -4,321358204e-01   -8,072384596e-01
       66050000   -4,326416254e-01   -8,038778305e-01
       66125000   -4,325692952e-01   -8,030588031e-01
       66200000   -4,374360740e-01   -8,004561067e-01
       66275000   -4,373555481e-01   -7,994036674e-01
       66350000   -4,391684234e-01   -7,962454557e-01
       66425000   -4,427968860e-01   -7,956997752e-01
       66500000   -4,438158870e-01   -7,946540117e-01
       66575000   -4,473074973e-01   -7,930788994e-01
       66650000   -4,476378858e-01   -7,916711569e-01
       66725000   -4,479451180e-01   -7,900471687e-01
       66800000   -4,504852891e-01   -7,866092920e-01
       66875000   -4,521054327e-01   -7,860150337e-01
       66950000   -4,548994005e-01   -7,826275229e-01
       67025000   -4,570081234e-01   -7,821342349e-01
       67100000   -4,579762816e-01   -7,814424038e-01
       67175000   -4,611794651e-01   -7,817546725e-01
       67250000   -4,616980553e-01   -7,779953480e-01
       67325000   -4,630688429e-01   -7,776241302e-01
       67400000   -4,668459296e-01   -7,755315900e-01
       67475000   -4,678147137e-01   -7,711710334e-01
       67550000   -4,702838659e-01   -7,720164061e-01
       67625000   -4,716742337e-01   -7,722178102e-01
       67700000   -4,721686542e-01   -7,691696882e-01
       67775000   -4,759829044e-01   -7,641196847e-01
       67850000   -4,790284038e-01   -7,651882768e-01
       67925000   -4,792828560e-01   -7,646870613e-01
       68000000   -4,829764664e-01   -7,628769875e-01
       68075000   -4,820988774e-01   -7,600244284e-01
       68150000   -4,828807116e-01   -7,585014105e-01
       68225000   -4,879427254e-01   -7,546953559e-01
       68300000   -4,883990586e-01   -7,536729574e-01
       68375000   -4,916755259e-01   -7,518019676e-01
       68450000   -4,909403026e-01   -7,525411248e-01
       68525000   -4,927164316e-01   -7,514527440e-01
       68600000   -4,941209555e-01   -7,477927804e-01
       68675000   -4,956169128e-01   -7,460483909e-01
       68750000   -4,983844757e-01   -7,460024953e-01
       68825000   -5,000187755e-01   -7,399275899e-01
       68900000   -5,002915263e-01   -7,399531603e-01
       68975000   -5,037500858e-01   -7,361388803e-01
       69050000   -5,042457581e-01   -7,359874845e-01
       69125000   -5,067351460e-01   -7,333973646e-01
       69200000   -5,077686310e-01   -7,332605720e-01
       69275000   -5,104810596e-01   -7,291734219e-01
       69350000   -5,110325217e-01   -7,276480794e-01
       69425000   -5,137531757e-01   -7,253155112e-01
       69500000   -5,146366358e-01   -7,246079445e-01
       69575000   -5,175966620e-01   -7,214221358e-01
       69650000   -5,178565383e-01   -7,208098769e-01
       69725000   -5,216251612e-01   -7,195497751e-01
       69800000   -5,215820074e-01   -7,179639935e-01
       69875000   -5,242605209e-01   -7,169042826e-01
       69950000   -5,232872963e-01   -7,141844630e-01
       70025000   -5,258942246e-01   -7,146133184e-01
       70100000   -5,261086822e-01   -7,116005421e-01
       70175000   -5,297044516e-01   -7,066396475e-01
       70250000   -5,303465724e-01   -7,093663812e-01
       70325000   -5,321208835e-01   -7,067452073e-01
       70400000   -5,320686102e-01   -7,046033740e-01
       70475000   -5,336976051e-01   -7,025058270e-01
       70550000   -5,372672677e-01   -6,989140511e-01
       70625000   -5,373738408e-01   -6,996769309e-01
       70700000   -5,374156833e-01   -6,985911727e-01
       70775000   -5,398027301e-01   -6,938665509e-01
       70850000   -5,401811004e-01   -6,925190687e-01
       70925000   -5,436834097e-01   -6,941315532e-01
       71000000   -5,439291000e-01   -6,906981468e-01
       71075000   -5,444698930e-01   -6,889996529e-01
       71150000   -5,461810827e-01   -6,865824461e-01
       71225000   -5,485215187e-01   -6,854060292e-01
       71300000   -5,494822860e-01   -6,829049587e-01
       71375000   -5,502951741e-01   -6,836895347e-01
       71450000   -5,546883345e-01   -6,777434945e-01
       71525000   -5,557528138e-01   -6,773027182e-01
       71600000   -5,550964475e-01   -6,765159369e-01
       71675000   -5,569854379e-01   -6,735056639e-01
       71750000   -5,599496365e-01   -6,714645624e-01
       71825000   -5,604271889e-01   -6,694242954e-01
       71900000   -5,635408759e-01   -6,691977382e-01
       71975000   -5,645003915e-01   -6,654528975e-01
       72050000   -5,640395880e-01   -6,662724018e-01
       72125000   -5,648096800e-01   -6,640390754e-01
       72200000   -5,671858788e-01   -6,619333029e-01
       72275000   -5,692235231e-01   -6,592658758e-01
       72350000   -5,719276667e-01   -6,609941125e-01
       72425000   -5,716565251e-01   -6,579340696e-01
       72500000   -5,734888315e-01   -6,586194634e-01
       72575000   -5,753058791e-01   -6,552290916e-01
       72650000   -5,729248524e-01   -6,503137946e-01
       72725000   -5,770593286e-01   -6,518145800e-01
       72800000   -5,792648792e-01   -6,507512927e-01
       72875000   -5,791599751e-01   -6,478554606e-01
       72950000   -5,808799267e-01   -6,466391087e-01
       73025000   -5,833685398e-01   -6,461001635e-01
       73100000   -5,863153934e-01   -6,411305070e-01
       73175000   -5,847176313e-01   -6,401430964e-01
       73250000   -5,867615342e-01   -6,367682219e-01
       73325000   -5,880162120e-01   -6,371206045e-01
       73400000   -5,894467235e-01   -6,335362196e-01
       73475000   -5,913898349e-01   -6,318150759e-01
       73550000   -5,940639973e-01   -6,332582831e-01
       73625000   -5,942339301e-01   -6,303125620e-01
       73700000   -5,949475169e-01   -6,298917532e-01
       73775000   -5,956639051e-01   -6,255802512e-01
       73850000   -5,974829197e-01   -6,239488721e-01
       73925000   -6,022174358e-01   -6,215269566e-01
       74000000   -6,014707685e-01   -6,215124130e-01
       74075000   -6,021378636e-01   -6,181901693e-01
       74150000   -6,029664874e-01   -6,188967824e-01
       74225000   -6,055512428e-01   -6,171891689e-01
       74300000   -6,060714126e-01   -6,148668528e-01
       74375000   -6,079142690e-01   -6,129392982e-01
       74450000   -6,106813550e-01   -6,085729003e-01
       74525000   -6,113035083e-01   -6,065065861e-01
       74600000   -6,135329008e-01   -6,051502228e-01
       74675000   -6,136952043e-01   -6,061261296e-01
       74750000   -6,148377657e-01   -6,055245399e-01
       74825000   -6,154624224e-01   -6,001380086e-01
       74900000   -6,158257723e-01   -5,988510251e-01
       74975000   -6,195382476e-01   -5,982691646e-01
       75050000   -6,206847429e-01   -5,974351168e-01
       75125000   -6,206403375e-01   -5,941660404e-01
       75200000   -6,229699850e-01   -5,935571790e-01
       75275000   -6,234756112e-01   -5,891733766e-01
       75350000   -6,252748966e-01   -5,895676613e-01
       75425000   -6,265105009e-01   -5,850088000e-01
       75500000   -6,267157197e-01   -5,838744640e-01
       75575000   -6,286202669e-01   -5,852237940e-01
       75650000   -6,290275455e-01   -5,806168914e-01
       75725000   -6,311815977e-01   -5,796800256e-01
       75800000   -6,322036386e-01   -5,764836669e-01
       75875000   -6,346717477e-01   -5,743595958e-01
       75950000   -6,370837092e-01   -5,717493296e-01
       76025000   -6,371970773e-01   -5,684813857e-01
       76100000   -6,376356483e-01   -5,685803890e-01
       76175000   -6,411309838e-01   -5,674448013e-01
       76250000   -6,405922771e-01   -5,672993064e-01
       76325000   -6,432649493e-01   -5,639183521e-01
       76400000   -6,421660185e-01   -5,625507236e-01
       76475000   -6,425134540e-01   -5,594079494e-01
       76550000   -6,455956101e-01   -5,588576794e-01
       76625000   -6,483972073e-01   -5,568914413e-01
       76700000   -6,471804380e-01   -5,549991727e-01
       76775000   -6,510776877e-01   -5,521137714e-01
       76850000   -6,497091055e-01   -5,504351854e-01
       76925000   -6,506872177e-01   -5,477441549e-01
       77000000   -6,537185311e-01   -5,455679893e-01
       77075000   -6,542912126e-01   -5,459426045e-01
       77150000   -6,565322280e-01   -5,436648130e-01
       77225000   -6,557658911e-01   -5,397174954e-01
       77300000   -6,566513777e-01   -5,386441946e-01
       77375000   -6,581118107e-01   -5,392133594e-01
       77450000   -6,588395238e-01   -5,348927379e-01
       77525000   -6,598488688e-01   -5,321101546e-01
       77600000   -6,608288884e-01   -5,317087173e-01
       77675000   -6,624160409e-01   -5,309795737e-01
       77750000   -6,631099582e-01   -5,271018744e-01
       77825000   -6,645953655e-01   -5,273074508e-01
       77900000   -6,652832031e-01   -5,248866081e-01
       77975000   -6,671146750e-01   -5,237160921e-01
       78050000   -6,682187319e-01   -5,219237804e-01
       78125000   -6,710057855e-01   -5,187274814e-01
       78200000   -6,711991429e-01   -5,192973614e-01
       78275000   -6,714721322e-01   -5,173515677e-01
       78350000   -6,730366349e-01   -5,144507289e-01
       78425000   -6,740607619e-01   -5,136419535e-01
       78500000   -6,759557128e-01   -5,098724365e-01
       78575000   -6,773232222e-01   -5,092853308e-01
       78650000   -6,795004010e-01   -5,093302131e-01
       78725000   -6,824975014e-01   -5,042888522e-01
       78800000   -6,812349558e-01   -5,031918883e-01
       78875000   -6,834987998e-01   -5,017284751e-01
       78950000   -6,858381629e-01   -4,997174740e-01
       79025000   -6,847575903e-01   -4,973198175e-01
       79100000   -6,873718500e-01   -4,973373711e-01
       79175000   -6,882280707e-01   -4,937334955e-01
       79250000   -6,909168959e-01   -4,905431271e-01
       79325000   -6,904113889e-01   -4,900150001e-01
       79400000   -6,926189661e-01   -4,879032075e-01
       79475000   -6,931325793e-01   -4,868696630e-01
       79550000   -6,952620149e-01   -4,817174673e-01
       79625000   -6,953325272e-01   -4,810410738e-01
       79700000   -6,981090307e-01   -4,808031321e-01
       79775000   -6,983863115e-01   -4,774883389e-01
       79850000   -7,006690502e-01   -4,745053649e-01
       79925000   -7,005973458e-01   -4,722409248e-01
       80000000   -7,017363906e-01   -4,684899449e-01
       80075000   -7,057772279e-01   -4,693573117e-01
       80150000   -7,057914138e-01   -4,656234682e-01
       80225000   -7,057957053e-01   -4,657127857e-01
       80300000   -7,088993788e-01   -4,646093845e-01
       80375000   -7,082951665e-01   -4,606562853e-01
       80450000   -7,119975090e-01   -4,575782418e-01
       80525000   -7,121896744e-01   -4,562751353e-01
       80600000   -7,146447897e-01   -4,548285306e-01
       80675000   -7,148584127e-01   -4,541783333e-01
       80750000   -7,153518796e-01   -4,491255581e-01
       80825000   -7,176834941e-01   -4,492302835e-01
       80900000   -7,201209664e-01   -4,449835122e-01
       80975000   -7,194830775e-01   -4,425937533e-01
       81050000   -7,223573327e-01   -4,417181015e-01
       81125000   -7,219663262e-01   -4,406452179e-01
       81200000   -7,251776457e-01   -4,368652999e-01
       81275000   -7,250268459e-01   -4,352180660e-01
       81350000   -7,255891562e-01   -4,333366454e-01
       81425000   -7,274982333e-01   -4,306192994e-01
       81500000   -7,296966910e-01   -4,258951843e-01
       81575000   -7,305558920e-01   -4,254488051e-01
       81650000   -7,309732437e-01   -4,228822291e-01
       81725000   -7,319306135e-01   -4,205889702e-01
       81800000   -7,337453365e-01   -4,192490280e-01
       81875000   -7,351045609e-01   -4,137400687e-01
       81950000   -7,372394800e-01   -4,115183055e-01
       82025000   -7,379050851e-01   -4,119798243e-01
       82100000   -7,404380441e-01   -4,088754058e-01
       82175000   -7,395586371e-01   -4,086341560e-01
       82250000   -7,413899899e-01   -4,037016630e-01
       82325000   -7,428369522e-01   -4,018315673e-01
       82400000   -7,429634929e-01   -3,995921016e-01
       82475000   -7,442639470e-01   -3,973993659e-01
       82550000   -7,458350062e-01   -3,939090967e-01
       82625000   -7,466744184e-01   -3,905356824e-01
       82700000   -7,482373118e-01   -3,889747262e-01
       82775000   -7,483103871e-01   -3,859588504e-01
       82850000   -7,496811152e-01   -3,838536441e-01
       82925000   -7,519869208e-01   -3,821548223e-01
       83000000   -7,511746287e-01   -3,783538342e-01
       83075000   -7,536948323e-01   -3,761586547e-01
       83150000   -7,563087344e-01   -3,724282682e-01
       83225000   -7,559881806e-01   -3,703126609e-01
       83300000   -7,583389282e-01   -3,667325974e-01
       83375000   -7,579383254e-01   -3,654085100e-01
       83450000   -7,596052885e-01   -3,612807989e-01
       83525000   -7,596632838e-01   -3,588962257e-01
       83600000   -7,613625526e-01   -3,537603617e-01
       83675000   -7,618687153e-01   -3,535540402e-01
       83750000   -7,618503571e-01   -3,496015966e-01
       83825000   -7,635291219e-01   -3,479570150e-01
       83900000   -7,659712434e-01   -3,435078859e-01
       83975000   -7,655163407e-01   -3,428192735e-01
       84050000   -7,659318447e-01   -3,393733501e-01
       84125000   -7,676079273e-01   -3,375379145e-01
       84200000   -7,684887648e-01   -3,324112892e-01
       84275000   -7,682672143e-01   -3,310386837e-01
       84350000   -7,692731619e-01   -3,276879191e-01
       84425000   -7,716686726e-01   -3,262714744e-01
       84500000   -7,708653212e-01   -3,225043118e-01
       84575000   -7,727512717e-01   -3,190722167e-01
       84650000   -7,721111774e-01   -3,167181015e-01
       84725000   -7,735270858e-01   -3,138254583e-01
       84800000   -7,746522427e-01   -3,091940582e-01
       84875000   -7,749174237e-01   -3,077025115e-01
       84950000   -7,752697468e-01   -3,051758111e-01
       85025000   -7,762956619e-01   -3,020929098e-01
       85100000   -7,770087719e-01   -2,992622852e-01
       85175000   -7,768506408e-01   -2,949919105e-01
       85250000   -7,783859968e-01   -2,908740640e-01
       85325000   -7,787906528e-01   -2,909699678e-01
       85400000   -7,800596952e-01   -2,873853743e-01
       85475000   -7,791165113e-01   -2,838518620e-01
       85550000   -7,808904648e-01   -2,809433341e-01
       85625000   -7,801990509e-01   -2,771227062e-01
       85700000   -7,804997563e-01   -2,738594115e-01
       85775000   -7,813719511e-01   -2,714891732e-01
       85850000   -7,810356021e-01   -2,687158883e-01
       85925000   -7,818337679e-01   -2,663401663e-01
       86000000   -7,815981507e-01   -2,608173490e-01
       86075000   -7,818031311e-01   -2,590202987e-01
       86150000   -7,812881470e-01   -2,572589815e-01
       86225000   -7,819965482e-01   -2,537298501e-01
       86300000   -7,826369405e-01   -2,501631677e-01
       86375000   -7,822776437e-01   -2,478760332e-01
       86450000   -7,826474309e-01   -2,441835999e-01
       86525000   -7,828694582e-01   -2,408694178e-01
       86600000   -7,828603983e-01   -2,359048873e-01
       86675000   -7,817412019e-01   -2,334966063e-01
       86750000   -7,812517285e-01   -2,335571349e-01
       86825000   -7,817550302e-01   -2,290163934e-01
       86900000   -7,820718288e-01   -2,260885984e-01
       86975000   -7,821642160e-01   -2,243656665e-01
       87050000   -7,805876732e-01   -2,208431214e-01
       87125000   -7,813786268e-01   -2,180398554e-01
       87200000   -7,808212042e-01   -2,142733335e-01
       87275000   -7,809190154e-01   -2,126674205e-01
       87350000   -7,797048688e-01   -2,084942609e-01
       87425000   -7,799786925e-01   -2,063107640e-01
       87500000   -7,779964805e-01   -2,024295181e-01
       87575000   -7,795804739e-01   -2,009585500e-01
       87650000   -7,795324922e-01   -1,971358508e-01
       87725000   -7,791108489e-01   -1,959270984e-01
       87800000   -7,776519060e-01   -1,929956973e-01
       87875000   -7,786399126e-01   -1,898332089e-01
       87950000   -7,782850266e-01   -1,872981191e-01
       88025000   -7,779960632e-01   -1,860484481e-01
       88100000   -7,776113749e-01   -1,829201430e-01
       88175000   -7,757498026e-01   -1,777855754e-01
       88250000   -7,761987448e-01   -1,773177534e-01
       88325000   -7,748849392e-01   -1,745453328e-01
       88400000   -7,754927874e-01   -1,716585606e-01
       88475000   -7,741348743e-01   -1,705136299e-01
       88550000   -7,745707631e-01   -1,666252762e-01
       88625000   -7,728054523e-01   -1,649432182e-01
       88700000   -7,726725936e-01   -1,621028483e-01
       88775000   -7,719222903e-01   -1,594521254e-01
       88850000   -7,723643780e-01   -1,567909569e-01
       88925000   -7,712459564e-01   -1,542150080e-01
       89000000   -7,692924738e-01   -1,525883079e-01
       89075000   -7,695996761e-01   -1,503573358e-01
       89150000   -7,681878209e-01   -1,473921984e-01
       89225000   -7,683069110e-01   -1,454358995e-01
       89300000   -7,666173577e-01   -1,444342285e-01
       89375000   -7,661702633e-01   -1,412735581e-01
       89450000   -7,648720741e-01   -1,406387240e-01
       89525000   -7,641605139e-01   -1,382449418e-01
       89600000   -7,641608715e-01   -1,376114041e-01
       89675000   -7,633315325e-01   -1,352834702e-01
       89750000   -7,622154355e-01   -1,336880177e-01
       89825000   -7,617126703e-01   -1,326073557e-01
       89900000   -7,608372569e-01   -1,313905120e-01
       89975000   -7,609523535e-01   -1,297585815e-01
       90050000   -7,597650290e-01   -1,279231906e-01
       90125000   -7,606819272e-01   -1,279009432e-01
       90200000   -7,592849135e-01   -1,271583438e-01
       90275000   -7,599619627e-01   -1,256185621e-01
       90350000   -7,586408854e-01   -1,256654561e-01
       90425000   -7,602247596e-01   -1,232625321e-01
       90500000   -7,603551149e-01   -1,223461255e-01
       90575000   -7,616318464e-01   -1,209828481e-01
       90650000   -7,619290352e-01   -1,188418493e-01
       90725000   -7,624788880e-01   -1,188223511e-01
       90800000   -7,632171512e-01   -1,170624718e-01
       90875000   -7,637113929e-01   -1,159175709e-01
       90950000   -7,654576898e-01   -1,147056073e-01
       91025000   -7,660291195e-01   -1,125672832e-01
       91100000   -7,672463655e-01   -1,134270504e-01
       91175000   -7,687966228e-01   -1,096951514e-01
       91250000   -7,681546211e-01   -1,078596190e-01
       91325000   -7,711604834e-01   -1,069850475e-01
       91400000   -7,721492052e-01   -1,041107252e-01
       91475000   -7,727947235e-01   -1,028022245e-01
       91550000   -7,748456597e-01   -9,910865128e-02
       91625000   -7,766411901e-01   -9,726612270e-02
       91700000   -7,765883803e-01   -9,445866942e-02
       91775000   -7,783603668e-01   -9,248385578e-02
       91850000   -7,785251141e-01   -8,807918429e-02
       91925000   -7,804566026e-01   -8,639786392e-02
