! NanoVNA-App
! Date: 2025-08-02 16:34:33
! Start: 65MHz Stop: 95MHz Points: 401
! S-Parameter data: F S11
# Hz S RI R 50
!     Frequency           S11_Real           S11_Imag
       65000000   -5,865662694e-01   -5,604282022e-01
       65075000   -5,939903259e-01   -5,674065948e-01
       65150000   -5,959948301e-01   -5,654533505e-01
       65225000   -5,958048701e-01   -5,583773255e-01
       65300000   -5,963086486e-01   -5,561237335e-01
       65375000   -5,992640853e-01   -5,506621599e-01
       65450000   -5,988044739e-01   -5,487999320e-01
       65525000   -5,995825529e-01   -5,433560014e-01
       65600000   -6,013819575e-01   -5,380287766e-01
       65675000   -6,011316180e-01   -5,361767411e-01
       65750000   -6,032617688e-01   -5,319150686e-01
       65825000   -6,006801724e-01   -5,290553570e-01
       65900000   -6,022635698e-01   -5,266613364e-01
       65975000   -6,016248465e-01   -5,217246413e-01
       66050000   -6,036890745e-01   -5,190229416e-01
       66125000   -6,049921513e-01   -5,125489831e-01
       66200000   -6,027495861e-01   -5,119735003e-01
       66275000   -6,031482816e-01   -5,067096949e-01
       66350000   -6,063601971e-01   -5,025532246e-01
       66425000   -6,039195657e-01   -5,011349916e-01
       66500000   -6,060885787e-01   -4,971391559e-01
       66575000   -6,036320925e-01   -4,940936267e-01
       66650000   -6,052309871e-01   -4,913384914e-01
       66725000   -6,049199700e-01   -4,845385551e-01
       66800000   -6,039044261e-01   -4,825361669e-01
       66875000   -6,049863100e-01   -4,770014286e-01
       66950000   -6,038159728e-01   -4,753729105e-01
       67025000   -6,043296456e-01   -4,725195467e-01
       67100000   -6,058877707e-01   -4,681311548e-01
       67175000   -6,053239107e-01   -4,677383900e-01
       67250000   -6,054759622e-01   -4,628244638e-01
       67325000   -6,074030995e-01   -4,595840871e-01
       67400000   -6,044765115e-01   -4,561634660e-01
       67475000   -6,044217348e-01   -4,519721568e-01
       67550000   -6,061760187e-01   -4,474071264e-01
       67625000   -6,051153541e-01   -4,447805583e-01
       67700000   -6,047178507e-01   -4,406255782e-01
       67775000   -6,031502485e-01   -4,358594120e-01
       67850000   -6,020923853e-01   -4,340386093e-01
       67925000   -6,029053330e-01   -4,301329255e-01
       68000000   -6,008003354e-01   -4,271192849e-01
       68075000   -6,027462482e-01   -4,252941608e-01
       68150000   -5,995250940e-01   -4,218024611e-01
       68225000   -5,997861028e-01   -4,196571112e-01
       68300000   -5,981859565e-01   -4,141949415e-01
       68375000   -5,974541306e-01   -4,130494893e-01
       68450000   -5,979993343e-01   -4,082926512e-01
       68525000   -5,948396921e-01   -4,063687623e-01
       68600000   -5,956616402e-01   -4,017360508e-01
       68675000   -5,941184163e-01   -4,003058970e-01
       68750000   -5,948198438e-01   -3,979562223e-01
       68825000   -5,911315680e-01   -3,953435421e-01
       68900000   -5,920259356e-01   -3,941995502e-01
       68975000   -5,889442563e-01   -3,914027512e-01
       69050000   -5,904827714e-01   -3,890780210e-01
       69125000   -5,872982144e-01   -3,867992461e-01
       69200000   -5,878964067e-01   -3,840469122e-01
       69275000   -5,852291584e-01   -3,821117580e-01
       69350000   -5,856695771e-01   -3,804959953e-01
       69425000   -5,832637548e-01   -3,775261641e-01
       69500000   -5,846554637e-01   -3,758864701e-01
       69575000   -5,814253092e-01   -3,735882044e-01
       69650000   -5,820227265e-01   -3,722924292e-01
       69725000   -5,799207091e-01   -3,687181771e-01
       69800000   -5,802689791e-01   -3,674222529e-01
       69875000   -5,778999329e-01   -3,653073907e-01
       69950000   -5,782618523e-01   -3,630537689e-01
       70025000   -5,780978203e-01   -3,627224267e-01
       70100000   -5,790641308e-01   -3,580783010e-01
       70175000   -5,771465302e-01   -3,587232232e-01
       70250000   -5,773050189e-01   -3,576962650e-01
       70325000   -5,757591128e-01   -3,541740179e-01
       70400000   -5,767809749e-01   -3,523185253e-01
       70475000   -5,749756694e-01   -3,497452736e-01
       70550000   -5,750361681e-01   -3,487103581e-01
       70625000   -5,764441490e-01   -3,487019837e-01
       70700000   -5,737113953e-01   -3,443078995e-01
       70775000   -5,741201639e-01   -3,440589905e-01
       70850000   -5,735701323e-01   -3,412087858e-01
       70925000   -5,730454922e-01   -3,400604129e-01
       71000000   -5,738573670e-01   -3,388619125e-01
       71075000   -5,720959306e-01   -3,348903358e-01
       71150000   -5,719835758e-01   -3,339083791e-01
       71225000   -5,709409118e-01   -3,307791948e-01
       71300000   -5,724572539e-01   -3,273008168e-01
       71375000   -5,707463026e-01   -3,295523226e-01
       71450000   -5,709585547e-01   -3,262766600e-01
       71525000   -5,704550147e-01   -3,257960975e-01
       71600000   -5,695582628e-01   -3,208044469e-01
       71675000   -5,679340959e-01   -3,203913569e-01
       71750000   -5,686087608e-01   -3,199713230e-01
       71825000   -5,662750006e-01   -3,173236251e-01
       71900000   -5,676817298e-01   -3,154145777e-01
       71975000   -5,677958727e-01   -3,129547536e-01
       72050000   -5,666384697e-01   -3,109349906e-01
       72125000   -5,646037459e-01   -3,079469502e-01
       72200000   -5,653232336e-01   -3,072470725e-01
       72275000   -5,633648038e-01   -3,070112467e-01
       72350000   -5,644252896e-01   -3,068742454e-01
       72425000   -5,623887777e-01   -3,041233420e-01
       72500000   -5,624174476e-01   -3,023193181e-01
       72575000   -5,610594749e-01   -3,008275628e-01
       72650000   -5,613421798e-01   -3,000907302e-01
       72725000   -5,614565015e-01   -2,989817858e-01
       72800000   -5,598660707e-01   -2,982562482e-01
       72875000   -5,614987016e-01   -2,960359156e-01
       72950000   -5,583393574e-01   -2,953110933e-01
       73025000   -5,587150455e-01   -2,944521308e-01
       73100000   -5,585842729e-01   -2,928693593e-01
       73175000   -5,593676567e-01   -2,904892564e-01
       73250000   -5,574415326e-01   -2,888272405e-01
       73325000   -5,581206679e-01   -2,884799540e-01
       73400000   -5,584851503e-01   -2,875312269e-01
       73475000   -5,561723709e-01   -2,864691019e-01
       73550000   -5,585648417e-01   -2,861239016e-01
       73625000   -5,573232770e-01   -2,826040983e-01
       73700000   -5,571927428e-01   -2,828099728e-01
       73775000   -5,581561923e-01   -2,793854773e-01
       73850000   -5,570517778e-01   -2,799455822e-01
       73925000   -5,587974191e-01   -2,787534595e-01
       74000000   -5,578434467e-01   -2,777687311e-01
       74075000   -5,588992238e-01   -2,760307491e-01
       74150000   -5,589347482e-01   -2,742094398e-01
       74225000   -5,586352348e-01   -2,720373869e-01
       74300000   -5,576287508e-01   -2,718613744e-01
       74375000   -5,596622825e-01   -2,697933614e-01
       74450000   -5,584999323e-01   -2,689315677e-01
       74525000   -5,608212352e-01   -2,681764960e-01
       74600000   -5,585651994e-01   -2,669512928e-01
       74675000   -5,597382188e-01   -2,654140890e-01
       74750000   -5,596721768e-01   -2,618162036e-01
       74825000   -5,597947836e-01   -2,629228234e-01
       74900000   -5,614953637e-01   -2,599760592e-01
       74975000   -5,605162382e-01   -2,589674890e-01
       75050000   -5,622438192e-01   -2,584259510e-01
       75125000   -5,609725118e-01   -2,573076785e-01
       75200000   -5,625916123e-01   -2,554641664e-01
       75275000   -5,613188744e-01   -2,550045252e-01
       75350000   -5,630840063e-01   -2,531729341e-01
       75425000   -5,629577637e-01   -2,498787045e-01
       75500000   -5,629293323e-01   -2,503583133e-01
       75575000   -5,641300082e-01   -2,471258342e-01
       75650000   -5,637781024e-01   -2,465351075e-01
       75725000   -5,643725991e-01   -2,445820421e-01
       75800000   -5,648695827e-01   -2,442272007e-01
       75875000   -5,646798611e-01   -2,402237505e-01
       75950000   -5,655386448e-01   -2,414102405e-01
       76025000   -5,662965775e-01   -2,404159009e-01
       76100000   -5,658312440e-01   -2,371581644e-01
       76175000   -5,680349469e-01   -2,365437299e-01
       76250000   -5,685424209e-01   -2,338513285e-01
       76325000   -5,675823092e-01   -2,335054427e-01
       76400000   -5,687478185e-01   -2,300268412e-01
       76475000   -5,684735179e-01   -2,305628061e-01
       76550000   -5,693930984e-01   -2,287709564e-01
       76625000   -5,715922117e-01   -2,257042378e-01
       76700000   -5,715270042e-01   -2,246119976e-01
       76775000   -5,718249679e-01   -2,241222560e-01
       76850000   -5,729712248e-01   -2,203460634e-01
       76925000   -5,726621747e-01   -2,201289088e-01
       77000000   -5,747807026e-01   -2,185848802e-01
       77075000   -5,756993294e-01   -2,163452208e-01
       77150000   -5,768208504e-01   -2,137426585e-01
       77225000   -5,763753057e-01   -2,124777585e-01
       77300000   -5,763700008e-01   -2,112817019e-01
       77375000   -5,784404278e-01   -2,077349871e-01
       77450000   -5,786431432e-01   -2,077705711e-01
       77525000   -5,794514418e-01   -2,053135186e-01
       77600000   -5,819939971e-01   -2,016785741e-01
       77675000   -5,816670656e-01   -2,014857680e-01
       77750000   -5,827362537e-01   -1,993339956e-01
       77825000   -5,838499665e-01   -1,960230917e-01
       77900000   -5,839852095e-01   -1,948411614e-01
       77975000   -5,855983496e-01   -1,924462169e-01
       78050000   -5,866001844e-01   -1,884570867e-01
       78125000   -5,877107382e-01   -1,878056377e-01
       78200000   -5,886207223e-01   -1,857308745e-01
       78275000   -5,902366638e-01   -1,814329028e-01
       78350000   -5,893625021e-01   -1,801106930e-01
       78425000   -5,909327865e-01   -1,784451008e-01
       78500000   -5,927093625e-01   -1,738499999e-01
       78575000   -5,921238661e-01   -1,711228937e-01
       78650000   -5,942984819e-01   -1,696573049e-01
       78725000   -5,951586962e-01   -1,652620733e-01
       78800000   -5,949941874e-01   -1,624657363e-01
       78875000   -5,971121788e-01   -1,607066989e-01
       78950000   -5,961833596e-01   -1,563270986e-01
       79025000   -5,971862674e-01   -1,544253081e-01
       79100000   -5,976842642e-01   -1,496450454e-01
       79175000   -5,983454585e-01   -1,483895928e-01
       79250000   -5,991896987e-01   -1,437228918e-01
       79325000   -5,990858674e-01   -1,405370981e-01
       79400000   -6,008944511e-01   -1,372838020e-01
       79475000   -6,004556417e-01   -1,332740486e-01
       79550000   -6,004540324e-01   -1,312710792e-01
       79625000   -6,015333533e-01   -1,265071183e-01
       79700000   -6,006563306e-01   -1,244941726e-01
       79775000   -6,015014052e-01   -1,204342544e-01
       79850000   -6,010009050e-01   -1,159368977e-01
       79925000   -6,003947854e-01   -1,129959077e-01
       80000000   -6,014363766e-01   -1,068425030e-01
       80075000   -6,008052230e-01   -1,044996157e-01
       80150000   -5,998848677e-01   -1,027250811e-01
       80225000   -6,000798345e-01   -9,848031402e-02
       80300000   -5,994730592e-01   -9,346032888e-02
       80375000   -5,991023779e-01   -9,169699997e-02
       80450000   -5,987945199e-01   -8,805571496e-02
       80525000   -5,979229808e-01   -8,600234985e-02
       80600000   -5,974434614e-01   -8,080271631e-02
       80675000   -5,953209400e-01   -7,725355774e-02
       80750000   -5,961194038e-01   -7,430988550e-02
       80825000   -5,947977901e-01   -6,903639436e-02
       80900000   -5,934652686e-01   -6,693894416e-02
       80975000   -5,929367542e-01   -6,342764944e-02
       81050000   -5,914422274e-01   -6,009561568e-02
       81125000   -5,902661085e-01   -5,773137882e-02
       81200000   -5,902040601e-01   -5,209418759e-02
       81275000   -5,883810520e-01   -5,106937885e-02
       81350000   -5,875418782e-01   -4,703227431e-02
       81425000   -5,853835940e-01   -4,431394115e-02
       81500000   -5,849802494e-01   -4,151713848e-02
       81575000   -5,824853778e-01   -3,852817416e-02
       81650000   -5,816107392e-01   -3,581083938e-02
       81725000   -5,805867910e-01   -3,363857418e-02
       81800000   -5,792611837e-01   -2,948538586e-02
       81875000   -5,775434971e-01   -2,766430005e-02
       81950000   -5,765623450e-01   -2,395521849e-02
       82025000   -5,748797655e-01   -2,296176367e-02
       82100000   -5,735191107e-01   -1,953444816e-02
       82175000   -5,714142919e-01   -1,778448373e-02
       82250000   -5,711514950e-01   -1,411332563e-02
       82325000   -5,694006085e-01   -1,078173984e-02
       82400000   -5,694675446e-01   -9,951466694e-03
       82475000   -5,677576661e-01   -6,275879219e-03
       82550000   -5,668348074e-01   -4,409679677e-03
       82625000   -5,645926595e-01   -1,150559285e-03
       82700000   -5,643572211e-01    5,405988195e-04
       82775000   -5,624961853e-01    4,048446193e-03
       82850000   -5,620610714e-01    4,596891347e-03
       82925000   -5,611687303e-01    8,416333236e-03
       83000000   -5,600333810e-01    9,623995982e-03
       83075000   -5,590843558e-01    1,317629125e-02
       83150000   -5,580021143e-01    1,458427403e-02
       83225000   -5,577408075e-01    1,766071096e-02
       83300000   -5,561592579e-01    1,854803413e-02
       83375000   -5,554954410e-01    2,267445996e-02
       83450000   -5,535209179e-01    2,451867238e-02
       83525000   -5,541613698e-01    2,668979578e-02
       83600000   -5,514964461e-01    2,956875600e-02
       83675000   -5,514584184e-01    3,180353343e-02
       83750000   -5,506949425e-01    3,585148230e-02
       83825000   -5,496072173e-01    3,652513400e-02
       83900000   -5,491754413e-01    4,030778259e-02
       83975000   -5,482918024e-01    4,267812893e-02
       84050000   -5,481522679e-01    4,544813186e-02
       84125000   -5,470503569e-01    4,930713400e-02
       84200000   -5,454602838e-01    4,979307950e-02
       84275000   -5,451937318e-01    5,543410033e-02
       84350000   -5,431446433e-01    5,645875260e-02
       84425000   -5,434399843e-01    5,972307175e-02
       84500000   -5,425477624e-01    6,288104504e-02
       84575000   -5,410759449e-01    6,463541836e-02
       84650000   -5,399097204e-01    6,829515845e-02
       84725000   -5,392073989e-01    7,124905288e-02
       84800000   -5,383561850e-01    7,484922558e-02
       84875000   -5,370661616e-01    7,755438238e-02
       84950000   -5,366818905e-01    8,009838313e-02
       85025000   -5,359784961e-01    8,349733800e-02
       85100000   -5,347208977e-01    8,603482693e-02
       85175000   -5,327061415e-01    8,907283098e-02
       85250000   -5,318441391e-01    9,315660596e-02
       85325000   -5,305410028e-01    9,691472352e-02
       85400000   -5,309154391e-01    1,001092568e-01
       85475000   -5,282950401e-01    1,039135978e-01
       85550000   -5,270791650e-01    1,072377563e-01
       85625000   -5,254784226e-01    1,094992235e-01
       85700000   -5,245800018e-01    1,137162894e-01
       85775000   -5,231363177e-01    1,178754419e-01
       85850000   -5,216614008e-01    1,204039603e-01
       85925000   -5,209083557e-01    1,241661832e-01
       86000000   -5,194001794e-01    1,288592815e-01
       86075000   -5,172917843e-01    1,317611784e-01
       86150000   -5,157834888e-01    1,353303045e-01
       86225000   -5,135907531e-01    1,382629871e-01
       86300000   -5,124440789e-01    1,435532123e-01
       86375000   -5,101138949e-01    1,473414749e-01
       86450000   -5,088893175e-01    1,499582231e-01
       86525000   -5,054675341e-01    1,544759125e-01
       86600000   -5,031062961e-01    1,584112197e-01
       86675000   -5,022757053e-01    1,626520753e-01
       86750000   -4,992409647e-01    1,662287116e-01
       86825000   -4,957423508e-01    1,693089157e-01
       86900000   -4,944059253e-01    1,714868098e-01
       86975000   -4,923784733e-01    1,749141961e-01
       87050000   -4,886162281e-01    1,805453151e-01
       87125000   -4,873728156e-01    1,837633699e-01
       87200000   -4,853822589e-01    1,865468919e-01
       87275000   -4,811604321e-01    1,905867010e-01
       87350000   -4,796963334e-01    1,944793910e-01
       87425000   -4,774356186e-01    1,973637938e-01
       87500000   -4,744810462e-01    2,007605731e-01
       87575000   -4,720960557e-01    2,034658045e-01
       87650000   -4,683185220e-01    2,079953104e-01
       87725000   -4,618951380e-01    2,101657987e-01
       87800000   -4,589588940e-01    2,146555781e-01
       87875000   -4,567317665e-01    2,190396339e-01
       87950000   -4,557600915e-01    2,200828642e-01
       88025000   -4,526766539e-01    2,257618010e-01
       88100000   -4,490713179e-01    2,281584144e-01
       88175000   -4,446974993e-01    2,305851728e-01
       88250000   -4,403484762e-01    2,348089367e-01
       88325000   -4,403635859e-01    2,370830476e-01
       88400000   -4,367930889e-01    2,397364378e-01
       88475000   -4,330216944e-01    2,436221391e-01
       88550000   -4,297933877e-01    2,463711053e-01
       88625000   -4,246254861e-01    2,520377934e-01
       88700000   -4,224507809e-01    2,530261576e-01
       88775000   -4,189069271e-01    2,583095729e-01
       88850000   -4,149844944e-01    2,592402101e-01
       88925000   -4,102130532e-01    2,657927871e-01
       89000000   -4,062891603e-01    2,682156861e-01
       89075000   -4,043344855e-01    2,722859681e-01
       89150000   -3,999673426e-01    2,755099833e-01
       89225000   -3,981568217e-01    2,780139446e-01
       89300000   -3,925191164e-01    2,803059220e-01
       89375000   -3,882914782e-01    2,849720120e-01
       89450000   -3,838565350e-01    2,883876562e-01
       89525000   -3,768215477e-01    2,899369001e-01
       89600000   -3,729065955e-01    2,942598760e-01
       89675000   -3,695966303e-01    2,960629761e-01
       89750000   -3,641241193e-01    2,985689938e-01
       89825000   -3,616836667e-01    3,029374778e-01
       89900000   -3,569355607e-01    3,058143854e-01
       89975000   -3,510095179e-01    3,089473248e-01
       90050000   -3,456046879e-01    3,111251593e-01
       90125000   -3,382069767e-01    3,144388795e-01
       90200000   -3,337849677e-01    3,182962537e-01
       90275000   -3,302660286e-01    3,194624484e-01
       90350000   -3,245399296e-01    3,238777220e-01
       90425000   -3,110548556e-01    3,284435570e-01
       90500000   -3,110623658e-01    3,285802305e-01
       90575000   -3,077438474e-01    3,313610256e-01
       90650000   -2,987795472e-01    3,324100077e-01
       90725000   -2,952024341e-01    3,369089663e-01
       90800000   -2,904495001e-01    3,394030035e-01
       90875000   -2,837603688e-01    3,399705887e-01
       90950000   -2,779840231e-01    3,401908576e-01
       91025000   -2,705496252e-01    3,426880538e-01
       91100000   -2,648967505e-01    3,446219862e-01
       91175000   -2,569645643e-01    3,450448513e-01
       91250000   -2,504731715e-01    3,462442756e-01
       91325000   -2,435074896e-01    3,482455313e-01
       91400000   -2,372418344e-01    3,510417640e-01
       91475000   -2,300452292e-01    3,531451225e-01
       91550000   -2,244964242e-01    3,536456227e-01
       91625000   -2,180287242e-01    3,549518585e-01
       91700000   -2,116554677e-01    3,546499312e-01
       91775000   -2,057393640e-01    3,557850420e-01
       91850000   -1,984512806e-01    3,556404114e-01
       91925000   -1,920736879e-01    3,559738994e-01
