! NanoVNA-App
! Date: 2025-08-09 16:40:08
! Start: 65MHz Stop: 95MHz Points: 401
! S-Parameter data: F S11
# Hz S RI R 50
!     Frequency           S11_Real           S11_Imag
       65000000   -4,193857014e-01   -7,805868387e-01
       65075000   -4,243525565e-01   -7,920746207e-01
       65150000   -4,237369299e-01   -7,932162285e-01
       65225000   -4,255969524e-01   -7,883684039e-01
       65300000   -4,286828935e-01   -7,859142423e-01
       65375000   -4,329573512e-01   -7,856979966e-01
       65450000   -4,342897832e-01   -7,837443352e-01
       65525000   -4,351103306e-01   -7,821260691e-01
       65600000   -4,379642904e-01   -7,801584005e-01
       65675000   -4,388034642e-01   -7,798181176e-01
       65750000   -4,397085607e-01   -7,778201103e-01
       65825000   -4,385244846e-01   -7,734847665e-01
       65900000   -4,406823814e-01   -7,730827332e-01
       65975000   -4,432318807e-01   -7,701100707e-01
       66050000   -4,448461831e-01   -7,695967555e-01
       66125000   -4,488349855e-01   -7,698497176e-01
       66200000   -4,477890432e-01   -7,661447525e-01
       66275000   -4,520766437e-01   -7,634401917e-01
       66350000   -4,528413415e-01   -7,642540932e-01
       66425000   -4,524016678e-01   -7,606478930e-01
       66500000   -4,535086453e-01   -7,603552938e-01
       66575000   -4,543393552e-01   -7,557899356e-01
       66650000   -4,576037526e-01   -7,553005219e-01
       66725000   -4,625612497e-01   -7,536470294e-01
       66800000   -4,625181854e-01   -7,520154715e-01
       66875000   -4,659431577e-01   -7,508819103e-01
       66950000   -4,660198092e-01   -7,493688464e-01
       67025000   -4,673087001e-01   -7,474504709e-01
       67100000   -4,709392786e-01   -7,468341589e-01
       67175000   -4,691137969e-01   -7,410555482e-01
       67250000   -4,709692597e-01   -7,403422594e-01
       67325000   -4,760978520e-01   -7,367977500e-01
       67400000   -4,739122689e-01   -7,355440259e-01
       67475000   -4,780473411e-01   -7,343626618e-01
       67550000   -4,768272638e-01   -7,351378202e-01
       67625000   -4,789220989e-01   -7,310184240e-01
       67700000   -4,798336029e-01   -7,301723957e-01
       67775000   -4,840361476e-01   -7,309443355e-01
       67850000   -4,837220013e-01   -7,273755074e-01
       67925000   -4,853366613e-01   -7,279147506e-01
       68000000   -4,859654307e-01   -7,238736153e-01
       68075000   -4,889038205e-01   -7,229276299e-01
       68150000   -4,906294644e-01   -7,168309093e-01
       68225000   -4,926103950e-01   -7,195040584e-01
       68300000   -4,951213896e-01   -7,171628475e-01
       68375000   -4,953818917e-01   -7,154549360e-01
       68450000   -4,957314432e-01   -7,133553624e-01
       68525000   -4,953714311e-01   -7,104172111e-01
       68600000   -4,982030392e-01   -7,097244263e-01
       68675000   -5,010235310e-01   -7,033548951e-01
       68750000   -5,009453893e-01   -7,031589746e-01
       68825000   -5,065755248e-01   -6,967915893e-01
       68900000   -5,060892105e-01   -7,003690004e-01
       68975000   -5,088457465e-01   -6,989379525e-01
       69050000   -5,097308755e-01   -6,966905594e-01
       69125000   -5,115997195e-01   -6,958045363e-01
       69200000   -5,112726092e-01   -6,936282516e-01
       69275000   -5,149292946e-01   -6,914227605e-01
       69350000   -5,141046643e-01   -6,900074482e-01
       69425000   -5,165229440e-01   -6,891204119e-01
       69500000   -5,173261166e-01   -6,876668334e-01
       69575000   -5,178570747e-01   -6,857625842e-01
       69650000   -5,182228684e-01   -6,836593151e-01
       69725000   -5,191040635e-01   -6,824107170e-01
       69800000   -5,192685127e-01   -6,791250110e-01
       69875000   -5,205639601e-01   -6,786336899e-01
       69950000   -5,243536234e-01   -6,715679765e-01
       70025000   -5,230933428e-01   -6,735956073e-01
       70100000   -5,265989900e-01   -6,704359651e-01
       70175000   -5,287615657e-01   -6,707341075e-01
       70250000   -5,270937681e-01   -6,688283086e-01
       70325000   -5,283465981e-01   -6,675128937e-01
       70400000   -5,286128521e-01   -6,641445756e-01
       70475000   -5,307334661e-01   -6,617743373e-01
       70550000   -5,358552337e-01   -6,615830064e-01
       70625000   -5,336617231e-01   -6,614128947e-01
       70700000   -5,344732404e-01   -6,570611000e-01
       70775000   -5,368353724e-01   -6,540346742e-01
       70850000   -5,370254517e-01   -6,541626453e-01
       70925000   -5,403583646e-01   -6,547810435e-01
       71000000   -5,402331948e-01   -6,516678929e-01
       71075000   -5,414265394e-01   -6,490876675e-01
       71150000   -5,443474650e-01   -6,497235894e-01
       71225000   -5,473502874e-01   -6,468442678e-01
       71300000   -5,483956933e-01   -6,438408494e-01
       71375000   -5,506717563e-01   -6,438851357e-01
       71450000   -5,482285619e-01   -6,397100091e-01
       71525000   -5,493776202e-01   -6,392901540e-01
       71600000   -5,537049174e-01   -6,354624033e-01
       71675000   -5,529428124e-01   -6,352421045e-01
       71750000   -5,530214310e-01   -6,330480576e-01
       71825000   -5,552363992e-01   -6,310444474e-01
       71900000   -5,553549528e-01   -6,288325191e-01
       71975000   -5,571371317e-01   -6,273719668e-01
       72050000   -5,606145859e-01   -6,235273480e-01
       72125000   -5,612579584e-01   -6,238909364e-01
       72200000   -5,604404807e-01   -6,221271157e-01
       72275000   -5,618119240e-01   -6,201850772e-01
       72350000   -5,616340041e-01   -6,179378033e-01
       72425000   -5,638448596e-01   -6,163425446e-01
       72500000   -5,638881922e-01   -6,151107550e-01
       72575000   -5,650441647e-01   -6,131309867e-01
       72650000   -5,679680109e-01   -6,083682775e-01
       72725000   -5,668222904e-01   -6,097874641e-01
       72800000   -5,684219599e-01   -6,084997058e-01
       72875000   -5,691379309e-01   -6,053655148e-01
       72950000   -5,703464150e-01   -6,055342555e-01
       73025000   -5,721618533e-01   -6,050532460e-01
       73100000   -5,754061341e-01   -5,998327732e-01
       73175000   -5,730198026e-01   -6,008616686e-01
       73250000   -5,755901337e-01   -5,964105129e-01
       73325000   -5,762222409e-01   -5,965719819e-01
       73400000   -5,768628120e-01   -5,938587189e-01
       73475000   -5,786038041e-01   -5,917341709e-01
       73550000   -5,817993283e-01   -5,894170403e-01
       73625000   -5,830632448e-01   -5,883673429e-01
       73700000   -5,852475166e-01   -5,879135728e-01
       73775000   -5,866228938e-01   -5,867044330e-01
       73850000   -5,872244835e-01   -5,871562958e-01
       73925000   -5,861929655e-01   -5,802376866e-01
       74000000   -5,877337456e-01   -5,816736221e-01
       74075000   -5,906807780e-01   -5,767496228e-01
       74150000   -5,912142396e-01   -5,787755847e-01
       74225000   -5,925016999e-01   -5,772225261e-01
       74300000   -5,947151780e-01   -5,759189725e-01
       74375000   -5,944193006e-01   -5,736215115e-01
       74450000   -5,966183543e-01   -5,687054992e-01
       74525000   -5,984298587e-01   -5,659916997e-01
       74600000   -5,989776254e-01   -5,646912456e-01
       74675000   -6,021865010e-01   -5,655383468e-01
       74750000   -6,015692949e-01   -5,643770099e-01
       74825000   -6,025196314e-01   -5,630996227e-01
       74900000   -6,022140980e-01   -5,589764118e-01
       74975000   -6,038675904e-01   -5,560534596e-01
       75050000   -6,071988344e-01   -5,541235805e-01
       75125000   -6,074676514e-01   -5,523428917e-01
       75200000   -6,099414229e-01   -5,505450368e-01
       75275000   -6,107561588e-01   -5,478668213e-01
       75350000   -6,125020385e-01   -5,464853644e-01
       75425000   -6,112754941e-01   -5,477111936e-01
       75500000   -6,128892303e-01   -5,452330709e-01
       75575000   -6,135457158e-01   -5,426686406e-01
       75650000   -6,147040725e-01   -5,406998992e-01
       75725000   -6,152198315e-01   -5,386622548e-01
       75800000   -6,175195575e-01   -5,379214883e-01
       75875000   -6,170055866e-01   -5,350838900e-01
       75950000   -6,197979450e-01   -5,336918831e-01
       76025000   -6,219120622e-01   -5,315374136e-01
       76100000   -6,215742230e-01   -5,298033357e-01
       76175000   -6,231095195e-01   -5,285717845e-01
       76250000   -6,219922304e-01   -5,257728100e-01
       76325000   -6,246266365e-01   -5,241356492e-01
       76400000   -6,236209869e-01   -5,217019916e-01
       76475000   -6,274201870e-01   -5,190707445e-01
       76550000   -6,261206865e-01   -5,180389881e-01
       76625000   -6,269611716e-01   -5,140532255e-01
       76700000   -6,279664636e-01   -5,138323903e-01
       76775000   -6,304101944e-01   -5,140181184e-01
       76850000   -6,301230192e-01   -5,095871091e-01
       76925000   -6,324450374e-01   -5,107357502e-01
       77000000   -6,345680952e-01   -5,091013312e-01
       77075000   -6,367502213e-01   -5,053372383e-01
       77150000   -6,359018087e-01   -5,026767254e-01
       77225000   -6,359995604e-01   -5,034686923e-01
       77300000   -6,376724839e-01   -5,011349916e-01
       77375000   -6,383987069e-01   -4,971728623e-01
       77450000   -6,414417028e-01   -4,959195852e-01
       77525000   -6,417886615e-01   -4,936755598e-01
       77600000   -6,443158388e-01   -4,917124808e-01
       77675000   -6,458984613e-01   -4,904536903e-01
       77750000   -6,473238468e-01   -4,908438921e-01
       77825000   -6,461617351e-01   -4,857751131e-01
       77900000   -6,488240361e-01   -4,868848622e-01
       77975000   -6,494907141e-01   -4,843922853e-01
       78050000   -6,493896842e-01   -4,805535376e-01
       78125000   -6,521787047e-01   -4,804681838e-01
       78200000   -6,527106166e-01   -4,786666632e-01
       78275000   -6,562684774e-01   -4,750528932e-01
       78350000   -6,540340185e-01   -4,757429063e-01
       78425000   -6,564897299e-01   -4,738611579e-01
       78500000   -6,579817533e-01   -4,714193642e-01
       78575000   -6,570578218e-01   -4,677119851e-01
       78650000   -6,590859294e-01   -4,672314823e-01
       78725000   -6,622823477e-01   -4,649766684e-01
       78800000   -6,609753966e-01   -4,631782174e-01
       78875000   -6,622787118e-01   -4,612584412e-01
       78950000   -6,629642248e-01   -4,582835436e-01
       79025000   -6,644971371e-01   -4,558914006e-01
       79100000   -6,656550765e-01   -4,523028135e-01
       79175000   -6,688276529e-01   -4,542760849e-01
       79250000   -6,706261039e-01   -4,526808262e-01
       79325000   -6,695038676e-01   -4,497772157e-01
       79400000   -6,719471812e-01   -4,480808079e-01
       79475000   -6,721447706e-01   -4,429569840e-01
       79550000   -6,751997471e-01   -4,431672990e-01
       79625000   -6,773132086e-01   -4,408038259e-01
       79700000   -6,762997508e-01   -4,390716255e-01
       79775000   -6,772774458e-01   -4,364675581e-01
       79850000   -6,804439425e-01   -4,345560074e-01
       79925000   -6,797978878e-01   -4,309163988e-01
       80000000   -6,787488461e-01   -4,305182099e-01
       80075000   -6,857830286e-01   -4,277620018e-01
       80150000   -6,837396026e-01   -4,257141650e-01
       80225000   -6,841419339e-01   -4,211005270e-01
       80300000   -6,883412004e-01   -4,194882512e-01
       80375000   -6,897732615e-01   -4,193894267e-01
       80450000   -6,901495457e-01   -4,158816338e-01
       80525000   -6,898950338e-01   -4,153304696e-01
       80600000   -6,926825047e-01   -4,137957692e-01
       80675000   -6,921707392e-01   -4,098232090e-01
       80750000   -6,943548322e-01   -4,052966535e-01
       80825000   -6,969168782e-01   -4,057774544e-01
       80900000   -6,970589161e-01   -4,036441445e-01
       80975000   -6,975284815e-01   -3,987625241e-01
       81050000   -7,009987235e-01   -3,985942006e-01
       81125000   -7,012273073e-01   -3,959900439e-01
       81200000   -7,030590177e-01   -3,935453892e-01
       81275000   -7,029761672e-01   -3,915604055e-01
       81350000   -7,052744031e-01   -3,894183636e-01
       81425000   -7,040895224e-01   -3,840602636e-01
       81500000   -7,049010992e-01   -3,823378980e-01
       81575000   -7,061454654e-01   -3,783509135e-01
       81650000   -7,086151838e-01   -3,803076446e-01
       81725000   -7,105585337e-01   -3,744956851e-01
       81800000   -7,115132809e-01   -3,722003400e-01
       81875000   -7,114445567e-01   -3,712445796e-01
       81950000   -7,123936415e-01   -3,682812154e-01
       82025000   -7,130010724e-01   -3,658888340e-01
       82100000   -7,151231766e-01   -3,632456660e-01
       82175000   -7,140532732e-01   -3,585855365e-01
       82250000   -7,169761062e-01   -3,570488095e-01
       82325000   -7,180469036e-01   -3,526132703e-01
       82400000   -7,194563150e-01   -3,520990014e-01
       82475000   -7,208567262e-01   -3,493060768e-01
       82550000   -7,216048241e-01   -3,478981853e-01
       82625000   -7,234698534e-01   -3,441269100e-01
       82700000   -7,231162190e-01   -3,421929181e-01
       82775000   -7,250158787e-01   -3,385666013e-01
       82850000   -7,244910002e-01   -3,364983797e-01
       82925000   -7,268751264e-01   -3,337412477e-01
       83000000   -7,270115018e-01   -3,306168616e-01
       83075000   -7,281003594e-01   -3,277782202e-01
       83150000   -7,277887464e-01   -3,257277310e-01
       83225000   -7,296728492e-01   -3,215070367e-01
       83300000   -7,296830416e-01   -3,180196881e-01
       83375000   -7,326472402e-01   -3,157767951e-01
       83450000   -7,339808941e-01   -3,111597896e-01
       83525000   -7,339738607e-01   -3,086847961e-01
       83600000   -7,350066900e-01   -3,053194284e-01
       83675000   -7,340986133e-01   -3,022632599e-01
       83750000   -7,363672853e-01   -2,997395992e-01
       83825000   -7,366395593e-01   -2,945160270e-01
       83900000   -7,371894121e-01   -2,913786769e-01
       83975000   -7,386888266e-01   -2,904931307e-01
       84050000   -7,383294702e-01   -2,883160412e-01
       84125000   -7,399191260e-01   -2,842821777e-01
       84200000   -7,393764257e-01   -2,788889408e-01
       84275000   -7,402704954e-01   -2,773646116e-01
       84350000   -7,420317531e-01   -2,738786638e-01
       84425000   -7,414491177e-01   -2,719974220e-01
       84500000   -7,426725030e-01   -2,682543099e-01
       84575000   -7,413761020e-01   -2,631752491e-01
       84650000   -7,427306771e-01   -2,600888014e-01
       84725000   -7,441513538e-01   -2,582351565e-01
       84800000   -7,432693243e-01   -2,547648847e-01
       84875000   -7,445700765e-01   -2,515362501e-01
       84950000   -7,432650328e-01   -2,462906390e-01
       85025000   -7,434683442e-01   -2,438491881e-01
       85100000   -7,442115545e-01   -2,405901402e-01
       85175000   -7,453169227e-01   -2,367050201e-01
       85250000   -7,443171144e-01   -2,340026945e-01
       85325000   -7,442882061e-01   -2,311614901e-01
       85400000   -7,435930371e-01   -2,266787887e-01
       85475000   -7,444664836e-01   -2,232636660e-01
       85550000   -7,439493537e-01   -2,202697545e-01
       85625000   -7,438628078e-01   -2,153206617e-01
       85700000   -7,428630590e-01   -2,139995098e-01
       85775000   -7,436944246e-01   -2,091532201e-01
       85850000   -7,439289689e-01   -2,072044760e-01
       85925000   -7,420409322e-01   -2,017265409e-01
       86000000   -7,415140271e-01   -1,996801943e-01
       86075000   -7,416047454e-01   -1,951878071e-01
       86150000   -7,397046685e-01   -1,945730448e-01
       86225000   -7,397683859e-01   -1,907117814e-01
       86300000   -7,396408916e-01   -1,870343238e-01
       86375000   -7,396810651e-01   -1,837135553e-01
       86450000   -7,377127409e-01   -1,793884188e-01
       86525000   -7,360506058e-01   -1,782161295e-01
       86600000   -7,371417880e-01   -1,741278023e-01
       86675000   -7,342451811e-01   -1,700288653e-01
       86750000   -7,342337370e-01   -1,676844656e-01
       86825000   -7,340528369e-01   -1,649439931e-01
       86900000   -7,322100401e-01   -1,624900103e-01
       86975000   -7,323743105e-01   -1,601419300e-01
       87050000   -7,297840714e-01   -1,561454386e-01
       87125000   -7,292111516e-01   -1,543101817e-01
       87200000   -7,287923098e-01   -1,521177739e-01
       87275000   -7,259266376e-01   -1,494679600e-01
       87350000   -7,252269983e-01   -1,466787905e-01
       87425000   -7,253445983e-01   -1,442423314e-01
       87500000   -7,254618406e-01   -1,437881291e-01
       87575000   -7,233140469e-01   -1,408866942e-01
       87650000   -7,222095132e-01   -1,372161806e-01
       87725000   -7,215856314e-01   -1,343122870e-01
       87800000   -7,192267776e-01   -1,328110695e-01
       87875000   -7,189818621e-01   -1,312167048e-01
       87950000   -7,181519270e-01   -1,292566955e-01
       88025000   -7,181203961e-01   -1,250739843e-01
       88100000   -7,169036865e-01   -1,246496141e-01
       88175000   -7,159502506e-01   -1,213793680e-01
       88250000   -7,133609653e-01   -1,203277409e-01
       88325000   -7,143708467e-01   -1,195053011e-01
       88400000   -7,137290835e-01   -1,164466366e-01
       88475000   -7,124593258e-01   -1,154565364e-01
       88550000   -7,122569680e-01   -1,120637879e-01
       88625000   -7,108824253e-01   -1,084494516e-01
       88700000   -7,087985873e-01   -1,075295582e-01
       88775000   -7,100962400e-01   -1,059519053e-01
       88850000   -7,094117403e-01   -1,036989540e-01
       88925000   -7,081695795e-01   -1,009572446e-01
       89000000   -7,074617743e-01   -9,882279485e-02
       89075000   -7,064860463e-01   -9,772644937e-02
       89150000   -7,048759460e-01   -9,668278694e-02
       89225000   -7,046951652e-01   -9,462924302e-02
       89300000   -7,017067671e-01   -9,320186824e-02
       89375000   -7,017188668e-01   -9,067269415e-02
       89450000   -7,007402778e-01   -9,014975280e-02
       89525000   -7,014175653e-01   -8,809550852e-02
       89600000   -7,001173496e-01   -8,546929806e-02
       89675000   -7,002344728e-01   -8,527021855e-02
       89750000   -6,994665861e-01   -8,316402882e-02
       89825000   -6,983568668e-01   -8,292841166e-02
       89900000   -6,965543032e-01   -8,206993341e-02
       89975000   -6,973063350e-01   -8,053342998e-02
       90050000   -6,969038248e-01   -8,017934859e-02
       90125000   -6,985003948e-01   -7,960842550e-02
       90200000   -6,984161139e-01   -7,768139988e-02
       90275000   -6,975771189e-01   -7,717712969e-02
       90350000   -6,990653276e-01   -7,544547319e-02
       90425000   -6,992297769e-01   -7,374860346e-02
       90500000   -7,004762888e-01   -7,476381958e-02
       90575000   -7,010801435e-01   -7,347024977e-02
       90650000   -7,025787234e-01   -7,136569172e-02
       90725000   -7,021728754e-01   -7,210883498e-02
       90800000   -7,046828270e-01   -6,924551725e-02
       90875000   -7,051311135e-01   -6,677433848e-02
       90950000   -7,082840204e-01   -6,445188820e-02
       91025000   -7,076118588e-01   -6,201356277e-02
       91100000   -7,106276155e-01   -5,944868922e-02
       91175000   -7,114785314e-01   -5,550427735e-02
       91250000   -7,137011290e-01   -5,531943962e-02
       91325000   -7,149262428e-01   -5,180327967e-02
       91400000   -7,154881358e-01   -5,126022547e-02
       91475000   -7,165619135e-01   -4,829674587e-02
       91550000   -7,173780203e-01   -4,511998594e-02
       91625000   -7,190162539e-01   -4,097477347e-02
       91700000   -7,199717760e-01   -3,800544888e-02
       91775000   -7,217187881e-01   -3,299202397e-02
       91850000   -7,219498158e-01   -2,977994271e-02
       91925000   -7,249906659e-01   -2,584455162e-02
