! NanoVNA-App
! Date: 2025-08-09 13:16:39
! Start: 65MHz Stop: 95MHz Points: 401
! S-Parameter data: F S11
# Hz S RI R 50
!     Frequency           S11_Real           S11_Imag
       65000000   -6,551556587e-01   -1,298711002e-01
       65075000   -6,581006646e-01   -1,339453757e-01
       65150000   -6,552107930e-01   -1,296720952e-01
       65225000   -6,532586813e-01   -1,270105988e-01
       65300000   -6,502356529e-01   -1,237288043e-01
       65375000   -6,478583217e-01   -1,188610494e-01
       65450000   -6,459254026e-01   -1,150962114e-01
       65525000   -6,436366439e-01   -1,120146737e-01
       65600000   -6,403901577e-01   -1,080692783e-01
       65675000   -6,386870146e-01   -1,061812565e-01
       65750000   -6,353067756e-01   -1,010988876e-01
       65825000   -6,333096623e-01   -9,868518263e-02
       65900000   -6,312127113e-01   -9,532925487e-02
       65975000   -6,280369163e-01   -9,199684113e-02
       66050000   -6,252450943e-01   -8,728946745e-02
       66125000   -6,237668991e-01   -8,470074832e-02
       66200000   -6,206371784e-01   -8,175383508e-02
       66275000   -6,180956960e-01   -7,891300321e-02
       66350000   -6,162856817e-01   -7,491213083e-02
       66425000   -6,120705605e-01   -7,131654769e-02
       66500000   -6,118828654e-01   -6,947726756e-02
       66575000   -6,075477600e-01   -6,597228348e-02
       66650000   -6,054960489e-01   -6,309307367e-02
       66725000   -6,040444374e-01   -6,003070995e-02
       66800000   -5,999177694e-01   -5,638714880e-02
       66875000   -5,984842777e-01   -5,324028805e-02
       66950000   -5,952821374e-01   -5,065490678e-02
       67025000   -5,935286283e-01   -4,772706330e-02
       67100000   -5,915375352e-01   -4,414098710e-02
       67175000   -5,880712271e-01   -4,139996693e-02
       67250000   -5,860167146e-01   -3,839370981e-02
       67325000   -5,834944844e-01   -3,514065966e-02
       67400000   -5,801058412e-01   -3,188622370e-02
       67475000   -5,773696899e-01   -2,973981947e-02
       67550000   -5,743405223e-01   -2,627806179e-02
       67625000   -5,718027353e-01   -2,308563888e-02
       67700000   -5,688545108e-01   -2,043704502e-02
       67775000   -5,665988922e-01   -1,727637835e-02
       67850000   -5,633980632e-01   -1,425306499e-02
       67925000   -5,601000786e-01   -1,152678020e-02
       68000000   -5,566685796e-01   -8,817909285e-03
       68075000   -5,536798239e-01   -5,243849009e-03
       68150000   -5,509397388e-01   -2,642919775e-03
       68225000   -5,474834442e-01   -1,158757601e-03
       68300000   -5,448558927e-01    2,645460656e-03
       68375000   -5,401664972e-01    4,784686025e-03
       68450000   -5,376733541e-01    6,942123175e-03
       68525000   -5,340437293e-01    1,057524327e-02
       68600000   -5,311143994e-01    1,173880976e-02
       68675000   -5,272619724e-01    1,483931765e-02
       68750000   -5,231203437e-01    1,663282886e-02
       68825000   -5,209332705e-01    1,871768571e-02
       68900000   -5,162917972e-01    2,029094286e-02
       68975000   -5,135540962e-01    2,214521170e-02
       69050000   -5,085709095e-01    2,412432246e-02
       69125000   -5,055813789e-01    2,611374855e-02
       69200000   -5,016183853e-01    2,740282938e-02
       69275000   -4,992878735e-01    2,880930528e-02
       69350000   -4,944725633e-01    3,062401153e-02
       69425000   -4,915745556e-01    3,082640283e-02
       69500000   -4,875051677e-01    3,275228292e-02
       69575000   -4,851065278e-01    3,325572610e-02
       69650000   -4,812217653e-01    3,453012928e-02
       69725000   -4,779229760e-01    3,423513100e-02
       69800000   -4,749197960e-01    3,618698195e-02
       69875000   -4,717621803e-01    3,652508184e-02
       69950000   -4,694420993e-01    3,754176572e-02
       70025000   -4,656667113e-01    3,811050579e-02
       70100000   -4,632513523e-01    3,797978535e-02
       70175000   -4,599769711e-01    3,878577426e-02
       70250000   -4,574254155e-01    3,930552304e-02
       70325000   -4,549236894e-01    4,003592208e-02
       70400000   -4,526194036e-01    4,047159478e-02
       70475000   -4,501901567e-01    3,882895038e-02
       70550000   -4,480028152e-01    4,045700282e-02
       70625000   -4,455727935e-01    3,993538767e-02
       70700000   -4,429113567e-01    4,022131115e-02
       70775000   -4,418348372e-01    4,132692516e-02
       70850000   -4,390172660e-01    4,078213871e-02
       70925000   -4,372464418e-01    4,148642346e-02
       71000000   -4,365482330e-01    4,254719615e-02
       71075000   -4,341041446e-01    4,177100211e-02
       71150000   -4,320669770e-01    4,314640909e-02
       71225000   -4,312588274e-01    4,297281802e-02
       71300000   -4,285688400e-01    4,420771450e-02
       71375000   -4,272598326e-01    4,455096275e-02
       71450000   -4,257094264e-01    4,521874711e-02
       71525000   -4,245961607e-01    4,630818218e-02
       71600000   -4,216602445e-01    4,697287455e-02
       71675000   -4,206298292e-01    4,740002006e-02
       71750000   -4,196772575e-01    4,812764749e-02
       71825000   -4,171651304e-01    4,803087935e-02
       71900000   -4,159349501e-01    4,896983132e-02
       71975000   -4,148989320e-01    5,018484220e-02
       72050000   -4,129877388e-01    5,088933185e-02
       72125000   -4,111320376e-01    5,176275596e-02
       72200000   -4,098885357e-01    5,349215493e-02
       72275000   -4,079509974e-01    5,282031000e-02
       72350000   -4,072741568e-01    5,346283317e-02
       72425000   -4,050591588e-01    5,466670915e-02
       72500000   -4,050099850e-01    5,445509404e-02
       72575000   -4,018356204e-01    5,569393188e-02
       72650000   -4,010736644e-01    5,604832992e-02
       72725000   -4,002122581e-01    5,718390271e-02
       72800000   -3,980714083e-01    5,823010206e-02
       72875000   -3,977050185e-01    5,869736150e-02
       72950000   -3,953422904e-01    5,983477458e-02
       73025000   -3,941817880e-01    6,079541892e-02
       73100000   -3,941569328e-01    6,115027145e-02
       73175000   -3,923744857e-01    6,233834475e-02
       73250000   -3,907594979e-01    6,399028748e-02
       73325000   -3,898397684e-01    6,457042694e-02
       73400000   -3,888358176e-01    6,577961147e-02
       73475000   -3,870825469e-01    6,678196043e-02
       73550000   -3,857637346e-01    6,694141030e-02
       73625000   -3,848681450e-01    6,947869807e-02
       73700000   -3,831372559e-01    6,909638643e-02
       73775000   -3,824879229e-01    7,119450718e-02
       73850000   -3,804414570e-01    7,180011272e-02
       73925000   -3,791044652e-01    7,245812565e-02
       74000000   -3,773199320e-01    7,454930246e-02
       74075000   -3,771081269e-01    7,542887330e-02
       74150000   -3,762036860e-01    7,641438395e-02
       74225000   -3,736774623e-01    7,772500813e-02
       74300000   -3,721075952e-01    7,866379619e-02
       74375000   -3,714611232e-01    7,929644734e-02
       74450000   -3,700997531e-01    8,147738874e-02
       74525000   -3,685741127e-01    8,147928119e-02
       74600000   -3,673832119e-01    8,350012451e-02
       74675000   -3,654247522e-01    8,345706761e-02
       74750000   -3,642317951e-01    8,453106135e-02
       74825000   -3,622700274e-01    8,630653471e-02
       74900000   -3,610903323e-01    8,710577339e-02
       74975000   -3,599724174e-01    8,891654015e-02
       75050000   -3,585067987e-01    8,844123036e-02
       75125000   -3,574051559e-01    9,062199295e-02
       75200000   -3,556533158e-01    9,011197835e-02
       75275000   -3,539499640e-01    9,209946543e-02
       75350000   -3,524506092e-01    9,301944077e-02
       75425000   -3,516501188e-01    9,303674102e-02
       75500000   -3,497861922e-01    9,459572285e-02
       75575000   -3,486981690e-01    9,569718689e-02
       75650000   -3,472107351e-01    9,690834582e-02
       75725000   -3,454673290e-01    9,724332392e-02
       75800000   -3,440416455e-01    9,867051989e-02
       75875000   -3,434628844e-01    9,924935549e-02
       75950000   -3,417251110e-01    1,006756425e-01
       76025000   -3,404896259e-01    1,011033505e-01
       76100000   -3,396993876e-01    1,019369960e-01
       76175000   -3,386079967e-01    1,021754295e-01
       76250000   -3,371225893e-01    1,039561555e-01
       76325000   -3,365533948e-01    1,052777842e-01
       76400000   -3,352295160e-01    1,049894169e-01
       76475000   -3,332865536e-01    1,059530526e-01
       76550000   -3,331656158e-01    1,071154848e-01
       76625000   -3,308684528e-01    1,075541079e-01
       76700000   -3,300153315e-01    1,084365770e-01
       76775000   -3,298828602e-01    1,100749001e-01
       76850000   -3,278228641e-01    1,095443293e-01
       76925000   -3,269287050e-01    1,110160872e-01
       77000000   -3,261148036e-01    1,121817529e-01
       77075000   -3,243874907e-01    1,127649620e-01
       77150000   -3,237644732e-01    1,136266217e-01
       77225000   -3,237240314e-01    1,142641604e-01
       77300000   -3,222326636e-01    1,152902395e-01
       77375000   -3,210717738e-01    1,151347160e-01
       77450000   -3,205455840e-01    1,167863607e-01
       77525000   -3,201460540e-01    1,179248840e-01
       77600000   -3,194724917e-01    1,180698127e-01
       77675000   -3,190593123e-01    1,188754588e-01
       77750000   -3,190082908e-01    1,209280565e-01
       77825000   -3,186577857e-01    1,209976822e-01
       77900000   -3,186430335e-01    1,216916665e-01
       77975000   -3,189253211e-01    1,237692907e-01
       78050000   -3,182228506e-01    1,242324486e-01
       78125000   -3,192815483e-01    1,262005568e-01
       78200000   -3,205287755e-01    1,280255914e-01
       78275000   -3,199521303e-01    1,306080669e-01
       78350000   -3,206911087e-01    1,321126223e-01
       78425000   -3,207350969e-01    1,351126134e-01
       78500000   -3,198902607e-01    1,397196054e-01
       78575000   -3,179049492e-01    1,408219635e-01
       78650000   -3,177042603e-01    1,442406923e-01
       78725000   -3,163095713e-01    1,474606693e-01
       78800000   -3,141168952e-01    1,481406093e-01
       78875000   -3,137873113e-01    1,502308100e-01
       78950000   -3,119393587e-01    1,527576149e-01
       79025000   -3,108705282e-01    1,552188694e-01
       79100000   -3,096869290e-01    1,577007771e-01
       79175000   -3,099195659e-01    1,594594568e-01
       79250000   -3,096641600e-01    1,620031893e-01
       79325000   -3,069414198e-01    1,647244245e-01
       79400000   -3,061191142e-01    1,673318744e-01
       79475000   -3,046874106e-01    1,706041098e-01
       79550000   -3,040063977e-01    1,719200313e-01
       79625000   -3,030980229e-01    1,754884720e-01
       79700000   -3,004759848e-01    1,769697219e-01
       79775000   -2,996604443e-01    1,801712215e-01
       79850000   -2,989007235e-01    1,837843359e-01
       79925000   -2,971727848e-01    1,862808615e-01
       80000000   -2,946512103e-01    1,886840910e-01
       80075000   -2,950804532e-01    1,910045743e-01
       80150000   -2,919415832e-01    1,941722929e-01
       80225000   -2,920109332e-01    1,973517984e-01
       80300000   -2,905213833e-01    2,004086077e-01
       80375000   -2,871510983e-01    2,026103884e-01
       80450000   -2,849840224e-01    2,058404237e-01
       80525000   -2,826814055e-01    2,089022696e-01
       80600000   -2,810873389e-01    2,126207054e-01
       80675000   -2,792818546e-01    2,159449309e-01
       80750000   -2,778632343e-01    2,183851004e-01
       80825000   -2,744408846e-01    2,213548273e-01
       80900000   -2,715053558e-01    2,237531692e-01
       80975000   -2,708681524e-01    2,276004255e-01
       81050000   -2,673558295e-01    2,306782603e-01
       81125000   -2,645922601e-01    2,330954373e-01
       81200000   -2,616024017e-01    2,363273650e-01
       81275000   -2,581141591e-01    2,393412292e-01
       81350000   -2,561341822e-01    2,421517372e-01
       81425000   -2,541329265e-01    2,461766899e-01
       81500000   -2,511963546e-01    2,487449497e-01
       81575000   -2,488756627e-01    2,518134415e-01
       81650000   -2,428471893e-01    2,545683384e-01
       81725000   -2,405950874e-01    2,565803230e-01
       81800000   -2,378216684e-01    2,603150010e-01
       81875000   -2,339666486e-01    2,639186978e-01
       81950000   -2,308151722e-01    2,671839595e-01
       82025000   -2,277791202e-01    2,698447406e-01
       82100000   -2,248265743e-01    2,713302374e-01
       82175000   -2,212736756e-01    2,741359472e-01
       82250000   -2,174783498e-01    2,763302326e-01
       82325000   -2,125069052e-01    2,789117694e-01
       82400000   -2,081264555e-01    2,813743949e-01
       82475000   -2,043081373e-01    2,853888273e-01
       82550000   -2,008003592e-01    2,882001996e-01
       82625000   -1,961566508e-01    2,904922068e-01
       82700000   -1,929466426e-01    2,931757569e-01
       82775000   -1,883822829e-01    2,958491743e-01
       82850000   -1,846764684e-01    2,984794676e-01
       82925000   -1,811735481e-01    3,004978299e-01
       83000000   -1,767953187e-01    3,027343452e-01
       83075000   -1,714378744e-01    3,049714267e-01
       83150000   -1,673677564e-01    3,071395457e-01
       83225000   -1,627871543e-01    3,094202578e-01
       83300000   -1,574369967e-01    3,108340800e-01
       83375000   -1,525985152e-01    3,125760257e-01
       83450000   -1,455252916e-01    3,157012165e-01
       83525000   -1,404431015e-01    3,173711896e-01
       83600000   -1,359950155e-01    3,192910850e-01
       83675000   -1,312784553e-01    3,192910850e-01
       83750000   -1,259316057e-01    3,210228682e-01
       83825000   -1,195219010e-01    3,232482970e-01
       83900000   -1,141990274e-01    3,253399134e-01
       83975000   -1,109215245e-01    3,259322941e-01
       84050000   -1,053123772e-01    3,265534639e-01
       84125000   -9,954208136e-02    3,274489939e-01
       84200000   -9,198898822e-02    3,282869756e-01
       84275000   -8,838334680e-02    3,302892447e-01
       84350000   -8,278495073e-02    3,311653435e-01
       84425000   -7,776734233e-02    3,307779431e-01
       84500000   -7,164803892e-02    3,306483030e-01
       84575000   -6,400850415e-02    3,322541416e-01
       84650000   -5,929776281e-02    3,336144686e-01
       84725000   -5,423549190e-02    3,319138587e-01
       84800000   -4,776450992e-02    3,323562741e-01
       84875000   -4,121629521e-02    3,309885859e-01
       84950000   -3,463039547e-02    3,329872489e-01
       85025000   -2,826219052e-02    3,313470185e-01
       85100000   -2,311136387e-02    3,324871063e-01
       85175000   -1,877144165e-02    3,310153186e-01
       85250000   -1,248682477e-02    3,301988542e-01
       85325000   -4,742358346e-03    3,278581202e-01
       85400000    1,025424805e-03    3,275760710e-01
       85475000    7,394772023e-03    3,260846138e-01
       85550000    1,344026625e-02    3,242536783e-01
       85625000    1,752997376e-02    3,230579793e-01
       85700000    2,365538292e-02    3,208361268e-01
       85775000    3,083364479e-02    3,200827837e-01
       85850000    3,489859775e-02    3,165543079e-01
       85925000    4,038361087e-02    3,159310520e-01
       86000000    4,517376795e-02    3,138988912e-01
       86075000    5,088234693e-02    3,105133474e-01
       86150000    5,786764249e-02    3,073452711e-01
       86225000    6,184635311e-02    3,044199646e-01
       86300000    6,724383682e-02    3,035414219e-01
       86375000    7,260769606e-02    2,999110222e-01
       86450000    7,755189389e-02    2,967462540e-01
       86525000    8,267290145e-02    2,921512127e-01
       86600000    8,702954650e-02    2,905801237e-01
       86675000    9,075444937e-02    2,871312201e-01
       86750000    9,440818429e-02    2,840533853e-01
       86825000    9,934571385e-02    2,805461287e-01
       86900000    1,041845754e-01    2,749088407e-01
       86975000    1,074853465e-01    2,717264295e-01
       87050000    1,111769751e-01    2,690184414e-01
       87125000    1,144880205e-01    2,652195692e-01
       87200000    1,179581732e-01    2,612318397e-01
       87275000    1,215541139e-01    2,583462000e-01
       87350000    1,238218099e-01    2,538385093e-01
       87425000    1,273092180e-01    2,505255938e-01
       87500000    1,298909187e-01    2,458153069e-01
       87575000    1,330093443e-01    2,437398881e-01
       87650000    1,355060041e-01    2,394678593e-01
       87725000    1,390434951e-01    2,370666713e-01
       87800000    1,414687932e-01    2,337588221e-01
       87875000    1,429827064e-01    2,305959165e-01
       87950000    1,464268714e-01    2,262829095e-01
       88025000    1,483082920e-01    2,221472859e-01
       88100000    1,510473937e-01    2,187833339e-01
       88175000    1,529576927e-01    2,176146507e-01
       88250000    1,547647566e-01    2,124938071e-01
       88325000    1,572605073e-01    2,087404877e-01
       88400000    1,596986949e-01    2,053482234e-01
       88475000    1,611922085e-01    2,013303339e-01
       88550000    1,634859741e-01    1,981009692e-01
       88625000    1,646229625e-01    1,937314421e-01
       88700000    1,662015766e-01    1,906086504e-01
       88775000    1,680555046e-01    1,866156459e-01
       88850000    1,692786515e-01    1,839863211e-01
       88925000    1,700329781e-01    1,783722192e-01
       89000000    1,707354933e-01    1,748770922e-01
       89075000    1,715100557e-01    1,710060537e-01
       89150000    1,714490205e-01    1,672498584e-01
       89225000    1,723804623e-01    1,641996056e-01
       89300000    1,717727482e-01    1,602072120e-01
       89375000    1,717213839e-01    1,571116447e-01
       89450000    1,709337980e-01    1,541476101e-01
       89525000    1,695217341e-01    1,503487825e-01
       89600000    1,696621478e-01    1,481382400e-01
       89675000    1,672719270e-01    1,449465305e-01
       89750000    1,653737724e-01    1,432675570e-01
       89825000    1,642602980e-01    1,417129785e-01
       89900000    1,629494578e-01    1,389400959e-01
       89975000    1,610137075e-01    1,383630782e-01
       90050000    1,594183445e-01    1,373113543e-01
       90125000    1,575737894e-01    1,373625994e-01
       90200000    1,569493413e-01    1,369720697e-01
       90275000    1,546746343e-01    1,365904957e-01
       90350000    1,531700492e-01    1,377854049e-01
       90425000    1,523103565e-01    1,388035715e-01
       90500000    1,514178216e-01    1,393750012e-01
       90575000    1,498302817e-01    1,415647268e-01
       90650000    1,502082646e-01    1,430653185e-01
       90725000    1,493812352e-01    1,447343528e-01
       90800000    1,493084729e-01    1,475270987e-01
       90875000    1,502425075e-01    1,492197961e-01
       90950000    1,504900008e-01    1,516715139e-01
       91025000    1,526661962e-01    1,542717069e-01
       91100000    1,535414308e-01    1,570136845e-01
       91175000    1,560583562e-01    1,605041474e-01
       91250000    1,577603668e-01    1,624059081e-01
       91325000    1,607243121e-01    1,652925014e-01
       91400000    1,630746275e-01    1,678504348e-01
       91475000    1,662496626e-01    1,705791056e-01
       91550000    1,700944453e-01    1,726630926e-01
       91625000    1,730922908e-01    1,750633717e-01
       91700000    1,776607782e-01    1,775002927e-01
       91775000    1,823114902e-01    1,786056012e-01
       91850000    1,872118264e-01    1,803911775e-01
       91925000    1,915813088e-01    1,821905375e-01
