! NanoVNA-App
! Date: 2025-08-09 13:37:00
! Start: 65MHz Stop: 95MHz Points: 401
! S-Parameter data: F S11
# Hz S RI R 50
!     Frequency           S11_Real           S11_Imag
       65000000   -4,062617123e-01    3,705247641e-01
       65075000   -4,069782197e-01    3,726696074e-01
       65150000   -4,010914564e-01    3,707377315e-01
       65225000   -3,952912688e-01    3,721550405e-01
       65300000   -3,895020187e-01    3,734816015e-01
       65375000   -3,849774599e-01    3,743252754e-01
       65450000   -3,801590502e-01    3,749881089e-01
       65525000   -3,747156560e-01    3,758987188e-01
       65600000   -3,701450527e-01    3,759205639e-01
       65675000   -3,638015687e-01    3,755778372e-01
       65750000   -3,583641648e-01    3,757036626e-01
       65825000   -3,511261344e-01    3,773823678e-01
       65900000   -3,460007012e-01    3,778448701e-01
       65975000   -3,417614698e-01    3,780072033e-01
       66050000   -3,367501795e-01    3,790111244e-01
       66125000   -3,308272064e-01    3,776348531e-01
       66200000   -3,245148957e-01    3,794327378e-01
       66275000   -3,219078183e-01    3,790222704e-01
       66350000   -3,165029287e-01    3,789067864e-01
       66425000   -3,109425902e-01    3,805615604e-01
       66500000   -3,044067621e-01    3,801846504e-01
       66575000   -3,000531495e-01    3,811413348e-01
       66650000   -2,956842184e-01    3,816314936e-01
       66725000   -2,912927270e-01    3,792889714e-01
       66800000   -2,859750390e-01    3,798440695e-01
       66875000   -2,804929912e-01    3,802760839e-01
       66950000   -2,763183713e-01    3,807927668e-01
       67025000   -2,712927461e-01    3,821122646e-01
       67100000   -2,661387324e-01    3,826418817e-01
       67175000   -2,626482546e-01    3,841045797e-01
       67250000   -2,577491999e-01    3,825531900e-01
       67325000   -2,526456118e-01    3,836836517e-01
       67400000   -2,476039827e-01    3,829463720e-01
       67475000   -2,407239527e-01    3,824461997e-01
       67550000   -2,352855355e-01    3,836777508e-01
       67625000   -2,303842455e-01    3,827471435e-01
       67700000   -2,266022861e-01    3,830832839e-01
       67775000   -2,204434574e-01    3,832077384e-01
       67850000   -2,165623754e-01    3,826698065e-01
       67925000   -2,095514834e-01    3,825884461e-01
       68000000   -2,052872628e-01    3,824120462e-01
       68075000   -2,008310705e-01    3,795881271e-01
       68150000   -1,955676377e-01    3,788390160e-01
       68225000   -1,882888824e-01    3,804465532e-01
       68300000   -1,838596314e-01    3,789403737e-01
       68375000   -1,774109155e-01    3,779741824e-01
       68450000   -1,740448922e-01    3,776287138e-01
       68525000   -1,702139080e-01    3,755600154e-01
       68600000   -1,648423225e-01    3,741565049e-01
       68675000   -1,587045491e-01    3,720727861e-01
       68750000   -1,538501978e-01    3,705310225e-01
       68825000   -1,482764035e-01    3,696412742e-01
       68900000   -1,424627304e-01    3,684296012e-01
       68975000   -1,382176280e-01    3,669677675e-01
       69050000   -1,336456537e-01    3,651731014e-01
       69125000   -1,280627549e-01    3,625778556e-01
       69200000   -1,253914982e-01    3,611319363e-01
       69275000   -1,197673976e-01    3,582987785e-01
       69350000   -1,167339906e-01    3,568941057e-01
       69425000   -1,120756790e-01    3,549241126e-01
       69500000   -1,079271585e-01    3,519566059e-01
       69575000   -1,046984196e-01    3,491594195e-01
       69650000   -1,009805426e-01    3,472482860e-01
       69725000   -9,864397347e-02    3,439435363e-01
       69800000   -9,514054656e-02    3,414714634e-01
       69875000   -9,103116393e-02    3,389502764e-01
       69950000   -8,642791957e-02    3,360738456e-01
       70025000   -8,485724032e-02    3,335294425e-01
       70100000   -8,096157014e-02    3,318706751e-01
       70175000   -7,787594199e-02    3,299194276e-01
       70250000   -7,606078684e-02    3,255269527e-01
       70325000   -7,296133786e-02    3,233421147e-01
       70400000   -7,005455345e-02    3,201331496e-01
       70475000   -6,740097702e-02    3,192685843e-01
       70550000   -6,592850387e-02    3,175482750e-01
       70625000   -6,491567194e-02    3,145699799e-01
       70700000   -6,067167222e-02    3,122537136e-01
       70775000   -5,916597694e-02    3,107195497e-01
       70850000   -5,813888460e-02    3,093549013e-01
       70925000   -5,555042624e-02    3,063127100e-01
       71000000   -5,464920774e-02    3,042630851e-01
       71075000   -5,145915598e-02    3,032763004e-01
       71150000   -5,054961145e-02    3,017129302e-01
       71225000   -4,921363294e-02    3,008806705e-01
       71300000   -4,715111852e-02    2,998199463e-01
       71375000   -4,522063956e-02    2,975299954e-01
       71450000   -4,156644270e-02    2,960249782e-01
       71525000   -4,039187357e-02    2,939935029e-01
       71600000   -3,938125446e-02    2,940574288e-01
       71675000   -3,730962798e-02    2,915656865e-01
       71750000   -3,493554145e-02    2,901372015e-01
       71825000   -3,312162682e-02    2,889571488e-01
       71900000   -3,112992272e-02    2,884329557e-01
       71975000   -2,903712168e-02    2,855795920e-01
       72050000   -2,922573872e-02    2,851974070e-01
       72125000   -2,701290138e-02    2,833105028e-01
       72200000   -2,550461702e-02    2,820127606e-01
       72275000   -2,237491310e-02    2,812799513e-01
       72350000   -2,039186284e-02    2,804503441e-01
       72425000   -1,924072951e-02    2,789207697e-01
       72500000   -1,889944449e-02    2,777410746e-01
       72575000   -1,598412171e-02    2,782365978e-01
       72650000   -1,537786424e-02    2,769998908e-01
       72725000   -1,230616309e-02    2,754984498e-01
       72800000   -1,135881338e-02    2,754395008e-01
       72875000   -9,596503340e-03    2,737001181e-01
       72950000   -7,879080251e-03    2,727018297e-01
       73025000   -6,626110058e-03    2,717357874e-01
       73100000   -4,748272710e-03    2,695271671e-01
       73175000   -2,479451708e-03    2,705426216e-01
       73250000   -2,667868976e-03    2,698691189e-01
       73325000   -1,605749363e-03    2,697013915e-01
       73400000    7,365673664e-04    2,685283124e-01
       73475000    2,340989187e-03    2,685272694e-01
       73550000    3,504428314e-03    2,655421495e-01
       73625000    6,382443942e-03    2,644703686e-01
       73700000    8,691536263e-03    2,647620440e-01
       73775000    1,034585107e-02    2,638252378e-01
       73850000    1,185886003e-02    2,638473511e-01
       73925000    1,234949566e-02    2,636474967e-01
       74000000    1,411117613e-02    2,633208334e-01
       74075000    1,589822210e-02    2,616073489e-01
       74150000    1,927285641e-02    2,614490092e-01
       74225000    2,062783949e-02    2,600125968e-01
       74300000    2,261518501e-02    2,599548101e-01
       74375000    2,424811758e-02    2,595330179e-01
       74450000    2,467410453e-02    2,574676871e-01
       74525000    2,665083297e-02    2,572147846e-01
       74600000    2,938948385e-02    2,554545999e-01
       74675000    3,093858995e-02    2,560842335e-01
       74750000    3,288848698e-02    2,554712892e-01
       74825000    3,268131614e-02    2,557944953e-01
       74900000    3,496441990e-02    2,543046772e-01
       74975000    3,792763874e-02    2,520121336e-01
       75050000    4,000176489e-02    2,522921562e-01
       75125000    4,154025391e-02    2,510357797e-01
       75200000    4,255910963e-02    2,508868575e-01
       75275000    4,517714307e-02    2,497520894e-01
       75350000    4,643293470e-02    2,488449514e-01
       75425000    4,712245613e-02    2,492732406e-01
       75500000    4,854488745e-02    2,490168214e-01
       75575000    4,985095561e-02    2,475453317e-01
       75650000    5,133949220e-02    2,460739017e-01
       75725000    5,305650830e-02    2,464984357e-01
       75800000    5,383857340e-02    2,452171147e-01
       75875000    5,610424280e-02    2,438547015e-01
       75950000    5,732483044e-02    2,431409061e-01
       76025000    5,959744379e-02    2,429234087e-01
       76100000    6,053849682e-02    2,417758107e-01
       76175000    6,158136204e-02    2,417895496e-01
       76250000    6,267394871e-02    2,403693944e-01
       76325000    6,436543167e-02    2,385852933e-01
       76400000    6,605542451e-02    2,385275662e-01
       76475000    6,793237478e-02    2,393380255e-01
       76550000    6,907372177e-02    2,370908707e-01
       76625000    7,092975080e-02    2,364180982e-01
       76700000    7,173861563e-02    2,361637801e-01
       76775000    7,144467533e-02    2,354474068e-01
       76850000    7,465685904e-02    2,346012443e-01
       76925000    7,454185188e-02    2,352701277e-01
       77000000    7,549710572e-02    2,339954823e-01
       77075000    7,759387046e-02    2,336576134e-01
       77150000    7,906876504e-02    2,329966128e-01
       77225000    7,948257029e-02    2,321927100e-01
       77300000    8,090285212e-02    2,317485958e-01
       77375000    8,247478306e-02    2,320486903e-01
       77450000    8,323943615e-02    2,320072204e-01
       77525000    8,412029594e-02    2,314046621e-01
       77600000    8,487921208e-02    2,309332341e-01
       77675000    8,471571654e-02    2,313516587e-01
       77750000    8,516810089e-02    2,298851758e-01
       77825000    8,725342155e-02    2,301656306e-01
       77900000    8,634468913e-02    2,307993621e-01
       77975000    8,782234788e-02    2,298920602e-01
       78050000    8,855082095e-02    2,310340703e-01
       78125000    8,783612400e-02    2,324878126e-01
       78200000    8,934654295e-02    2,327102870e-01
       78275000    8,911719918e-02    2,345173657e-01
       78350000    9,054814279e-02    2,356132567e-01
       78425000    9,220938385e-02    2,377145886e-01
       78500000    9,509239346e-02    2,382863164e-01
       78575000    9,807907045e-02    2,406902909e-01
       78650000    1,003319919e-01    2,417442203e-01
       78725000    1,013889462e-01    2,411321104e-01
       78800000    1,047630385e-01    2,427609712e-01
       78875000    1,075383499e-01    2,431003749e-01
       78950000    1,093990505e-01    2,429292649e-01
       79025000    1,113182828e-01    2,443799078e-01
       79100000    1,123692170e-01    2,453982830e-01
       79175000    1,137725413e-01    2,442058474e-01
       79250000    1,168520898e-01    2,455382496e-01
       79325000    1,197450310e-01    2,464192510e-01
       79400000    1,218304262e-01    2,469880730e-01
       79475000    1,233245432e-01    2,485109866e-01
       79550000    1,253819019e-01    2,485528439e-01
       79625000    1,286574155e-01    2,484306097e-01
       79700000    1,311755776e-01    2,502602339e-01
       79775000    1,341807246e-01    2,514152229e-01
       79850000    1,355571449e-01    2,508883774e-01
       79925000    1,386129111e-01    2,525755763e-01
       80000000    1,402325332e-01    2,554438114e-01
       80075000    1,439135671e-01    2,534178197e-01
       80150000    1,473350227e-01    2,552825809e-01
       80225000    1,488166153e-01    2,559425831e-01
       80300000    1,524631977e-01    2,554505765e-01
       80375000    1,554390341e-01    2,563002110e-01
       80450000    1,600093991e-01    2,588673234e-01
       80525000    1,623068154e-01    2,588026226e-01
       80600000    1,656586528e-01    2,600963414e-01
       80675000    1,683007628e-01    2,601443231e-01
       80750000    1,718580574e-01    2,593943179e-01
       80825000    1,768566817e-01    2,601445913e-01
       80900000    1,806275845e-01    2,608564198e-01
       80975000    1,831256747e-01    2,608141303e-01
       81050000    1,878394932e-01    2,610034347e-01
       81125000    1,913416982e-01    2,610559165e-01
       81200000    1,956244260e-01    2,615673244e-01
       81275000    1,986808330e-01    2,620207071e-01
       81350000    2,028060555e-01    2,620928884e-01
       81425000    2,058160901e-01    2,612812221e-01
       81500000    2,091307789e-01    2,611922622e-01
       81575000    2,141145319e-01    2,614232898e-01
       81650000    2,184755951e-01    2,612980604e-01
       81725000    2,221711278e-01    2,606995702e-01
       81800000    2,268818915e-01    2,609315515e-01
       81875000    2,299554944e-01    2,604268491e-01
       81950000    2,335191518e-01    2,605901957e-01
       82025000    2,388294041e-01    2,593258023e-01
       82100000    2,426899821e-01    2,583325207e-01
       82175000    2,472601384e-01    2,572903633e-01
       82250000    2,513707280e-01    2,558394670e-01
       82325000    2,566018999e-01    2,554987073e-01
       82400000    2,606859207e-01    2,553777993e-01
       82475000    2,648269832e-01    2,547248602e-01
       82550000    2,693704665e-01    2,540718317e-01
       82625000    2,735598087e-01    2,532192767e-01
       82700000    2,781471312e-01    2,504627705e-01
       82775000    2,821041644e-01    2,488320023e-01
       82850000    2,872021496e-01    2,479940206e-01
       82925000    2,912886739e-01    2,469072938e-01
       83000000    2,967250049e-01    2,449919283e-01
       83075000    3,007953465e-01    2,432088852e-01
       83150000    3,053258359e-01    2,406595796e-01
       83225000    3,098198175e-01    2,390259951e-01
       83300000    3,149075806e-01    2,372697294e-01
       83375000    3,193146586e-01    2,354228050e-01
       83450000    3,246027827e-01    2,333239019e-01
       83525000    3,290970325e-01    2,318138629e-01
       83600000    3,332048953e-01    2,290398180e-01
       83675000    3,384571671e-01    2,255296260e-01
       83750000    3,423509002e-01    2,224842757e-01
       83825000    3,474249542e-01    2,208565027e-01
       83900000    3,512800634e-01    2,168492526e-01
       83975000    3,553858101e-01    2,143497020e-01
       84050000    3,598765433e-01    2,110308409e-01
       84125000    3,637119532e-01    2,077499926e-01
       84200000    3,690910041e-01    2,053052485e-01
       84275000    3,725506961e-01    2,014678270e-01
       84350000    3,765617907e-01    1,987788081e-01
       84425000    3,803596497e-01    1,945825517e-01
       84500000    3,853794038e-01    1,916546822e-01
       84575000    3,896281421e-01    1,881912947e-01
       84650000    3,933758438e-01    1,835215837e-01
       84725000    3,968193829e-01    1,791968048e-01
       84800000    4,012461901e-01    1,752421856e-01
       84875000    4,046417475e-01    1,716845334e-01
       84950000    4,089218974e-01    1,675635874e-01
       85025000    4,119882584e-01    1,629984528e-01
       85100000    4,150222838e-01    1,575791687e-01
       85175000    4,187155962e-01    1,535028070e-01
       85250000    4,225599766e-01    1,494486034e-01
       85325000    4,256905019e-01    1,447213143e-01
       85400000    4,289247990e-01    1,398947686e-01
       85475000    4,314624667e-01    1,356823593e-01
       85550000    4,340156615e-01    1,306327730e-01
       85625000    4,365633726e-01    1,251445413e-01
       85700000    4,397870004e-01    1,208981425e-01
       85775000    4,418985248e-01    1,154615581e-01
       85850000    4,444011450e-01    1,110073477e-01
       85925000    4,467546642e-01    1,061969101e-01
       86000000    4,480924904e-01    9,990823269e-02
       86075000    4,509332478e-01    9,536028653e-02
       86150000    4,527183175e-01    9,030329436e-02
       86225000    4,541507363e-01    8,456134051e-02
       86300000    4,552744329e-01    7,939434797e-02
       86375000    4,557082653e-01    7,451713085e-02
       86450000    4,582965970e-01    6,989769638e-02
       86525000    4,594881237e-01    6,429754943e-02
       86600000    4,589871764e-01    5,883712322e-02
       86675000    4,602444768e-01    5,360790715e-02
       86750000    4,622419775e-01    4,909366369e-02
       86825000    4,615860879e-01    4,344429821e-02
       86900000    4,627732038e-01    3,962858766e-02
       86975000    4,631584585e-01    3,485701233e-02
       87050000    4,631842673e-01    2,959037013e-02
       87125000    4,637527168e-01    2,467726730e-02
       87200000    4,637483656e-01    2,058076486e-02
       87275000    4,637622833e-01    1,582923718e-02
       87350000    4,643327594e-01    1,158919837e-02
       87425000    4,638029635e-01    7,496701553e-03
       87500000    4,629829824e-01    2,845435869e-03
       87575000    4,634918571e-01   -6,855531246e-04
       87650000    4,632614255e-01   -4,879589658e-03
       87725000    4,619080126e-01   -1,042722352e-02
       87800000    4,620918334e-01   -1,348299719e-02
       87875000    4,623852372e-01   -1,809001528e-02
       87950000    4,606109262e-01   -2,123270929e-02
       88025000    4,610183835e-01   -2,504013106e-02
       88100000    4,599192441e-01   -2,972919494e-02
       88175000    4,607922137e-01   -3,316334262e-02
       88250000    4,593603611e-01   -3,757453710e-02
       88325000    4,585627615e-01   -4,098521173e-02
       88400000    4,584179819e-01   -4,462063685e-02
       88475000    4,570229352e-01   -4,898360372e-02
       88550000    4,556452632e-01   -5,294431746e-02
       88625000    4,548752904e-01   -5,583234504e-02
       88700000    4,535597265e-01   -6,134331599e-02
       88775000    4,545325041e-01   -6,289201975e-02
       88850000    4,508244097e-01   -6,922668219e-02
       88925000    4,486536980e-01   -7,082367688e-02
       89000000    4,476802647e-01   -7,440032810e-02
       89075000    4,449649155e-01   -7,813961804e-02
       89150000    4,456590116e-01   -7,988666743e-02
       89225000    4,422415197e-01   -8,392234892e-02
       89300000    4,401115477e-01   -8,659020066e-02
       89375000    4,370533824e-01   -8,978637308e-02
       89450000    4,347880185e-01   -9,127043188e-02
       89525000    4,344687164e-01   -9,224066883e-02
       89600000    4,303637743e-01   -9,416572005e-02
       89675000    4,284588397e-01   -9,529232234e-02
       89750000    4,265179038e-01   -9,680996835e-02
       89825000    4,239181876e-01   -9,926879406e-02
       89900000    4,239336848e-01   -9,794262052e-02
       89975000    4,208169878e-01   -9,933929145e-02
       90050000    4,186134934e-01   -9,891849011e-02
       90125000    4,163714945e-01   -9,862266481e-02
       90200000    4,149937034e-01   -9,883823991e-02
       90275000    4,145792723e-01   -9,731584787e-02
       90350000    4,136941731e-01   -9,785345197e-02
       90425000    4,117393494e-01   -9,686025977e-02
       90500000    4,121116698e-01   -9,572999924e-02
       90575000    4,125969410e-01   -9,562425315e-02
       90650000    4,121307731e-01   -9,268404543e-02
       90725000    4,132426083e-01   -9,273912013e-02
       90800000    4,140811265e-01   -9,172037989e-02
       90875000    4,147544503e-01   -9,001825005e-02
       90950000    4,164462686e-01   -8,892407268e-02
       91025000    4,178041518e-01   -8,838172257e-02
       91100000    4,207791090e-01   -8,761964738e-02
       91175000    4,214780331e-01   -8,730866015e-02
       91250000    4,243111014e-01   -8,668183535e-02
       91325000    4,258752465e-01   -8,685689420e-02
       91400000    4,305835664e-01   -8,613494039e-02
       91475000    4,342983663e-01   -8,651394397e-02
       91550000    4,373066127e-01   -8,652037382e-02
       91625000    4,405179322e-01   -8,768373728e-02
       91700000    4,428614378e-01   -8,854140341e-02
       91775000    4,468109310e-01   -8,993558586e-02
       91850000    4,508276284e-01   -8,981613815e-02
       91925000    4,545047283e-01   -9,228614718e-02
