! NanoVNA-App
! Date: 2025-08-02 15:56:01
! Start: 65MHz Stop: 95MHz Points: 401
! S-Parameter data: F S11
# Hz S RI R 50
!     Frequency           S11_Real           S11_Imag
       65000000   -4,289535880e-01    1,292089224e-01
       65075000   -4,212651253e-01    1,290011555e-01
       65150000   -4,153737128e-01    1,323823631e-01
       65225000   -4,088012874e-01    1,350274980e-01
       65300000   -4,009309709e-01    1,356059760e-01
       65375000   -3,950202763e-01    1,377024055e-01
       65450000   -3,863898814e-01    1,394706219e-01
       65525000   -3,800790906e-01    1,403055489e-01
       65600000   -3,735727966e-01    1,418423206e-01
       65675000   -3,664305806e-01    1,417974234e-01
       65750000   -3,597925901e-01    1,427755356e-01
       65825000   -3,536516726e-01    1,445188969e-01
       65900000   -3,480913043e-01    1,438601762e-01
       65975000   -3,406710327e-01    1,450826973e-01
       66050000   -3,356864154e-01    1,435887516e-01
       66125000   -3,285792172e-01    1,435796171e-01
       66200000   -3,215619028e-01    1,440383792e-01
       66275000   -3,172149360e-01    1,425736994e-01
       66350000   -3,112388253e-01    1,428283900e-01
       66425000   -3,045293093e-01    1,427853853e-01
       66500000   -2,998116910e-01    1,416043490e-01
       66575000   -2,942322791e-01    1,419285685e-01
       66650000   -2,901513875e-01    1,414169967e-01
       66725000   -2,851885259e-01    1,396587044e-01
       66800000   -2,793579996e-01    1,394508481e-01
       66875000   -2,747470140e-01    1,380962729e-01
       66950000   -2,691893876e-01    1,376064420e-01
       67025000   -2,639567256e-01    1,375796646e-01
       67100000   -2,590042055e-01    1,379389763e-01
       67175000   -2,531675994e-01    1,385149509e-01
       67250000   -2,479283959e-01    1,371204406e-01
       67325000   -2,422524244e-01    1,363620758e-01
       67400000   -2,372336686e-01    1,351958066e-01
       67475000   -2,307015955e-01    1,328696758e-01
       67550000   -2,242243588e-01    1,321533769e-01
       67625000   -2,189890146e-01    1,312917024e-01
       67700000   -2,137642652e-01    1,286084652e-01
       67775000   -2,092215419e-01    1,256235540e-01
       67850000   -2,027619332e-01    1,231513172e-01
       67925000   -1,987750679e-01    1,210355908e-01
       68000000   -1,930296123e-01    1,177385524e-01
       68075000   -1,903167665e-01    1,156908348e-01
       68150000   -1,856391281e-01    1,135858297e-01
       68225000   -1,813380718e-01    1,092189699e-01
       68300000   -1,778055131e-01    1,072609350e-01
       68375000   -1,730950475e-01    1,040839627e-01
       68450000   -1,694890857e-01    1,003495604e-01
       68525000   -1,653529555e-01    9,805503488e-02
       68600000   -1,628520191e-01    9,499321133e-02
       68675000   -1,582043022e-01    9,225867689e-02
       68750000   -1,556331515e-01    8,856812865e-02
       68825000   -1,534320414e-01    8,586876094e-02
       68900000   -1,509138942e-01    8,094389737e-02
       68975000   -1,488025934e-01    7,877159864e-02
       69050000   -1,459830552e-01    7,487160712e-02
       69125000   -1,434669793e-01    7,193907350e-02
       69200000   -1,409861594e-01    6,838712096e-02
       69275000   -1,402131319e-01    6,569515914e-02
       69350000   -1,381000727e-01    6,176900119e-02
       69425000   -1,367088705e-01    6,024811417e-02
       69500000   -1,350517422e-01    5,585824326e-02
       69575000   -1,343137622e-01    5,364012346e-02
       69650000   -1,323093474e-01    5,102125555e-02
       69725000   -1,318664104e-01    4,842258245e-02
       69800000   -1,308725774e-01    4,496872425e-02
       69875000   -1,298207194e-01    4,383214563e-02
       69950000   -1,286174953e-01    4,166629165e-02
       70025000   -1,283859462e-01    3,840271756e-02
       70100000   -1,275745630e-01    3,645739332e-02
       70175000   -1,269736290e-01    3,554855660e-02
       70250000   -1,258864701e-01    3,268163279e-02
       70325000   -1,253023744e-01    3,189275414e-02
       70400000   -1,237484738e-01    2,982945926e-02
       70475000   -1,243268028e-01    2,777535841e-02
       70550000   -1,233546287e-01    2,656655200e-02
       70625000   -1,223162711e-01    2,466112189e-02
       70700000   -1,221021861e-01    2,279973589e-02
       70775000   -1,205908880e-01    2,175267972e-02
       70850000   -1,207435131e-01    2,020042576e-02
       70925000   -1,198140308e-01    1,964889653e-02
       71000000   -1,187741980e-01    1,692320034e-02
       71075000   -1,181057990e-01    1,686031744e-02
       71150000   -1,174800172e-01    1,578301564e-02
       71225000   -1,168434694e-01    1,342243981e-02
       71300000   -1,153422445e-01    1,209806837e-02
       71375000   -1,142940372e-01    1,112476364e-02
       71450000   -1,146727279e-01    8,871017955e-03
       71525000   -1,133066490e-01    8,565030992e-03
       71600000   -1,130750552e-01    6,292173173e-03
       71675000   -1,135359257e-01    5,138120148e-03
       71750000   -1,108166128e-01    3,871595953e-03
       71825000   -1,112291142e-01    3,003719263e-03
       71900000   -1,102536768e-01    9,787875460e-04
       71975000   -1,086529344e-01   -4,603002453e-04
       72050000   -1,085025817e-01   -2,016318729e-03
       72125000   -1,087624580e-01   -2,947264584e-03
       72200000   -1,074968949e-01   -5,283580162e-03
       72275000   -1,071553826e-01   -5,642449483e-03
       72350000   -1,075062007e-01   -8,244711906e-03
       72425000   -1,068547666e-01   -8,922783658e-03
       72500000   -1,080266237e-01   -1,009476185e-02
       72575000   -1,071293876e-01   -1,225023344e-02
       72650000   -1,058633178e-01   -1,348681562e-02
       72725000   -1,081544161e-01   -1,383324806e-02
       72800000   -1,075612009e-01   -1,557054371e-02
       72875000   -1,076297387e-01   -1,799081638e-02
       72950000   -1,097063273e-01   -1,770246215e-02
       73025000   -1,086666062e-01   -1,891737059e-02
       73100000   -1,080310792e-01   -2,002221160e-02
       73175000   -1,096781567e-01   -2,063916065e-02
       73250000   -1,102667153e-01   -2,181327343e-02
       73325000   -1,106182188e-01   -2,246338688e-02
       73400000   -1,102523804e-01   -2,221210487e-02
       73475000   -1,109222323e-01   -2,300544456e-02
       73550000   -1,113705039e-01   -2,427427284e-02
       73625000   -1,125005037e-01   -2,364114672e-02
       73700000   -1,119475588e-01   -2,503019199e-02
       73775000   -1,135459617e-01   -2,649259381e-02
       73850000   -1,130745932e-01   -2,495785058e-02
       73925000   -1,137904450e-01   -2,527119406e-02
       74000000   -1,146065965e-01   -2,572369948e-02
       74075000   -1,134728491e-01   -2,585921250e-02
       74150000   -1,148306355e-01   -2,577921562e-02
       74225000   -1,163692027e-01   -2,737344056e-02
       74300000   -1,156872064e-01   -2,615064010e-02
       74375000   -1,157058105e-01   -2,550654486e-02
       74450000   -1,174308360e-01   -2,554449998e-02
       74525000   -1,170161366e-01   -2,557717264e-02
       74600000   -1,165403649e-01   -2,337811515e-02
       74675000   -1,182196736e-01   -2,511792630e-02
       74750000   -1,193457320e-01   -2,556443773e-02
       74825000   -1,168632135e-01   -2,344798297e-02
       74900000   -1,191484332e-01   -2,477433905e-02
       74975000   -1,192730144e-01   -2,333695441e-02
       75050000   -1,170137823e-01   -2,280570939e-02
       75125000   -1,202820092e-01   -2,224733867e-02
       75200000   -1,193946600e-01   -2,300483361e-02
       75275000   -1,188687608e-01   -2,189633064e-02
       75350000   -1,196873561e-01   -2,144611627e-02
       75425000   -1,204404384e-01   -2,197053097e-02
       75500000   -1,188308746e-01   -2,051122673e-02
       75575000   -1,206640452e-01   -2,044426650e-02
       75650000   -1,206079721e-01   -1,965919323e-02
       75725000   -1,202776805e-01   -1,949198917e-02
       75800000   -1,205252782e-01   -1,769409887e-02
       75875000   -1,209459007e-01   -1,851432398e-02
       75950000   -1,201352701e-01   -1,744863577e-02
       76025000   -1,212845817e-01   -1,616294496e-02
       76100000   -1,222729385e-01   -1,562211756e-02
       76175000   -1,204801053e-01   -1,542266551e-02
       76250000   -1,223670393e-01   -1,438022312e-02
       76325000   -1,217697486e-01   -1,310217474e-02
       76400000   -1,221340597e-01   -1,289583836e-02
       76475000   -1,229626760e-01   -1,035866793e-02
       76550000   -1,231355742e-01   -1,020369865e-02
       76625000   -1,227551550e-01   -9,560992941e-03
       76700000   -1,229056194e-01   -7,188682444e-03
       76775000   -1,227662340e-01   -6,648079958e-03
       76850000   -1,232785732e-01   -5,916639697e-03
       76925000   -1,240697727e-01   -4,257913213e-03
       77000000   -1,233720109e-01   -2,803281881e-03
       77075000   -1,241063103e-01   -1,820186502e-03
       77150000   -1,241260767e-01   -8,463449194e-04
       77225000   -1,249837875e-01    1,439202344e-03
       77300000   -1,243181229e-01    3,835519543e-03
       77375000   -1,251798123e-01    4,245154560e-03
       77450000   -1,242565140e-01    8,329753764e-03
       77525000   -1,232971847e-01    1,035464834e-02
       77600000   -1,241428852e-01    1,028997451e-02
       77675000   -1,227449477e-01    1,453884318e-02
       77750000   -1,221553162e-01    1,596965082e-02
       77825000   -1,221373007e-01    1,680069789e-02
       77900000   -1,211128086e-01    2,179131657e-02
       77975000   -1,195541993e-01    2,292029746e-02
       78050000   -1,195515692e-01    2,443705499e-02
       78125000   -1,182827130e-01    2,791276015e-02
       78200000   -1,168397963e-01    2,966540307e-02
       78275000   -1,165643558e-01    3,173933178e-02
       78350000   -1,154071093e-01    3,480288759e-02
       78425000   -1,134013459e-01    3,782678023e-02
       78500000   -1,123586074e-01    3,918390349e-02
       78575000   -1,101214811e-01    4,191159829e-02
       78650000   -1,076901332e-01    4,348137602e-02
       78725000   -1,076309979e-01    4,690581933e-02
       78800000   -1,048170850e-01    4,899136350e-02
       78875000   -1,010668203e-01    5,141423270e-02
       78950000   -1,000950709e-01    5,358798057e-02
       79025000   -9,728807956e-02    5,612238497e-02
       79100000   -9,530488402e-02    5,792067572e-02
       79175000   -9,319525957e-02    6,054579839e-02
       79250000   -9,002391249e-02    6,192426383e-02
       79325000   -8,681946993e-02    6,429816782e-02
       79400000   -8,410599083e-02    6,533976644e-02
       79475000   -8,155889064e-02    6,678103656e-02
       79550000   -7,848645002e-02    6,984806806e-02
       79625000   -7,562155277e-02    7,054591924e-02
       79700000   -7,306776941e-02    7,210315764e-02
       79775000   -6,886296719e-02    7,341034710e-02
       79850000   -6,626821309e-02    7,497337461e-02
       79925000   -6,373982131e-02    7,628265023e-02
       80000000   -5,907812715e-02    7,694719732e-02
       80075000   -5,687258765e-02    7,843987644e-02
       80150000   -5,360219255e-02    7,954255491e-02
       80225000   -4,909979925e-02    8,135482669e-02
       80300000   -4,625873268e-02    8,143802732e-02
       80375000   -4,263036326e-02    8,275141567e-02
       80450000   -3,953513876e-02    8,218590170e-02
       80525000   -3,601143882e-02    8,328162134e-02
       80600000   -3,183662891e-02    8,326027542e-02
       80675000   -2,893152460e-02    8,399055898e-02
       80750000   -2,496944740e-02    8,487857133e-02
       80825000   -2,182345092e-02    8,399019390e-02
       80900000   -1,886839047e-02    8,514029533e-02
       80975000   -1,361379027e-02    8,492154628e-02
       81050000   -1,147944108e-02    8,310876042e-02
       81125000   -7,987568155e-03    8,362787217e-02
       81200000   -4,084040876e-03    8,325400949e-02
       81275000   -1,300397562e-03    8,243877441e-02
       81350000    2,364352811e-03    8,138830215e-02
       81425000    5,454213824e-03    8,047704399e-02
       81500000    9,370658547e-03    7,947011292e-02
       81575000    1,151729468e-02    7,871674001e-02
       81650000    1,477816794e-02    7,901909947e-02
       81725000    1,708815433e-02    7,659149170e-02
       81800000    1,963827759e-02    7,446548343e-02
       81875000    2,272833139e-02    7,435788959e-02
       81950000    2,376264334e-02    7,273170352e-02
       82025000    2,629249915e-02    7,208795100e-02
       82100000    2,894482017e-02    7,018825412e-02
       82175000    3,026258945e-02    6,827224791e-02
       82250000    3,361991420e-02    6,754480302e-02
       82325000    3,475908935e-02    6,683589518e-02
       82400000    3,653619066e-02    6,643123925e-02
       82475000    3,899345174e-02    6,424743682e-02
       82550000    4,041646793e-02    6,478727609e-02
       82625000    4,092756659e-02    6,270038337e-02
       82700000    4,242768139e-02    6,243292242e-02
       82775000    4,413714260e-02    6,238193437e-02
       82850000    4,603582621e-02    6,276528537e-02
       82925000    4,685547203e-02    6,085922942e-02
       83000000    4,912877828e-02    6,107516587e-02
       83075000    5,058834702e-02    6,047159061e-02
       83150000    5,214755237e-02    6,089052185e-02
       83225000    5,325835571e-02    5,953299254e-02
       83300000    5,505540594e-02    6,055596098e-02
       83375000    5,743239447e-02    6,014391780e-02
       83450000    5,842386931e-02    6,057029590e-02
       83525000    6,122889370e-02    6,017732620e-02
       83600000    6,222573295e-02    5,942244828e-02
       83675000    6,399869919e-02    6,055915356e-02
       83750000    6,614932418e-02    6,058511510e-02
       83825000    6,764040887e-02    6,023347005e-02
       83900000    7,056362927e-02    6,077313423e-02
       83975000    7,180366665e-02    6,059761345e-02
       84050000    7,406459004e-02    6,141775846e-02
       84125000    7,644093782e-02    6,073693186e-02
       84200000    7,811876386e-02    6,163083762e-02
       84275000    8,107092232e-02    6,195464730e-02
       84350000    8,288268000e-02    6,216417998e-02
       84425000    8,542232215e-02    6,238341704e-02
       84500000    8,834522963e-02    6,184761971e-02
       84575000    9,010112286e-02    6,298293173e-02
       84650000    9,393028170e-02    6,266558170e-02
       84725000    9,587308764e-02    6,315711886e-02
       84800000    9,881345183e-02    6,316715479e-02
       84875000    1,004067063e-01    6,234329194e-02
       84950000    1,041536704e-01    6,411071867e-02
       85025000    1,073158532e-01    6,463489681e-02
       85100000    1,103358194e-01    6,342440844e-02
       85175000    1,119438186e-01    6,429284066e-02
       85250000    1,166865379e-01    6,382533163e-02
       85325000    1,188924536e-01    6,359579414e-02
       85400000    1,224832833e-01    6,531634927e-02
       85475000    1,252512187e-01    6,406725943e-02
       85550000    1,282390952e-01    6,432446837e-02
       85625000    1,324124038e-01    6,465290487e-02
       85700000    1,365616322e-01    6,429547071e-02
       85775000    1,398496479e-01    6,418983638e-02
       85850000    1,438343376e-01    6,485522538e-02
       85925000    1,473405063e-01    6,421727687e-02
       86000000    1,511838138e-01    6,261733919e-02
       86075000    1,561097503e-01    6,289061159e-02
       86150000    1,601045877e-01    6,210676581e-02
       86225000    1,634378433e-01    6,095748022e-02
       86300000    1,680827588e-01    6,014166027e-02
       86375000    1,714648008e-01    5,918547511e-02
       86450000    1,761884093e-01    5,915008858e-02
       86525000    1,814333051e-01    5,739777908e-02
       86600000    1,843942255e-01    5,504396930e-02
       86675000    1,888521761e-01    5,383256823e-02
       86750000    1,938589960e-01    5,149517953e-02
       86825000    1,975577325e-01    5,016708001e-02
       86900000    2,010203004e-01    4,930819571e-02
       86975000    2,063198686e-01    4,727074504e-02
       87050000    2,110109925e-01    4,455883428e-02
       87125000    2,154765576e-01    4,192353785e-02
       87200000    2,186949104e-01    4,087433964e-02
       87275000    2,235732526e-01    3,823583946e-02
       87350000    2,271233946e-01    3,456764668e-02
       87425000    2,300943434e-01    3,322404251e-02
       87500000    2,351377010e-01    2,771882154e-02
       87575000    2,382776588e-01    2,816673927e-02
       87650000    2,426080853e-01    2,350343019e-02
       87725000    2,457190007e-01    2,168522030e-02
       87800000    2,494892180e-01    1,941434667e-02
       87875000    2,522149682e-01    1,561085135e-02
       87950000    2,565948367e-01    1,245198306e-02
       88025000    2,601585388e-01    1,008175127e-02
       88100000    2,639514506e-01    5,800566636e-03
       88175000    2,666855752e-01    3,396190237e-03
       88250000    2,717363536e-01    8,316868334e-04
       88325000    2,742299438e-01   -3,886146005e-03
       88400000    2,771794200e-01   -5,486862734e-03
       88475000    2,809058130e-01   -1,073801424e-02
       88550000    2,838242948e-01   -1,203589141e-02
       88625000    2,866518199e-01   -1,495422702e-02
       88700000    2,911623418e-01   -1,911746338e-02
       88775000    2,924486995e-01   -2,337411605e-02
       88850000    2,957440019e-01   -2,561998554e-02
       88925000    3,005604744e-01   -2,904569916e-02
       89000000    3,021115065e-01   -3,304255381e-02
       89075000    3,066883385e-01   -3,659807146e-02
       89150000    3,085848093e-01   -4,177842662e-02
       89225000    3,134519458e-01   -4,408294708e-02
       89300000    3,160753250e-01   -4,971491918e-02
       89375000    3,193819225e-01   -5,239878967e-02
       89450000    3,224630952e-01   -5,859166756e-02
       89525000    3,243346810e-01   -5,965176225e-02
       89600000    3,287149072e-01   -6,347130239e-02
       89675000    3,334774077e-01   -6,907937676e-02
       89750000    3,337672651e-01   -7,264369726e-02
       89825000    3,380877972e-01   -7,728910446e-02
       89900000    3,412765265e-01   -8,358408511e-02
       89975000    3,444947600e-01   -8,609607071e-02
       90050000    3,483267725e-01   -9,240449220e-02
       90125000    3,482303619e-01   -9,633687139e-02
       90200000    3,522530794e-01   -1,000430733e-01
       90275000    3,552381992e-01   -1,071868241e-01
       90350000    3,568704724e-01   -1,122029722e-01
       90425000    3,629186451e-01   -1,121142656e-01
       90500000    3,606323898e-01   -1,210397258e-01
       90575000    3,640984595e-01   -1,274284422e-01
       90650000    3,685350120e-01   -1,326312572e-01
       90725000    3,675520420e-01   -1,402176619e-01
       90800000    3,704183996e-01   -1,442953199e-01
       90875000    3,726336956e-01   -1,520736814e-01
       90950000    3,746313155e-01   -1,549849510e-01
       91025000    3,765720725e-01   -1,638350785e-01
       91100000    3,778640032e-01   -1,672692150e-01
       91175000    3,817344606e-01   -1,743698716e-01
       91250000    3,796469867e-01   -1,796599180e-01
       91325000    3,834249675e-01   -1,866044402e-01
       91400000    3,798626363e-01   -1,917104423e-01
       91475000    3,826410174e-01   -1,978759021e-01
       91550000    3,801710606e-01   -2,059933394e-01
       91625000    3,832898140e-01   -2,118055075e-01
       91700000    3,811831474e-01   -2,189813107e-01
       91775000    3,836522698e-01   -2,241658568e-01
       91850000    3,822673261e-01   -2,329555303e-01
       91925000    3,838396668e-01   -2,371064276e-01
