! NanoVNA-App
! Date: 2025-08-09 13:22:51
! Start: 65MHz Stop: 95MHz Points: 401
! S-Parameter data: F S11
# Hz S RI R 50
!     Frequency           S11_Real           S11_Imag
       65000000    6,076542139e-01   -2,886767127e-02
       65075000    6,057707071e-01   -3,360902146e-02
       65150000    6,044343710e-01   -3,616091236e-02
       65225000    6,014605165e-01   -4,064776748e-02
       65300000    6,012718081e-01   -4,406904802e-02
       65375000    6,004074216e-01   -4,742557555e-02
       65450000    5,976566076e-01   -4,932748526e-02
       65525000    5,967153311e-01   -5,286203325e-02
       65600000    5,941301584e-01   -5,818142369e-02
       65675000    5,937989354e-01   -5,895409733e-02
       65750000    5,919958353e-01   -6,338994205e-02
       65825000    5,897132754e-01   -6,683921069e-02
       65900000    5,889818072e-01   -6,955961138e-02
       65975000    5,869497657e-01   -7,338193059e-02
       66050000    5,860539675e-01   -7,662858814e-02
       66125000    5,848217010e-01   -7,901377231e-02
       66200000    5,822129250e-01   -8,224206418e-02
       66275000    5,819715261e-01   -8,573404700e-02
       66350000    5,807067752e-01   -8,818977326e-02
       66425000    5,783812404e-01   -9,181667119e-02
       66500000    5,776759982e-01   -9,517569095e-02
       66575000    5,751587152e-01   -9,769188613e-02
       66650000    5,753672719e-01   -1,008419022e-01
       66725000    5,741007328e-01   -1,033117548e-01
       66800000    5,728634000e-01   -1,057235748e-01
       66875000    5,711568594e-01   -1,088829264e-01
       66950000    5,703305006e-01   -1,113108844e-01
       67025000    5,699263811e-01   -1,140459552e-01
       67100000    5,691248775e-01   -1,174455658e-01
       67175000    5,682893991e-01   -1,211770624e-01
       67250000    5,669983625e-01   -1,241151169e-01
       67325000    5,657595992e-01   -1,274326295e-01
       67400000    5,643049479e-01   -1,313277334e-01
       67475000    5,635675788e-01   -1,333014220e-01
       67550000    5,618833899e-01   -1,366678327e-01
       67625000    5,609845519e-01   -1,409778744e-01
       67700000    5,599157810e-01   -1,437464058e-01
       67775000    5,589407086e-01   -1,455153525e-01
       67850000    5,567728281e-01   -1,487419009e-01
       67925000    5,568777919e-01   -1,523547173e-01
       68000000    5,543285608e-01   -1,562793106e-01
       68075000    5,548935533e-01   -1,589566767e-01
       68150000    5,532742739e-01   -1,629160196e-01
       68225000    5,509507656e-01   -1,645892709e-01
       68300000    5,491454005e-01   -1,686773151e-01
       68375000    5,470365286e-01   -1,706159562e-01
       68450000    5,463675857e-01   -1,751643568e-01
       68525000    5,447286963e-01   -1,793057024e-01
       68600000    5,433406234e-01   -1,821054667e-01
       68675000    5,418029428e-01   -1,854116917e-01
       68750000    5,403246284e-01   -1,876630336e-01
       68825000    5,378826857e-01   -1,898832768e-01
       68900000    5,359663367e-01   -1,927960515e-01
       68975000    5,333615541e-01   -1,968461275e-01
       69050000    5,315480232e-01   -1,989517659e-01
       69125000    5,299131870e-01   -2,019573152e-01
       69200000    5,265777111e-01   -2,049107701e-01
       69275000    5,254383683e-01   -2,084249258e-01
       69350000    5,226635933e-01   -2,100147307e-01
       69425000    5,213702917e-01   -2,140147835e-01
       69500000    5,172548890e-01   -2,157215327e-01
       69575000    5,163789988e-01   -2,184603214e-01
       69650000    5,125832558e-01   -2,210562676e-01
       69725000    5,119587183e-01   -2,237132192e-01
       69800000    5,081122518e-01   -2,265245467e-01
       69875000    5,074020028e-01   -2,279135883e-01
       69950000    5,044156909e-01   -2,291370779e-01
       70025000    5,022590160e-01   -2,330238521e-01
       70100000    4,994525313e-01   -2,325091064e-01
       70175000    4,974847436e-01   -2,355505824e-01
       70250000    4,948821366e-01   -2,383602709e-01
       70325000    4,934583008e-01   -2,389305979e-01
       70400000    4,906412661e-01   -2,411708981e-01
       70475000    4,879694879e-01   -2,404144257e-01
       70550000    4,856756926e-01   -2,431425154e-01
       70625000    4,835319817e-01   -2,456516773e-01
       70700000    4,816460907e-01   -2,442613840e-01
       70775000    4,797027111e-01   -2,462172359e-01
       70850000    4,773396552e-01   -2,468281835e-01
       70925000    4,770103693e-01   -2,494897991e-01
       71000000    4,749017358e-01   -2,506541908e-01
       71075000    4,722518921e-01   -2,495547384e-01
       71150000    4,710006118e-01   -2,523635030e-01
       71225000    4,683586657e-01   -2,535832524e-01
       71300000    4,657407701e-01   -2,540857494e-01
       71375000    4,655014873e-01   -2,563040853e-01
       71450000    4,647091925e-01   -2,573288977e-01
       71525000    4,633125961e-01   -2,581229806e-01
       71600000    4,592678845e-01   -2,588246465e-01
       71675000    4,603109956e-01   -2,596371472e-01
       71750000    4,578605592e-01   -2,611956000e-01
       71825000    4,566259980e-01   -2,615555525e-01
       71900000    4,549413621e-01   -2,633415163e-01
       71975000    4,542750120e-01   -2,642764449e-01
       72050000    4,507092237e-01   -2,648023069e-01
       72125000    4,504077435e-01   -2,666332126e-01
       72200000    4,484708607e-01   -2,685660720e-01
       72275000    4,482439160e-01   -2,674179077e-01
       72350000    4,468459189e-01   -2,696802616e-01
       72425000    4,466340840e-01   -2,697047293e-01
       72500000    4,433985054e-01   -2,718443573e-01
       72575000    4,426726401e-01   -2,698929310e-01
       72650000    4,410939813e-01   -2,726381123e-01
       72725000    4,422557056e-01   -2,732008696e-01
       72800000    4,386588931e-01   -2,732926607e-01
       72875000    4,373272061e-01   -2,754403055e-01
       72950000    4,363023639e-01   -2,743639052e-01
       73025000    4,353944063e-01   -2,752058506e-01
       73100000    4,346882403e-01   -2,783467770e-01
       73175000    4,332356453e-01   -2,780927420e-01
       73250000    4,300966859e-01   -2,790611684e-01
       73325000    4,298377037e-01   -2,794375122e-01
       73400000    4,300232828e-01   -2,807118893e-01
       73475000    4,286125600e-01   -2,807052433e-01
       73550000    4,282252192e-01   -2,828595936e-01
       73625000    4,260963202e-01   -2,845816016e-01
       73700000    4,265904427e-01   -2,835996449e-01
       73775000    4,246148169e-01   -2,857972682e-01
       73850000    4,254664481e-01   -2,850139737e-01
       73925000    4,226866663e-01   -2,866103053e-01
       74000000    4,209256470e-01   -2,875395119e-01
       74075000    4,218713641e-01   -2,891900837e-01
       74150000    4,218409956e-01   -2,885746062e-01
       74225000    4,207420945e-01   -2,902887464e-01
       74300000    4,202677608e-01   -2,902576327e-01
       74375000    4,191626012e-01   -2,923263907e-01
       74450000    4,167592824e-01   -2,937792838e-01
       74525000    4,176316261e-01   -2,941557765e-01
       74600000    4,147877991e-01   -2,956079245e-01
       74675000    4,157647789e-01   -2,947274745e-01
       74750000    4,146951735e-01   -2,973952591e-01
       74825000    4,130514264e-01   -2,965587974e-01
       74900000    4,124867916e-01   -2,980283499e-01
       74975000    4,117500782e-01   -3,002983928e-01
       75050000    4,107916653e-01   -3,002525866e-01
       75125000    4,099790454e-01   -3,021553457e-01
       75200000    4,108078480e-01   -3,015718460e-01
       75275000    4,083468020e-01   -3,038290739e-01
       75350000    4,080982506e-01   -3,037411273e-01
       75425000    4,074307084e-01   -3,041140139e-01
       75500000    4,050259888e-01   -3,044441044e-01
       75575000    4,037757516e-01   -3,056985438e-01
       75650000    4,045377970e-01   -3,058396876e-01
       75725000    4,037887454e-01   -3,079359829e-01
       75800000    4,016982019e-01   -3,078570962e-01
       75875000    4,017823637e-01   -3,094722331e-01
       75950000    3,993829191e-01   -3,094199598e-01
       76025000    4,003212750e-01   -3,099353015e-01
       76100000    3,996478021e-01   -3,115974069e-01
       76175000    3,980408013e-01   -3,113818765e-01
       76250000    3,966621459e-01   -3,132324815e-01
       76325000    3,962641656e-01   -3,142254651e-01
       76400000    3,962348700e-01   -3,145336807e-01
       76475000    3,954378963e-01   -3,151268661e-01
       76550000    3,938442171e-01   -3,173946738e-01
       76625000    3,943485320e-01   -3,162654638e-01
       76700000    3,923945129e-01   -3,178411424e-01
       76775000    3,907939792e-01   -3,181460500e-01
       76850000    3,923366666e-01   -3,178113997e-01
       76925000    3,907714188e-01   -3,183435798e-01
       77000000    3,884111047e-01   -3,182929754e-01
       77075000    3,884327710e-01   -3,180997670e-01
       77150000    3,893174827e-01   -3,194450736e-01
       77225000    3,880291283e-01   -3,213866651e-01
       77300000    3,864890337e-01   -3,219083548e-01
       77375000    3,871798515e-01   -3,210054934e-01
       77450000    3,855610788e-01   -3,218992651e-01
       77525000    3,852044940e-01   -3,225178421e-01
       77600000    3,846838176e-01   -3,210761547e-01
       77675000    3,843311667e-01   -3,224852383e-01
       77750000    3,809641302e-01   -3,217083216e-01
       77825000    3,827405572e-01   -3,211534321e-01
       77900000    3,824527860e-01   -3,217112124e-01
       77975000    3,813624382e-01   -3,218186200e-01
       78050000    3,818874657e-01   -3,203562796e-01
       78125000    3,811694384e-01   -3,205091953e-01
       78200000    3,804266751e-01   -3,206583261e-01
       78275000    3,819687366e-01   -3,178808987e-01
       78350000    3,832714260e-01   -3,191416860e-01
       78425000    3,841844201e-01   -3,191345334e-01
       78500000    3,845949471e-01   -3,196133077e-01
       78575000    3,874621987e-01   -3,200975358e-01
       78650000    3,869133294e-01   -3,225201368e-01
       78725000    3,865789771e-01   -3,220812976e-01
       78800000    3,889780343e-01   -3,226388395e-01
       78875000    3,895214200e-01   -3,251610994e-01
       78950000    3,902737200e-01   -3,231315911e-01
       79025000    3,898957074e-01   -3,253850341e-01
       79100000    3,900968134e-01   -3,251022398e-01
       79175000    3,912808001e-01   -3,266868889e-01
       79250000    3,904418051e-01   -3,286305666e-01
       79325000    3,924191892e-01   -3,278986514e-01
       79400000    3,929637074e-01   -3,295620382e-01
       79475000    3,929137588e-01   -3,284851909e-01
       79550000    3,937984705e-01   -3,303466737e-01
       79625000    3,936473429e-01   -3,324051797e-01
       79700000    3,968908191e-01   -3,312477171e-01
       79775000    3,970064819e-01   -3,331656158e-01
       79850000    3,958243728e-01   -3,347405493e-01
       79925000    3,979592621e-01   -3,341253996e-01
       80000000    3,992304504e-01   -3,388540149e-01
       80075000    3,989283442e-01   -3,374784887e-01
       80150000    4,010106623e-01   -3,370825648e-01
       80225000    4,017947614e-01   -3,391958475e-01
       80300000    4,021579325e-01   -3,405406177e-01
       80375000    4,035093784e-01   -3,421704173e-01
       80450000    4,046932757e-01   -3,439108133e-01
       80525000    4,057701230e-01   -3,437397182e-01
       80600000    4,070082009e-01   -3,463123441e-01
       80675000    4,073951542e-01   -3,472020328e-01
       80750000    4,091617465e-01   -3,493849337e-01
       80825000    4,098737836e-01   -3,522624373e-01
       80900000    4,113363922e-01   -3,526406884e-01
       80975000    4,120958447e-01   -3,548533022e-01
       81050000    4,126842320e-01   -3,571416140e-01
       81125000    4,144402742e-01   -3,585824668e-01
       81200000    4,137010276e-01   -3,615359366e-01
       81275000    4,166127741e-01   -3,615131676e-01
       81350000    4,170483053e-01   -3,652722538e-01
       81425000    4,164857566e-01   -3,661724329e-01
       81500000    4,182859957e-01   -3,684331179e-01
       81575000    4,176867604e-01   -3,713235259e-01
       81650000    4,194199443e-01   -3,722856641e-01
       81725000    4,214215577e-01   -3,747182488e-01
       81800000    4,211539924e-01   -3,791272938e-01
       81875000    4,222998023e-01   -3,791457713e-01
       81950000    4,231410325e-01   -3,827057183e-01
       82025000    4,229262769e-01   -3,842495978e-01
       82100000    4,249175191e-01   -3,875628710e-01
       82175000    4,236009717e-01   -3,904092610e-01
       82250000    4,260074794e-01   -3,929212391e-01
       82325000    4,251968265e-01   -3,961251974e-01
       82400000    4,265474975e-01   -3,977553844e-01
       82475000    4,279975593e-01   -4,007459581e-01
       82550000    4,276161790e-01   -4,018454254e-01
       82625000    4,288994968e-01   -4,055865109e-01
       82700000    4,282665551e-01   -4,077830017e-01
       82775000    4,289441705e-01   -4,116496146e-01
       82850000    4,279428422e-01   -4,139389694e-01
       82925000    4,296371043e-01   -4,176229537e-01
       83000000    4,283806086e-01   -4,202962816e-01
       83075000    4,293944538e-01   -4,232997894e-01
       83150000    4,277778566e-01   -4,259397984e-01
       83225000    4,288206995e-01   -4,297664464e-01
       83300000    4,281359911e-01   -4,324186146e-01
       83375000    4,312564731e-01   -4,364131987e-01
       83450000    4,302807152e-01   -4,402205646e-01
       83525000    4,298950136e-01   -4,417988360e-01
       83600000    4,287613034e-01   -4,459337294e-01
       83675000    4,266300201e-01   -4,498727322e-01
       83750000    4,281376898e-01   -4,520045519e-01
       83825000    4,279742837e-01   -4,567392766e-01
       83900000    4,274198115e-01   -4,585357904e-01
       83975000    4,264520705e-01   -4,619722962e-01
       84050000    4,241327345e-01   -4,646083117e-01
       84125000    4,251032174e-01   -4,679895341e-01
       84200000    4,245261848e-01   -4,737163186e-01
       84275000    4,228343964e-01   -4,742927849e-01
       84350000    4,226715565e-01   -4,783616066e-01
       84425000    4,205329418e-01   -4,807393849e-01
       84500000    4,216585457e-01   -4,849609435e-01
       84575000    4,203593135e-01   -4,899257720e-01
       84650000    4,182959497e-01   -4,905799031e-01
       84725000    4,181919098e-01   -4,949209988e-01
       84800000    4,147855937e-01   -4,979643226e-01
       84875000    4,159972370e-01   -5,017862320e-01
       84950000    4,134769440e-01   -5,062453151e-01
       85025000    4,100204408e-01   -5,089159608e-01
       85100000    4,115646780e-01   -5,105850697e-01
       85175000    4,098455012e-01   -5,147234201e-01
       85250000    4,067988694e-01   -5,170076489e-01
       85325000    4,063267708e-01   -5,217107534e-01
       85400000    4,030514359e-01   -5,266571045e-01
       85475000    4,030063748e-01   -5,271420479e-01
       85550000    4,008021057e-01   -5,308154821e-01
       85625000    3,985965550e-01   -5,334124565e-01
       85700000    3,938111663e-01   -5,355990529e-01
       85775000    3,945632875e-01   -5,388311148e-01
       85850000    3,923666477e-01   -5,419170856e-01
       85925000    3,906587958e-01   -5,461510420e-01
       86000000    3,883199990e-01   -5,470674038e-01
       86075000    3,859259188e-01   -5,505484343e-01
       86150000    3,808684051e-01   -5,550020933e-01
       86225000    3,792884350e-01   -5,551616549e-01
       86300000    3,788142502e-01   -5,574419498e-01
       86375000    3,759737611e-01   -5,611358285e-01
       86450000    3,721918166e-01   -5,655164123e-01
       86525000    3,681843877e-01   -5,652613044e-01
       86600000    3,686682880e-01   -5,678405762e-01
       86675000    3,656374514e-01   -5,715403557e-01
       86750000    3,630769849e-01   -5,712173581e-01
       86825000    3,608967662e-01   -5,745354295e-01
       86900000    3,569455147e-01   -5,758419633e-01
       86975000    3,550595641e-01   -5,787882805e-01
       87050000    3,519968390e-01   -5,827184916e-01
       87125000    3,499716222e-01   -5,819723010e-01
       87200000    3,480801284e-01   -5,837888122e-01
       87275000    3,432916999e-01   -5,877434611e-01
       87350000    3,404327035e-01   -5,861983895e-01
       87425000    3,401864171e-01   -5,891749859e-01
       87500000    3,356202543e-01   -5,890656710e-01
       87575000    3,362831473e-01   -5,919606686e-01
       87650000    3,297199011e-01   -5,925295353e-01
       87725000    3,294446468e-01   -5,954823494e-01
       87800000    3,253547847e-01   -5,989841223e-01
       87875000    3,250465691e-01   -5,980029106e-01
       87950000    3,216370046e-01   -5,990956426e-01
       88025000    3,198846877e-01   -6,007115245e-01
       88100000    3,142898083e-01   -6,013438702e-01
       88175000    3,143596649e-01   -6,031945944e-01
       88250000    3,108372092e-01   -6,066594720e-01
       88325000    3,066314757e-01   -6,066654921e-01
       88400000    3,062234819e-01   -6,074853539e-01
       88475000    3,008983135e-01   -6,082705259e-01
       88550000    3,008914292e-01   -6,103770733e-01
       88625000    2,994047105e-01   -6,109258533e-01
       88700000    2,935350835e-01   -6,140376925e-01
       88775000    2,907631099e-01   -6,111397743e-01
       88850000    2,904212773e-01   -6,141541600e-01
       88925000    2,888995409e-01   -6,147233248e-01
       89000000    2,843780816e-01   -6,137406826e-01
       89075000    2,837015092e-01   -6,149898767e-01
       89150000    2,764962018e-01   -6,151948571e-01
       89225000    2,769537568e-01   -6,164698601e-01
       89300000    2,712362409e-01   -6,187869906e-01
       89375000    2,715144157e-01   -6,175627708e-01
       89450000    2,673893869e-01   -6,195711493e-01
       89525000    2,652768791e-01   -6,157023907e-01
       89600000    2,644504011e-01   -6,162232161e-01
       89675000    2,633184493e-01   -6,173211932e-01
       89750000    2,601242065e-01   -6,139323711e-01
       89825000    2,592996359e-01   -6,146969795e-01
       89900000    2,566979825e-01   -6,167736053e-01
       89975000    2,550557852e-01   -6,140123606e-01
       90050000    2,540856302e-01   -6,139104962e-01
       90125000    2,497951239e-01   -6,122450233e-01
       90200000    2,497965842e-01   -6,120400429e-01
       90275000    2,509820759e-01   -6,125651598e-01
       90350000    2,484958470e-01   -6,095911860e-01
       90425000    2,476992607e-01   -6,100404859e-01
       90500000    2,441390902e-01   -6,096889973e-01
       90575000    2,482451797e-01   -6,091895103e-01
       90650000    2,465604395e-01   -6,084513068e-01
       90725000    2,464349717e-01   -6,108885407e-01
       90800000    2,482631356e-01   -6,083388329e-01
       90875000    2,476215512e-01   -6,098997593e-01
       90950000    2,473524958e-01   -6,074671149e-01
       91025000    2,490878552e-01   -6,093538404e-01
       91100000    2,483190447e-01   -6,077685952e-01
       91175000    2,487908006e-01   -6,093795300e-01
       91250000    2,462127656e-01   -6,103646755e-01
       91325000    2,487136424e-01   -6,116151810e-01
       91400000    2,478921860e-01   -6,161530018e-01
       91475000    2,510682046e-01   -6,162124872e-01
       91550000    2,516861260e-01   -6,192183495e-01
       91625000    2,521091700e-01   -6,173971295e-01
       91700000    2,522868514e-01   -6,220216155e-01
       91775000    2,522465587e-01   -6,198748946e-01
       91850000    2,543886304e-01   -6,237462163e-01
       91925000    2,504650652e-01   -6,246166825e-01
