! NanoVNA-App
! Date: 2025-08-09 16:26:34
! Start: 65MHz Stop: 95MHz Points: 401
! S-Parameter data: F S11
# Hz S RI R 50
!     Frequency           S11_Real           S11_Imag
       65000000   -4,992098212e-01    4,666624367e-01
       65075000   -4,914307594e-01    4,634286165e-01
       65150000   -4,875420034e-01    4,697046876e-01
       65225000   -4,847924709e-01    4,716111422e-01
       65300000   -4,785335064e-01    4,751936197e-01
       65375000   -4,681805968e-01    4,753189385e-01
       65450000   -4,633726776e-01    4,737519622e-01
       65525000   -4,605707228e-01    4,785656333e-01
       65600000   -4,527845383e-01    4,762540758e-01
       65675000   -4,505590498e-01    4,777391255e-01
       65750000   -4,426427186e-01    4,841992557e-01
       65825000   -4,353828132e-01    4,868643284e-01
       65900000   -4,296869636e-01    4,841648936e-01
       65975000   -4,294921458e-01    4,896245003e-01
       66050000   -4,181733727e-01    4,904428720e-01
       66125000   -4,180879891e-01    4,888620675e-01
       66200000   -4,106867611e-01    4,888771474e-01
       66275000   -4,094244838e-01    4,914346039e-01
       66350000   -4,065855742e-01    4,912530780e-01
       66425000   -3,968466520e-01    4,934761822e-01
       66500000   -3,961779177e-01    4,920449853e-01
       66575000   -3,877849281e-01    4,933278561e-01
       66650000   -3,819867969e-01    4,950335026e-01
       66725000   -3,775206208e-01    4,996005297e-01
       66800000   -3,709876239e-01    5,008484125e-01
       66875000   -3,672110438e-01    5,020398498e-01
       66950000   -3,625487685e-01    5,025774240e-01
       67025000   -3,578033447e-01    5,040237308e-01
       67100000   -3,534395099e-01    5,046517253e-01
       67175000   -3,536737859e-01    5,040112734e-01
       67250000   -3,485022485e-01    5,029237866e-01
       67325000   -3,435061276e-01    5,080900788e-01
       67400000   -3,381264508e-01    5,101254582e-01
       67475000   -3,316941857e-01    5,075188875e-01
       67550000   -3,238921762e-01    5,132863522e-01
       67625000   -3,210845888e-01    5,145194530e-01
       67700000   -3,145771027e-01    5,155503750e-01
       67775000   -3,093397915e-01    5,110535622e-01
       67850000   -3,038091063e-01    5,140452385e-01
       67925000   -2,981427908e-01    5,152177811e-01
       68000000   -2,925061584e-01    5,144559145e-01
       68075000   -2,894245386e-01    5,192756057e-01
       68150000   -2,839471996e-01    5,191649795e-01
       68225000   -2,834345102e-01    5,169085264e-01
       68300000   -2,772098780e-01    5,181506276e-01
       68375000   -2,732203603e-01    5,181246400e-01
       68450000   -2,655259967e-01    5,153687000e-01
       68525000   -2,607243955e-01    5,165252090e-01
       68600000   -2,569177747e-01    5,167325139e-01
       68675000   -2,492679060e-01    5,169831514e-01
       68750000   -2,443305701e-01    5,171276927e-01
       68825000   -2,382321358e-01    5,190201402e-01
       68900000   -2,326041758e-01    5,187038183e-01
       68975000   -2,290931493e-01    5,177506804e-01
       69050000   -2,235726565e-01    5,178529620e-01
       69125000   -2,195806652e-01    5,176184773e-01
       69200000   -2,152452171e-01    5,167255998e-01
       69275000   -2,102487385e-01    5,161063075e-01
       69350000   -2,048208714e-01    5,160661936e-01
       69425000   -2,010256946e-01    5,156322718e-01
       69500000   -1,964298338e-01    5,139825344e-01
       69575000   -1,927837431e-01    5,140191317e-01
       69650000   -1,892714947e-01    5,136901736e-01
       69725000   -1,827051193e-01    5,127955079e-01
       69800000   -1,784687936e-01    5,118472576e-01
       69875000   -1,755471677e-01    5,123235583e-01
       69950000   -1,740413159e-01    5,157083273e-01
       70025000   -1,684071571e-01    5,100581050e-01
       70100000   -1,644749641e-01    5,138505697e-01
       70175000   -1,590695381e-01    5,090702176e-01
       70250000   -1,572035998e-01    5,078675747e-01
       70325000   -1,525529325e-01    5,069047213e-01
       70400000   -1,494297385e-01    5,058248639e-01
       70475000   -1,441393048e-01    5,071187019e-01
       70550000   -1,419877708e-01    5,102074742e-01
       70625000   -1,413905025e-01    5,085658431e-01
       70700000   -1,353972256e-01    5,044011474e-01
       70775000   -1,313077211e-01    5,037830472e-01
       70850000   -1,286511868e-01    5,040399432e-01
       70925000   -1,250597388e-01    5,082315803e-01
       71000000   -1,226232499e-01    5,087230206e-01
       71075000   -1,195182577e-01    5,055176020e-01
       71150000   -1,111472398e-01    5,086861253e-01
       71225000   -1,073964387e-01    5,044288635e-01
       71300000   -1,038662270e-01    5,037742257e-01
       71375000   -9,859231114e-02    5,049495101e-01
       71450000   -9,732812643e-02    5,068401098e-01
       71525000   -9,206764400e-02    5,068126321e-01
       71600000   -8,898980916e-02    5,022729635e-01
       71675000   -8,014465868e-02    5,079702139e-01
       71750000   -7,771122456e-02    5,037703514e-01
       71825000   -7,285173237e-02    5,024808049e-01
       71900000   -6,853839755e-02    5,014653802e-01
       71975000   -6,453581899e-02    4,974345565e-01
       72050000   -6,553584337e-02    4,973941445e-01
       72125000   -5,979724973e-02    4,940443039e-01
       72200000   -5,741243064e-02    4,924651086e-01
       72275000   -5,154154450e-02    4,898089767e-01
       72350000   -4,910024256e-02    4,885247052e-01
       72425000   -4,628199711e-02    4,860416353e-01
       72500000   -4,111190140e-02    4,848660231e-01
       72575000   -3,993749619e-02    4,832997918e-01
       72650000   -3,532832488e-02    4,847000539e-01
       72725000   -3,713187948e-02    4,812122285e-01
       72800000   -3,350425884e-02    4,799872339e-01
       72875000   -3,172211349e-02    4,798971415e-01
       72950000   -2,862007543e-02    4,778549373e-01
       73025000   -2,672097459e-02    4,796796739e-01
       73100000   -2,029153518e-02    4,775833488e-01
       73175000   -2,283792570e-02    4,772455394e-01
       73250000   -1,735956967e-02    4,742517471e-01
       73325000   -1,758288406e-02    4,755406380e-01
       73400000   -1,392360218e-02    4,745836556e-01
       73475000   -1,117259823e-02    4,744354486e-01
       73550000   -7,144264877e-03    4,719431698e-01
       73625000   -4,476449452e-03    4,708015919e-01
       73700000   -2,949565824e-04    4,729159772e-01
       73775000    2,425046405e-03    4,710394144e-01
       73850000    6,364268251e-03    4,728653133e-01
       73925000    8,199013770e-03    4,709275067e-01
       74000000    9,554572403e-03    4,739984274e-01
       74075000    1,069758181e-02    4,717045724e-01
       74150000    1,790587418e-02    4,700440764e-01
       74225000    1,832011342e-02    4,678255022e-01
       74300000    2,181092650e-02    4,679576457e-01
       74375000    2,643498406e-02    4,676828086e-01
       74450000    2,700988762e-02    4,704678655e-01
       74525000    2,995949239e-02    4,708120525e-01
       74600000    3,336985782e-02    4,694225788e-01
       74675000    3,511586040e-02    4,674420953e-01
       74750000    3,855804726e-02    4,658604860e-01
       74825000    4,361579195e-02    4,637234211e-01
       74900000    4,645243660e-02    4,626480937e-01
       74975000    5,091112107e-02    4,648897648e-01
       75050000    5,342481658e-02    4,655393064e-01
       75125000    5,676762760e-02    4,637364447e-01
       75200000    5,968628824e-02    4,624821842e-01
       75275000    6,281936169e-02    4,626722038e-01
       75350000    6,553161144e-02    4,614517093e-01
       75425000    6,289236248e-02    4,630677700e-01
       75500000    6,891872734e-02    4,596570730e-01
       75575000    7,143732160e-02    4,585426450e-01
       75650000    7,443619519e-02    4,573532045e-01
       75725000    7,757069170e-02    4,566197395e-01
       75800000    7,987084985e-02    4,558202326e-01
       75875000    8,331625164e-02    4,543233216e-01
       75950000    8,676704764e-02    4,544712901e-01
       76025000    9,056206793e-02    4,512913823e-01
       76100000    9,326327592e-02    4,493332505e-01
       76175000    9,540610015e-02    4,502015710e-01
       76250000    9,817067534e-02    4,491719604e-01
       76325000    1,001464725e-01    4,475210309e-01
       76400000    1,035378650e-01    4,471195340e-01
       76475000    1,043518409e-01    4,429083467e-01
       76550000    1,060058624e-01    4,451063573e-01
       76625000    1,085604504e-01    4,440434873e-01
       76700000    1,111986414e-01    4,428286552e-01
       76775000    1,147626787e-01    4,388915598e-01
       76850000    1,158123389e-01    4,399433136e-01
       76925000    1,151832044e-01    4,366728067e-01
       77000000    1,166340560e-01    4,360588193e-01
       77075000    1,177421734e-01    4,382207692e-01
       77150000    1,216394976e-01    4,394995868e-01
       77225000    1,239788979e-01    4,368959069e-01
       77300000    1,280379444e-01    4,380167127e-01
       77375000    1,307098567e-01    4,384007156e-01
       77450000    1,342901587e-01    4,397553802e-01
       77525000    1,374850273e-01    4,386042356e-01
       77600000    1,402564645e-01    4,372955859e-01
       77675000    1,430011988e-01    4,384924471e-01
       77750000    1,435917318e-01    4,372234941e-01
       77825000    1,481985003e-01    4,340997040e-01
       77900000    1,502982080e-01    4,362287819e-01
       77975000    1,510292441e-01    4,343160093e-01
       78050000    1,550256908e-01    4,312514365e-01
       78125000    1,585176438e-01    4,348068237e-01
       78200000    1,594316363e-01    4,337615073e-01
       78275000    1,641082466e-01    4,299539626e-01
       78350000    1,644204110e-01    4,321753681e-01
       78425000    1,691671759e-01    4,310247302e-01
       78500000    1,717620939e-01    4,298483729e-01
       78575000    1,716154516e-01    4,306247830e-01
       78650000    1,748959571e-01    4,307878613e-01
       78725000    1,787424535e-01    4,267387986e-01
       78800000    1,807208955e-01    4,297004640e-01
       78875000    1,824520826e-01    4,288623929e-01
       78950000    1,853359342e-01    4,290667474e-01
       79025000    1,865765899e-01    4,280091822e-01
       79100000    1,907408535e-01    4,284320772e-01
       79175000    1,922096014e-01    4,244947135e-01
       79250000    1,949374676e-01    4,245007336e-01
       79325000    1,996659935e-01    4,250427783e-01
       79400000    2,023864537e-01    4,255869091e-01
       79475000    2,039421499e-01    4,273876548e-01
       79550000    2,057086676e-01    4,260784090e-01
       79625000    2,077593654e-01    4,263502061e-01
       79700000    2,133340091e-01    4,245280027e-01
       79775000    2,172079384e-01    4,251875877e-01
       79850000    2,180617154e-01    4,295269549e-01
       79925000    2,231880575e-01    4,248023927e-01
       80000000    2,248410583e-01    4,218382239e-01
       80075000    2,268759012e-01    4,284799099e-01
       80150000    2,307016551e-01    4,256455898e-01
       80225000    2,363168895e-01    4,266157150e-01
       80300000    2,426858246e-01    4,235529304e-01
       80375000    2,427427471e-01    4,232807159e-01
       80450000    2,444165200e-01    4,228850603e-01
       80525000    2,484098971e-01    4,249570966e-01
       80600000    2,541367114e-01    4,213008583e-01
       80675000    2,551189363e-01    4,198721945e-01
       80750000    2,606109977e-01    4,194313586e-01
       80825000    2,635406554e-01    4,230717421e-01
       80900000    2,717509866e-01    4,215187132e-01
       80975000    2,706998587e-01    4,198578298e-01
       81050000    2,780683935e-01    4,184919000e-01
       81125000    2,801493704e-01    4,140032530e-01
       81200000    2,833929658e-01    4,171992242e-01
       81275000    2,897513211e-01    4,145587981e-01
       81350000    2,916253507e-01    4,128741026e-01
       81425000    2,929564416e-01    4,115852118e-01
       81500000    2,963600457e-01    4,146237969e-01
       81575000    3,030351698e-01    4,111259282e-01
       81650000    3,079396486e-01    4,091617465e-01
       81725000    3,071315885e-01    4,094480574e-01
       81800000    3,145662248e-01    4,074256420e-01
       81875000    3,199232519e-01    4,041318893e-01
       81950000    3,220867515e-01    4,037140906e-01
       82025000    3,266160786e-01    4,052065313e-01
       82100000    3,324408531e-01    4,036563635e-01
       82175000    3,332350254e-01    4,002319574e-01
       82250000    3,379397392e-01    4,004862010e-01
       82325000    3,423170447e-01    3,995811939e-01
       82400000    3,440509737e-01    3,958382308e-01
       82475000    3,460729122e-01    3,935285211e-01
       82550000    3,517020643e-01    3,945641220e-01
       82625000    3,558900952e-01    3,898269534e-01
       82700000    3,575783968e-01    3,927024603e-01
       82775000    3,647317588e-01    3,893775940e-01
       82850000    3,672172129e-01    3,876071572e-01
       82925000    3,720763028e-01    3,877635300e-01
       83000000    3,774698377e-01    3,825607002e-01
       83075000    3,787836432e-01    3,818320930e-01
       83150000    3,846584558e-01    3,807505071e-01
       83225000    3,888429999e-01    3,761745691e-01
       83300000    3,921398222e-01    3,774528801e-01
       83375000    3,989115953e-01    3,743366301e-01
       83450000    4,045186043e-01    3,711362183e-01
       83525000    4,071759582e-01    3,656721413e-01
       83600000    4,109617174e-01    3,673558235e-01
       83675000    4,133458436e-01    3,641453683e-01
       83750000    4,194607139e-01    3,616296947e-01
       83825000    4,258334339e-01    3,568751812e-01
       83900000    4,273551106e-01    3,534390628e-01
       83975000    4,324075282e-01    3,518044949e-01
       84050000    4,384296834e-01    3,501516283e-01
       84125000    4,429569542e-01    3,448513746e-01
       84200000    4,461438060e-01    3,423451185e-01
       84275000    4,499178529e-01    3,372798264e-01
       84350000    4,535262883e-01    3,356916606e-01
       84425000    4,594008923e-01    3,325759172e-01
       84500000    4,611659050e-01    3,266565204e-01
       84575000    4,670144320e-01    3,250814378e-01
       84650000    4,694881439e-01    3,219231963e-01
       84725000    4,716450870e-01    3,178227842e-01
       84800000    4,784038663e-01    3,133923411e-01
       84875000    4,801002443e-01    3,079509437e-01
       84950000    4,856245518e-01    3,050391972e-01
       85025000    4,902987182e-01    3,007814288e-01
       85100000    4,934180975e-01    2,972053289e-01
       85175000    4,955757558e-01    2,934747338e-01
       85250000    4,982074797e-01    2,882672250e-01
       85325000    5,002492666e-01    2,833077908e-01
       85400000    5,050655603e-01    2,791538537e-01
       85475000    5,086410046e-01    2,731768489e-01
       85550000    5,104568601e-01    2,697243094e-01
       85625000    5,135522485e-01    2,655001283e-01
       85700000    5,161433220e-01    2,606550157e-01
       85775000    5,185285807e-01    2,556058168e-01
       85850000    5,221670270e-01    2,499575317e-01
       85925000    5,244902968e-01    2,440627068e-01
       86000000    5,262672901e-01    2,387020886e-01
       86075000    5,279525518e-01    2,342882305e-01
       86150000    5,298175216e-01    2,307755500e-01
       86225000    5,321691036e-01    2,241187990e-01
       86300000    5,335043073e-01    2,203771323e-01
       86375000    5,340262651e-01    2,151627392e-01
       86450000    5,361807346e-01    2,085823566e-01
       86525000    5,372409821e-01    2,043253183e-01
       86600000    5,383315086e-01    1,997104734e-01
       86675000    5,389055610e-01    1,927711517e-01
       86750000    5,397254229e-01    1,890420765e-01
       86825000    5,407367945e-01    1,843767017e-01
       86900000    5,414164662e-01    1,794523746e-01
       86975000    5,419515371e-01    1,739339978e-01
       87050000    5,414761305e-01    1,698113382e-01
       87125000    5,414348841e-01    1,642364413e-01
       87200000    5,414371490e-01    1,602558047e-01
       87275000    5,417183638e-01    1,566423029e-01
       87350000    5,410657525e-01    1,519367546e-01
       87425000    5,405744314e-01    1,470831037e-01
       87500000    5,398939252e-01    1,432702839e-01
       87575000    5,396120548e-01    1,397082508e-01
       87650000    5,394942164e-01    1,373862922e-01
       87725000    5,404827595e-01    1,325518638e-01
       87800000    5,386133194e-01    1,300202012e-01
       87875000    5,390415192e-01    1,265363097e-01
       87950000    5,373608470e-01    1,235337183e-01
       88025000    5,381591916e-01    1,207328066e-01
       88100000    5,374134183e-01    1,172910333e-01
       88175000    5,375328064e-01    1,131723151e-01
       88250000    5,370622277e-01    1,112232953e-01
       88325000    5,375968814e-01    1,083629131e-01
       88400000    5,361787081e-01    1,053070724e-01
       88475000    5,372484326e-01    1,022270471e-01
       88550000    5,359191298e-01    9,909982979e-02
       88625000    5,369725227e-01    9,662453085e-02
       88700000    5,366419554e-01    9,413361549e-02
       88775000    5,377337337e-01    9,058228135e-02
       88850000    5,348417163e-01    8,669580519e-02
       88925000    5,364030600e-01    8,422992378e-02
       89000000    5,354503989e-01    8,008550107e-02
       89075000    5,348471403e-01    7,879520953e-02
       89150000    5,349343419e-01    7,435882092e-02
       89225000    5,335017443e-01    7,392522693e-02
       89300000    5,331315398e-01    6,985393912e-02
       89375000    5,318986773e-01    6,751865894e-02
       89450000    5,307940841e-01    6,549206376e-02
       89525000    5,289512873e-01    6,179504842e-02
       89600000    5,287812948e-01    6,088724360e-02
       89675000    5,270054936e-01    5,960482731e-02
       89750000    5,251115561e-01    5,738363415e-02
       89825000    5,246708989e-01    5,681566894e-02
       89900000    5,235623717e-01    5,524639040e-02
       89975000    5,217002630e-01    5,489469320e-02
       90050000    5,209457874e-01    5,343571678e-02
       90125000    5,189496279e-01    5,306200311e-02
       90200000    5,193287730e-01    5,332581699e-02
       90275000    5,191522241e-01    5,304261670e-02
       90350000    5,185466409e-01    5,387029052e-02
       90425000    5,179255009e-01    5,443618819e-02
       90500000    5,181602836e-01    5,452589691e-02
       90575000    5,195810795e-01    5,591182783e-02
       90650000    5,206670761e-01    5,647706613e-02
       90725000    5,209265947e-01    5,534305051e-02
       90800000    5,228955150e-01    5,774768442e-02
       90875000    5,252867937e-01    5,744741485e-02
       90950000    5,267559886e-01    5,927575380e-02
       91025000    5,295676589e-01    5,820257589e-02
       91100000    5,319643021e-01    5,962159485e-02
       91175000    5,351961255e-01    5,944892392e-02
       91250000    5,377499461e-01    5,998052657e-02
       91325000    5,417899489e-01    5,943023413e-02
       91400000    5,441411138e-01    5,963725969e-02
       91475000    5,489323139e-01    5,889887735e-02
       91550000    5,511625409e-01    5,713350698e-02
       91625000    5,557627082e-01    5,653461069e-02
       91700000    5,597053170e-01    5,562870204e-02
       91775000    5,637618899e-01    5,373189598e-02
       91850000    5,664665103e-01    5,152411014e-02
       91925000    5,717052221e-01    4,952131212e-02
