! NanoVNA-App
! Date: 2025-08-09 13:21:16
! Start: 65MHz Stop: 95MHz Points: 401
! S-Parameter data: F S11
# Hz S RI R 50
!     Frequency           S11_Real           S11_Imag
       65000000    6,425943375e-01   -2,566874027e-01
       65075000    6,480345130e-01   -2,560214996e-01
       65150000    6,462555528e-01   -2,602770329e-01
       65225000    6,441630721e-01   -2,632578611e-01
       65300000    6,413357854e-01   -2,631319165e-01
       65375000    6,404816508e-01   -2,670835555e-01
       65450000    6,379765272e-01   -2,696303129e-01
       65525000    6,352249384e-01   -2,728431523e-01
       65600000    6,343173385e-01   -2,731052637e-01
       65675000    6,317213178e-01   -2,742788494e-01
       65750000    6,280177236e-01   -2,760083973e-01
       65825000    6,271088123e-01   -2,802459300e-01
       65900000    6,245443821e-01   -2,834045291e-01
       65975000    6,233369112e-01   -2,842321396e-01
       66050000    6,220074892e-01   -2,863977253e-01
       66125000    6,170409322e-01   -2,883065939e-01
       66200000    6,171802282e-01   -2,903821766e-01
       66275000    6,155430079e-01   -2,926506400e-01
       66350000    6,131560802e-01   -2,941839397e-01
       66425000    6,091389060e-01   -2,961861491e-01
       66500000    6,078954339e-01   -2,980715632e-01
       66575000    6,074299812e-01   -2,999823987e-01
       66650000    6,033613086e-01   -3,015399873e-01
       66725000    6,032791734e-01   -3,050649464e-01
       66800000    6,005762815e-01   -3,080783486e-01
       66875000    5,987557769e-01   -3,067719936e-01
       66950000    5,977519155e-01   -3,097394407e-01
       67025000    5,960313082e-01   -3,116583824e-01
       67100000    5,932785869e-01   -3,143243194e-01
       67175000    5,943096876e-01   -3,174318075e-01
       67250000    5,923616886e-01   -3,181188405e-01
       67325000    5,911291242e-01   -3,226893842e-01
       67400000    5,892255306e-01   -3,236188591e-01
       67475000    5,845307112e-01   -3,239850104e-01
       67550000    5,848056674e-01   -3,289147019e-01
       67625000    5,836423635e-01   -3,315147161e-01
       67700000    5,819318295e-01   -3,327634633e-01
       67775000    5,796343088e-01   -3,355871141e-01
       67850000    5,781583190e-01   -3,378315568e-01
       67925000    5,772361755e-01   -3,385610878e-01
       68000000    5,751702189e-01   -3,417768180e-01
       68075000    5,719030499e-01   -3,427670896e-01
       68150000    5,690904260e-01   -3,452811837e-01
       68225000    5,683177114e-01   -3,489418626e-01
       68300000    5,650177598e-01   -3,526363075e-01
       68375000    5,639135838e-01   -3,554349840e-01
       68450000    5,624912381e-01   -3,545998037e-01
       68525000    5,608565807e-01   -3,570524156e-01
       68600000    5,571129918e-01   -3,593547046e-01
       68675000    5,567891598e-01   -3,634519875e-01
       68750000    5,532431602e-01   -3,663989305e-01
       68825000    5,508222580e-01   -3,656421602e-01
       68900000    5,489001870e-01   -3,680097759e-01
       68975000    5,467067957e-01   -3,700820506e-01
       69050000    5,430787206e-01   -3,709085286e-01
       69125000    5,410435796e-01   -3,743961155e-01
       69200000    5,379806161e-01   -3,752791584e-01
       69275000    5,357186198e-01   -3,772428632e-01
       69350000    5,319715142e-01   -3,792135715e-01
       69425000    5,309416056e-01   -3,812615573e-01
       69500000    5,260317922e-01   -3,821862638e-01
       69575000    5,251621008e-01   -3,855328560e-01
       69650000    5,221395493e-01   -3,880650997e-01
       69725000    5,206348896e-01   -3,883471191e-01
       69800000    5,174335837e-01   -3,912098706e-01
       69875000    5,162758231e-01   -3,909510970e-01
       69950000    5,122450590e-01   -3,908029795e-01
       70025000    5,112262964e-01   -3,941641152e-01
       70100000    5,048856139e-01   -3,941231668e-01
       70175000    5,036656260e-01   -3,934536576e-01
       70250000    5,013403893e-01   -3,961258531e-01
       70325000    4,973969162e-01   -3,984021246e-01
       70400000    4,967146814e-01   -3,989982307e-01
       70475000    4,943984449e-01   -3,995239437e-01
       70550000    4,931618273e-01   -3,996157050e-01
       70625000    4,901224971e-01   -3,984625936e-01
       70700000    4,880036712e-01   -4,017694294e-01
       70775000    4,859886467e-01   -4,022806585e-01
       70850000    4,834835529e-01   -4,044765830e-01
       70925000    4,796043932e-01   -4,009860754e-01
       71000000    4,797151089e-01   -4,025783539e-01
       71075000    4,793214798e-01   -4,061188996e-01
       71150000    4,756508172e-01   -4,043795168e-01
       71225000    4,745887220e-01   -4,040260613e-01
       71300000    4,732920229e-01   -4,047269523e-01
       71375000    4,726847708e-01   -4,058273137e-01
       71450000    4,674465656e-01   -4,080413878e-01
       71525000    4,660962522e-01   -4,075521231e-01
       71600000    4,670003355e-01   -4,086978436e-01
       71675000    4,618600011e-01   -4,094864130e-01
       71750000    4,625425041e-01   -4,095072448e-01
       71825000    4,582651258e-01   -4,107790589e-01
       71900000    4,599215388e-01   -4,119280279e-01
       71975000    4,593325853e-01   -4,112201333e-01
       72050000    4,559793174e-01   -4,128665328e-01
       72125000    4,550951123e-01   -4,152604342e-01
       72200000    4,536971450e-01   -4,139855802e-01
       72275000    4,525737464e-01   -4,144346118e-01
       72350000    4,514382780e-01   -4,161516726e-01
       72425000    4,492482543e-01   -4,156874418e-01
       72500000    4,486940801e-01   -4,229139686e-01
       72575000    4,472035468e-01   -4,161955714e-01
       72650000    4,424110651e-01   -4,153179228e-01
       72725000    4,428169429e-01   -4,181973040e-01
       72800000    4,410909712e-01   -4,205143452e-01
       72875000    4,400116801e-01   -4,188507497e-01
       72950000    4,376836121e-01   -4,216031730e-01
       73025000    4,376078248e-01   -4,205911458e-01
       73100000    4,355021119e-01   -4,201015830e-01
       73175000    4,359314442e-01   -4,223362803e-01
       73250000    4,330585897e-01   -4,195830524e-01
       73325000    4,326565266e-01   -4,210193753e-01
       73400000    4,310171902e-01   -4,205657244e-01
       73475000    4,297109842e-01   -4,224889874e-01
       73550000    4,264821112e-01   -4,237653911e-01
       73625000    4,259818196e-01   -4,231741726e-01
       73700000    4,261407852e-01   -4,249076545e-01
       73775000    4,233815670e-01   -4,264118671e-01
       73850000    4,247184992e-01   -4,261923134e-01
       73925000    4,238468111e-01   -4,273209274e-01
       74000000    4,227347970e-01   -4,292891324e-01
       74075000    4,224501252e-01   -4,272228181e-01
       74150000    4,204061925e-01   -4,284185469e-01
       74225000    4,177334607e-01   -4,276014268e-01
       74300000    4,175148904e-01   -4,296493232e-01
       74375000    4,149163663e-01   -4,318298101e-01
       74450000    4,164344966e-01   -4,293289185e-01
       74525000    4,146958590e-01   -4,304176569e-01
       74600000    4,131863117e-01   -4,312120080e-01
       74675000    4,099537134e-01   -4,331342578e-01
       74750000    4,107551277e-01   -4,341550767e-01
       74825000    4,112543762e-01   -4,339018166e-01
       74900000    4,115543664e-01   -4,350002110e-01
       74975000    4,057667553e-01   -4,344833195e-01
       75050000    4,068980515e-01   -4,358300567e-01
       75125000    4,052627981e-01   -4,365049303e-01
       75200000    4,032933712e-01   -4,382605255e-01
       75275000    4,029698968e-01   -4,385552704e-01
       75350000    4,014087617e-01   -4,392994940e-01
       75425000    4,032522142e-01   -4,401260614e-01
       75500000    4,013111591e-01   -4,393667579e-01
       75575000    4,018636048e-01   -4,415694177e-01
       75650000    3,989652097e-01   -4,405266941e-01
       75725000    3,975303769e-01   -4,420414865e-01
       75800000    3,981713355e-01   -4,441982210e-01
       75875000    3,963690400e-01   -4,432057440e-01
       75950000    3,960587382e-01   -4,449462295e-01
       76025000    3,935815394e-01   -4,447624683e-01
       76100000    3,936421275e-01   -4,461066723e-01
       76175000    3,925070763e-01   -4,449930191e-01
       76250000    3,906632364e-01   -4,451796412e-01
       76325000    3,890976608e-01   -4,449622929e-01
       76400000    3,854065835e-01   -4,453980327e-01
       76475000    3,871023953e-01   -4,477802813e-01
       76550000    3,860544860e-01   -4,482313693e-01
       76625000    3,846069872e-01   -4,493760765e-01
       76700000    3,847509623e-01   -4,515392184e-01
       76775000    3,811322153e-01   -4,477418959e-01
       76850000    3,815853298e-01   -4,503661096e-01
       76925000    3,798162341e-01   -4,484240413e-01
       77000000    3,792815804e-01   -4,495086372e-01
       77075000    3,801013529e-01   -4,497531950e-01
       77150000    3,797558546e-01   -4,522269368e-01
       77225000    3,770701885e-01   -4,514794648e-01
       77300000    3,764220178e-01   -4,537096322e-01
       77375000    3,759251833e-01   -4,526428282e-01
       77450000    3,767041266e-01   -4,524407685e-01
       77525000    3,744544685e-01   -4,506461322e-01
       77600000    3,741807938e-01   -4,513833821e-01
       77675000    3,716019094e-01   -4,501131475e-01
       77750000    3,706313372e-01   -4,513920248e-01
       77825000    3,719355166e-01   -4,498701394e-01
       77900000    3,699028194e-01   -4,525391459e-01
       77975000    3,695343733e-01   -4,535272419e-01
       78050000    3,700585663e-01   -4,490653276e-01
       78125000    3,681059778e-01   -4,522728622e-01
       78200000    3,713357747e-01   -4,510283172e-01
       78275000    3,693906367e-01   -4,498291612e-01
       78350000    3,708098531e-01   -4,519373775e-01
       78425000    3,725240529e-01   -4,502592385e-01
       78500000    3,735898435e-01   -4,521506131e-01
       78575000    3,720935285e-01   -4,494106472e-01
       78650000    3,740251660e-01   -4,513183534e-01
       78725000    3,738730550e-01   -4,526761770e-01
       78800000    3,729244471e-01   -4,535040259e-01
       78875000    3,708940148e-01   -4,542863965e-01
       78950000    3,725259602e-01   -4,558793902e-01
       79025000    3,738197982e-01   -4,577571750e-01
       79100000    3,732969463e-01   -4,586474299e-01
       79175000    3,734296262e-01   -4,562618434e-01
       79250000    3,730934858e-01   -4,578118920e-01
       79325000    3,732480109e-01   -4,603145719e-01
       79400000    3,733067214e-01   -4,622837603e-01
       79475000    3,749208748e-01   -4,609817266e-01
       79550000    3,738330603e-01   -4,612454772e-01
       79625000    3,753595650e-01   -4,625435472e-01
       79700000    3,734663725e-01   -4,655861855e-01
       79775000    3,750689328e-01   -4,660019577e-01
       79850000    3,762481809e-01   -4,647737145e-01
       79925000    3,763475716e-01   -4,668395817e-01
       80000000    3,715359867e-01   -4,684897661e-01
       80075000    3,734217286e-01   -4,682582021e-01
       80150000    3,760856986e-01   -4,708074331e-01
       80225000    3,752410114e-01   -4,699059427e-01
       80300000    3,770166636e-01   -4,719119370e-01
       80375000    3,755625188e-01   -4,739424288e-01
       80450000    3,788078129e-01   -4,755637050e-01
       80525000    3,797821403e-01   -4,765219986e-01
       80600000    3,807602525e-01   -4,783381522e-01
       80675000    3,800545037e-01   -4,773415029e-01
       80750000    3,791579008e-01   -4,804736972e-01
       80825000    3,812768161e-01   -4,822662473e-01
       80900000    3,820535839e-01   -4,847882986e-01
       80975000    3,784624338e-01   -4,866760373e-01
       81050000    3,827527463e-01   -4,888623953e-01
       81125000    3,822780252e-01   -4,906668961e-01
       81200000    3,820778728e-01   -4,935656190e-01
       81275000    3,823895454e-01   -4,939718544e-01
       81350000    3,823774755e-01   -4,970472157e-01
       81425000    3,828315139e-01   -4,972816110e-01
       81500000    3,821713626e-01   -4,995941222e-01
       81575000    3,824064136e-01   -5,007402301e-01
       81650000    3,849724233e-01   -5,036140680e-01
       81725000    3,844955564e-01   -5,057607293e-01
       81800000    3,840424120e-01   -5,077746511e-01
       81875000    3,825873733e-01   -5,072466135e-01
       81950000    3,828139901e-01   -5,108647346e-01
       82025000    3,826601803e-01   -5,135838389e-01
       82100000    3,822878003e-01   -5,180637836e-01
       82175000    3,836386502e-01   -5,198663473e-01
       82250000    3,818562925e-01   -5,233749151e-01
       82325000    3,833927512e-01   -5,231041312e-01
       82400000    3,825024962e-01   -5,241898298e-01
       82475000    3,821117282e-01   -5,266565084e-01
       82550000    3,797217607e-01   -5,294424891e-01
       82625000    3,789091110e-01   -5,341869593e-01
       82700000    3,807393014e-01   -5,362671614e-01
       82775000    3,770876229e-01   -5,390312076e-01
       82850000    3,791511357e-01   -5,405754447e-01
       82925000    3,783742487e-01   -5,425407887e-01
       83000000    3,790988326e-01   -5,467993617e-01
       83075000    3,773082197e-01   -5,485907793e-01
       83150000    3,757433593e-01   -5,510103106e-01
       83225000    3,744483888e-01   -5,533992052e-01
       83300000    3,755968213e-01   -5,561006665e-01
       83375000    3,725163639e-01   -5,588913560e-01
       83450000    3,762711585e-01   -5,603886247e-01
       83525000    3,744528294e-01   -5,624446869e-01
       83600000    3,739966750e-01   -5,656481385e-01
       83675000    3,708254099e-01   -5,725114942e-01
       83750000    3,717642426e-01   -5,729104877e-01
       83825000    3,683709800e-01   -5,735230446e-01
       83900000    3,682838976e-01   -5,764710307e-01
       83975000    3,647074103e-01   -5,806090832e-01
       84050000    3,662567437e-01   -5,835949779e-01
       84125000    3,661331832e-01   -5,849899054e-01
       84200000    3,631803691e-01   -5,866605043e-01
       84275000    3,594916165e-01   -5,923791528e-01
       84350000    3,605619073e-01   -5,938265920e-01
       84425000    3,610945344e-01   -5,948085189e-01
       84500000    3,599329591e-01   -6,000420451e-01
       84575000    3,537550867e-01   -5,990470648e-01
       84650000    3,552296460e-01   -6,047308445e-01
       84725000    3,533762395e-01   -6,051465869e-01
       84800000    3,521163464e-01   -6,078547239e-01
       84875000    3,497820795e-01   -6,090896726e-01
       84950000    3,482402861e-01   -6,143816113e-01
       85025000    3,432163298e-01   -6,158998013e-01
       85100000    3,452185094e-01   -6,196887493e-01
       85175000    3,437156677e-01   -6,217146516e-01
       85250000    3,406596482e-01   -6,233925223e-01
       85325000    3,363202214e-01   -6,278148293e-01
       85400000    3,364619315e-01   -6,296762228e-01
       85475000    3,330735266e-01   -6,347553134e-01
       85550000    3,294803500e-01   -6,347184777e-01
       85625000    3,288476467e-01   -6,354515553e-01
       85700000    3,244871795e-01   -6,387522817e-01
       85775000    3,260585666e-01   -6,402380466e-01
       85850000    3,214278519e-01   -6,419690251e-01
       85925000    3,186058402e-01   -6,424828768e-01
       86000000    3,175756037e-01   -6,450436711e-01
       86075000    3,114534318e-01   -6,464589834e-01
       86150000    3,126545846e-01   -6,509774923e-01
       86225000    3,090243340e-01   -6,536082029e-01
       86300000    3,061626852e-01   -6,531919837e-01
       86375000    3,038974404e-01   -6,528092027e-01
       86450000    3,020633757e-01   -6,571240425e-01
       86525000    2,996722460e-01   -6,578766704e-01
       86600000    2,962926924e-01   -6,608579755e-01
       86675000    2,901741564e-01   -6,620581150e-01
       86750000    2,908366919e-01   -6,648686528e-01
       86825000    2,870239913e-01   -6,654650569e-01
       86900000    2,853698730e-01   -6,652114987e-01
       86975000    2,847312987e-01   -6,664460301e-01
       87050000    2,800029516e-01   -6,699197292e-01
       87125000    2,787104547e-01   -6,693650484e-01
       87200000    2,758697271e-01   -6,712001562e-01
       87275000    2,693986893e-01   -6,723988056e-01
       87350000    2,711448371e-01   -6,731252670e-01
       87425000    2,683407664e-01   -6,742854118e-01
       87500000    2,611372471e-01   -6,745692492e-01
       87575000    2,633225918e-01   -6,746125817e-01
       87650000    2,605474293e-01   -6,779718399e-01
       87725000    2,580714524e-01   -6,795378327e-01
       87800000    2,538801730e-01   -6,819260120e-01
       87875000    2,535512745e-01   -6,814847589e-01
       87950000    2,500299215e-01   -6,820824146e-01
       88025000    2,458538562e-01   -6,808532476e-01
       88100000    2,446008027e-01   -6,835544705e-01
       88175000    2,425938249e-01   -6,863662601e-01
       88250000    2,407490909e-01   -6,842918396e-01
       88325000    2,360893488e-01   -6,879566908e-01
       88400000    2,354891747e-01   -6,874933243e-01
       88475000    2,295302451e-01   -6,901426911e-01
       88550000    2,304475009e-01   -6,881212592e-01
       88625000    2,252489775e-01   -6,885332465e-01
       88700000    2,251458913e-01   -6,878065467e-01
       88775000    2,221096009e-01   -6,914712787e-01
       88850000    2,200973034e-01   -6,899766326e-01
       88925000    2,163163871e-01   -6,913311481e-01
       89000000    2,127280831e-01   -6,917348504e-01
       89075000    2,130373567e-01   -6,916909814e-01
       89150000    2,094499469e-01   -6,922609210e-01
       89225000    2,070134878e-01   -6,907775998e-01
       89300000    2,023886293e-01   -6,898130774e-01
       89375000    2,024763077e-01   -6,897429228e-01
       89450000    1,972934753e-01   -6,888532043e-01
       89525000    1,968010664e-01   -6,912589073e-01
       89600000    1,956059188e-01   -6,887341142e-01
       89675000    1,936222017e-01   -6,907051206e-01
       89750000    1,906543374e-01   -6,907927394e-01
       89825000    1,883161515e-01   -6,883717775e-01
       89900000    1,867147833e-01   -6,897143126e-01
       89975000    1,857802570e-01   -6,879588962e-01
       90050000    1,834715158e-01   -6,877049804e-01
       90125000    1,829017401e-01   -6,853958368e-01
       90200000    1,794483960e-01   -6,858857274e-01
       90275000    1,820040345e-01   -6,836793423e-01
       90350000    1,798689067e-01   -6,845941544e-01
       90425000    1,785215437e-01   -6,838332415e-01
       90500000    1,760564893e-01   -6,836764216e-01
       90575000    1,791088581e-01   -6,821968555e-01
       90650000    1,781347990e-01   -6,822219491e-01
       90725000    1,776212603e-01   -6,811379194e-01
       90800000    1,773917228e-01   -6,823869348e-01
       90875000    1,764494330e-01   -6,802206635e-01
       90950000    1,787072867e-01   -6,824226975e-01
       91025000    1,776116192e-01   -6,826932430e-01
       91100000    1,767574400e-01   -6,825975180e-01
       91175000    1,761265844e-01   -6,836850643e-01
       91250000    1,754714251e-01   -6,850389242e-01
       91325000    1,763096601e-01   -6,849721074e-01
       91400000    1,765301824e-01   -6,877344251e-01
       91475000    1,734993458e-01   -6,874149442e-01
       91550000    1,763432920e-01   -6,900771856e-01
       91625000    1,778720468e-01   -6,911529303e-01
       91700000    1,760137677e-01   -6,951183677e-01
       91775000    1,779643595e-01   -6,940914989e-01
       91850000    1,758159846e-01   -6,973842382e-01
       91925000    1,751308739e-01   -6,975827813e-01
