! NanoVNA-App
! Date: 2025-08-09 13:26:48
! Start: 65MHz Stop: 95MHz Points: 401
! S-Parameter data: F S11
# Hz S RI R 50
!     Frequency           S11_Real           S11_Imag
       65000000   -1,264760196e-01    4,053115249e-01
       65075000   -1,210280433e-01    4,042599499e-01
       65150000   -1,171359867e-01    4,024470448e-01
       65225000   -1,110430956e-01    3,986334205e-01
       65300000   -1,071202084e-01    3,978870213e-01
       65375000   -1,018576622e-01    3,959949911e-01
       65450000   -9,768670797e-02    3,933176100e-01
       65525000   -9,308378398e-02    3,920691311e-01
       65600000   -8,799081296e-02    3,891904652e-01
       65675000   -8,353214711e-02    3,864655793e-01
       65750000   -7,918149233e-02    3,850376010e-01
       65825000   -7,337506860e-02    3,810902536e-01
       65900000   -6,990519166e-02    3,795850575e-01
       65975000   -6,474722177e-02    3,769631386e-01
       66050000   -6,089935824e-02    3,753623366e-01
       66125000   -5,733821169e-02    3,736597002e-01
       66200000   -5,225191638e-02    3,701138794e-01
       66275000   -4,805978760e-02    3,690029681e-01
       66350000   -4,501434416e-02    3,666954637e-01
       66425000   -3,978910297e-02    3,634159565e-01
       66500000   -3,561002389e-02    3,613660932e-01
       66575000   -3,085240163e-02    3,588108122e-01
       66650000   -2,738449909e-02    3,576358259e-01
       66725000   -2,380310372e-02    3,555328846e-01
       66800000   -2,008415386e-02    3,536213338e-01
       66875000   -1,595436037e-02    3,519081771e-01
       66950000   -1,196284778e-02    3,497844040e-01
       67025000   -7,821617648e-03    3,481761515e-01
       67100000   -3,749790136e-03    3,459659815e-01
       67175000    5,361069343e-04    3,428529501e-01
       67250000    4,761031829e-03    3,410690427e-01
       67325000    8,901229128e-03    3,390626311e-01
       67400000    1,323210727e-02    3,367542624e-01
       67475000    1,673039980e-02    3,348671198e-01
       67550000    2,044156194e-02    3,318919539e-01
       67625000    2,612015605e-02    3,296555877e-01
       67700000    2,899413183e-02    3,271374106e-01
       67775000    3,231054917e-02    3,253753781e-01
       67850000    3,699649870e-02    3,215567172e-01
       67925000    4,116528481e-02    3,194638789e-01
       68000000    4,487874359e-02    3,167753518e-01
       68075000    4,852047563e-02    3,144184947e-01
       68150000    5,337802693e-02    3,125537336e-01
       68225000    5,654923245e-02    3,088681996e-01
       68300000    6,024631858e-02    3,057015836e-01
       68375000    6,516872346e-02    3,025087118e-01
       68450000    6,763483584e-02    2,986102104e-01
       68525000    7,142421603e-02    2,954942882e-01
       68600000    7,585211098e-02    2,917698920e-01
       68675000    7,920535654e-02    2,890310585e-01
       68750000    8,134008199e-02    2,862759531e-01
       68825000    8,592204750e-02    2,827494740e-01
       68900000    8,858094364e-02    2,790902257e-01
       68975000    9,135968983e-02    2,753554881e-01
       69050000    9,458050877e-02    2,711637616e-01
       69125000    9,719324112e-02    2,672262192e-01
       69200000    9,994371235e-02    2,642640769e-01
       69275000    1,025266349e-01    2,592663765e-01
       69350000    1,045472845e-01    2,559471726e-01
       69425000    1,068674922e-01    2,520410717e-01
       69500000    1,091771126e-01    2,472510934e-01
       69575000    1,112818122e-01    2,447904050e-01
       69650000    1,122621596e-01    2,402008921e-01
       69725000    1,138263121e-01    2,361084521e-01
       69800000    1,159240529e-01    2,320943326e-01
       69875000    1,171744242e-01    2,296620756e-01
       69950000    1,192480847e-01    2,259526253e-01
       70025000    1,202906519e-01    2,214444876e-01
       70100000    1,207457781e-01    2,186429650e-01
       70175000    1,216230094e-01    2,162462324e-01
       70250000    1,229463890e-01    2,118553817e-01
       70325000    1,233309209e-01    2,091896981e-01
       70400000    1,244117543e-01    2,059312910e-01
       70475000    1,245624945e-01    2,026653588e-01
       70550000    1,245392337e-01    2,002945244e-01
       70625000    1,257006526e-01    1,973963231e-01
       70700000    1,260546297e-01    1,942734867e-01
       70775000    1,267802119e-01    1,923883110e-01
       70850000    1,270046383e-01    1,900457144e-01
       70925000    1,271222234e-01    1,870820075e-01
       71000000    1,280139685e-01    1,854734868e-01
       71075000    1,281831712e-01    1,836345196e-01
       71150000    1,281013340e-01    1,811484396e-01
       71225000    1,290044785e-01    1,792488545e-01
       71300000    1,303025931e-01    1,768634319e-01
       71375000    1,296225786e-01    1,759998649e-01
       71450000    1,315256655e-01    1,729850471e-01
       71525000    1,323938370e-01    1,714809835e-01
       71600000    1,317408830e-01    1,699482799e-01
       71675000    1,330666989e-01    1,673137397e-01
       71750000    1,341544837e-01    1,657427549e-01
       71825000    1,334687322e-01    1,646746248e-01
       71900000    1,352772862e-01    1,627807319e-01
       71975000    1,358778775e-01    1,605466604e-01
       72050000    1,359509826e-01    1,590875834e-01
       72125000    1,357840151e-01    1,575225145e-01
       72200000    1,368085146e-01    1,555010974e-01
       72275000    1,371092051e-01    1,542757154e-01
       72350000    1,386276484e-01    1,526806951e-01
       72425000    1,383702904e-01    1,506970674e-01
       72500000    1,392125785e-01    1,505559832e-01
       72575000    1,386865675e-01    1,480261236e-01
       72650000    1,395937651e-01    1,466083229e-01
       72725000    1,412272602e-01    1,453411877e-01
       72800000    1,408472508e-01    1,442550868e-01
       72875000    1,418147534e-01    1,420066059e-01
       72950000    1,426479220e-01    1,409553587e-01
       73025000    1,419520974e-01    1,397626102e-01
       73100000    1,420278400e-01    1,385826916e-01
       73175000    1,443552971e-01    1,380447149e-01
       73250000    1,445181370e-01    1,362549514e-01
       73325000    1,446543783e-01    1,349287033e-01
       73400000    1,455513984e-01    1,347832978e-01
       73475000    1,462247372e-01    1,334926784e-01
       73550000    1,464003175e-01    1,325523555e-01
       73625000    1,470430344e-01    1,307833344e-01
       73700000    1,480156034e-01    1,300890595e-01
       73775000    1,492799819e-01    1,292357743e-01
       73850000    1,490982175e-01    1,278574318e-01
       73925000    1,510826498e-01    1,271900386e-01
       74000000    1,508052498e-01    1,267138869e-01
       74075000    1,509945095e-01    1,251032054e-01
       74150000    1,524555981e-01    1,242216229e-01
       74225000    1,538889408e-01    1,229592264e-01
       74300000    1,546607316e-01    1,218351647e-01
       74375000    1,554270536e-01    1,217044294e-01
       74450000    1,557987034e-01    1,194391921e-01
       74525000    1,565264463e-01    1,193165928e-01
       74600000    1,567522883e-01    1,179043949e-01
       74675000    1,581852585e-01    1,163926572e-01
       74750000    1,597306877e-01    1,154465303e-01
       74825000    1,597189456e-01    1,151966900e-01
       74900000    1,607456356e-01    1,139439419e-01
       74975000    1,615249366e-01    1,120953485e-01
       75050000    1,620304137e-01    1,118472666e-01
       75125000    1,626323313e-01    1,097981036e-01
       75200000    1,632476449e-01    1,093861610e-01
       75275000    1,642519832e-01    1,081507653e-01
       75350000    1,648692787e-01    1,071089357e-01
       75425000    1,657047123e-01    1,067315042e-01
       75500000    1,664751917e-01    1,052369848e-01
       75575000    1,671671867e-01    1,042069048e-01
       75650000    1,675653607e-01    1,026351750e-01
       75725000    1,682796776e-01    1,023005694e-01
       75800000    1,688079685e-01    1,014549285e-01
       75875000    1,692289263e-01    1,005917788e-01
       75950000    1,694760621e-01    9,948907793e-02
       76025000    1,696902663e-01    9,848676622e-02
       76100000    1,708232164e-01    9,747621417e-02
       76175000    1,706396341e-01    9,646344930e-02
       76250000    1,715638340e-01    9,637027234e-02
       76325000    1,713183969e-01    9,477729350e-02
       76400000    1,726601869e-01    9,459441900e-02
       76475000    1,740589589e-01    9,376782924e-02
       76550000    1,731507480e-01    9,235676378e-02
       76625000    1,733410358e-01    9,211499244e-02
       76700000    1,742219031e-01    9,124790132e-02
       76775000    1,744567156e-01    9,058322757e-02
       76850000    1,744683832e-01    9,030807018e-02
       76925000    1,756199747e-01    8,993356675e-02
       77000000    1,751069576e-01    8,894665539e-02
       77075000    1,753609329e-01    8,848344535e-02
       77150000    1,761147827e-01    8,825365454e-02
       77225000    1,764567643e-01    8,840575069e-02
       77300000    1,772664338e-01    8,699879050e-02
       77375000    1,774136722e-01    8,696852624e-02
       77450000    1,774851084e-01    8,695534617e-02
       77525000    1,777500361e-01    8,722042292e-02
       77600000    1,773934364e-01    8,666622639e-02
       77675000    1,778969914e-01    8,717179298e-02
       77750000    1,773645878e-01    8,645970374e-02
       77825000    1,775744855e-01    8,661478758e-02
       77900000    1,785652488e-01    8,801798522e-02
       77975000    1,779405922e-01    8,788878471e-02
       78050000    1,783854365e-01    8,811426908e-02
       78125000    1,792133749e-01    8,967930824e-02
       78200000    1,791663319e-01    9,075866640e-02
       78275000    1,789705455e-01    9,207417071e-02
       78350000    1,813876778e-01    9,456884116e-02
       78425000    1,829739064e-01    9,671510756e-02
       78500000    1,848412752e-01    9,667061269e-02
       78575000    1,865947694e-01    9,871707112e-02
       78650000    1,894555539e-01    9,814004600e-02
       78725000    1,910864413e-01    9,845118970e-02
       78800000    1,930315346e-01    9,931192547e-02
       78875000    1,952797025e-01    9,964407235e-02
       78950000    1,958830655e-01    9,996195138e-02
       79025000    1,984358728e-01    9,971559793e-02
       79100000    2,003827095e-01    1,001371965e-01
       79175000    2,021150142e-01    1,011999398e-01
       79250000    2,032968849e-01    1,009555459e-01
       79325000    2,054522783e-01    1,018420160e-01
       79400000    2,080523223e-01    1,019613370e-01
       79475000    2,094337344e-01    1,028049886e-01
       79550000    2,120802402e-01    1,031960696e-01
       79625000    2,142282873e-01    1,027652547e-01
       79700000    2,159236223e-01    1,044651046e-01
       79775000    2,189872414e-01    1,042819470e-01
       79850000    2,211093456e-01    1,043921635e-01
       79925000    2,234480977e-01    1,046851724e-01
       80000000    2,259043902e-01    1,049247831e-01
       80075000    2,280562073e-01    1,052214354e-01
       80150000    2,302796394e-01    1,060774475e-01
       80225000    2,342160046e-01    1,066926196e-01
       80300000    2,368080914e-01    1,062506139e-01
       80375000    2,393098623e-01    1,073343158e-01
       80450000    2,433579564e-01    1,063985154e-01
       80525000    2,456462532e-01    1,070711389e-01
       80600000    2,491478324e-01    1,071793437e-01
       80675000    2,519534528e-01    1,069969088e-01
       80750000    2,556333542e-01    1,072577536e-01
       80825000    2,581131756e-01    1,061268821e-01
       80900000    2,613637149e-01    1,066251174e-01
       80975000    2,656367123e-01    1,064474061e-01
       81050000    2,679966688e-01    1,052378267e-01
       81125000    2,715369463e-01    1,053705141e-01
       81200000    2,751877904e-01    1,036601141e-01
       81275000    2,781465650e-01    1,042322740e-01
       81350000    2,829278409e-01    1,020942926e-01
       81425000    2,857708335e-01    1,022569761e-01
       81500000    2,898170352e-01    1,020522937e-01
       81575000    2,924927175e-01    9,985069185e-02
       81650000    2,960189581e-01    9,845322371e-02
       81725000    2,995726466e-01    9,849032760e-02
       81800000    3,036343455e-01    9,650500119e-02
       81875000    3,065060377e-01    9,503850341e-02
       81950000    3,116610944e-01    9,508065879e-02
       82025000    3,144692183e-01    9,282230586e-02
       82100000    3,182281256e-01    9,151957929e-02
       82175000    3,213076293e-01    9,009615332e-02
       82250000    3,255410492e-01    8,865756541e-02
       82325000    3,285789192e-01    8,636423200e-02
       82400000    3,321983218e-01    8,490835130e-02
       82475000    3,369159997e-01    8,222428709e-02
       82550000    3,400900364e-01    8,104530722e-02
       82625000    3,440188169e-01    7,874211669e-02
       82700000    3,479385972e-01    7,632958889e-02
       82775000    3,514514267e-01    7,466994971e-02
       82850000    3,545598388e-01    7,287420332e-02
       82925000    3,591025472e-01    7,022995502e-02
       83000000    3,619140089e-01    6,729469448e-02
       83075000    3,659988940e-01    6,518707424e-02
       83150000    3,695621490e-01    6,250078231e-02
       83225000    3,737376928e-01    5,991442874e-02
       83300000    3,763021827e-01    5,654341355e-02
       83375000    3,810286224e-01    5,412522331e-02
       83450000    3,845161498e-01    5,058761686e-02
       83525000    3,872103095e-01    4,778413475e-02
       83600000    3,920248151e-01    4,403157160e-02
       83675000    3,940654993e-01    3,976897150e-02
       83750000    3,978879154e-01    3,752242029e-02
       83825000    4,015150070e-01    3,346399963e-02
       83900000    4,042004645e-01    3,002360277e-02
       83975000    4,081529379e-01    2,613567561e-02
       84050000    4,104713798e-01    2,246801928e-02
       84125000    4,139088988e-01    1,880152710e-02
       84200000    4,161703289e-01    1,418150961e-02
       84275000    4,193669260e-01    1,122828852e-02
       84350000    4,229980707e-01    6,690193433e-03
       84425000    4,243770540e-01    3,165940754e-03
       84500000    4,280465841e-01   -3,745277936e-04
       84575000    4,301987588e-01   -6,722536404e-03
       84650000    4,327552915e-01   -9,528798983e-03
       84725000    4,365278184e-01   -1,372858230e-02
       84800000    4,374549389e-01   -1,898662932e-02
       84875000    4,404489100e-01   -2,284210920e-02
       84950000    4,427900612e-01   -2,904110961e-02
       85025000    4,441919625e-01   -3,403752297e-02
       85100000    4,469358623e-01   -3,769319132e-02
       85175000    4,493261278e-01   -4,189079627e-02
       85250000    4,501847029e-01   -4,694008827e-02
       85325000    4,520615041e-01   -5,218803510e-02
       85400000    4,525232017e-01   -5,889627337e-02
       85475000    4,543790221e-01   -6,254772097e-02
       85550000    4,555910826e-01   -6,748308241e-02
       85625000    4,582005143e-01   -7,231888175e-02
       85700000    4,569480717e-01   -7,701940089e-02
       85775000    4,592159092e-01   -8,273474872e-02
       85850000    4,600606859e-01   -8,729311824e-02
       85925000    4,614125788e-01   -9,359027445e-02
       86000000    4,611741900e-01   -9,772824496e-02
       86075000    4,621495008e-01   -1,026880741e-01
       86150000    4,601511359e-01   -1,091869399e-01
       86225000    4,599164128e-01   -1,123982668e-01
       86300000    4,621813893e-01   -1,178970113e-01
       86375000    4,621064663e-01   -1,228459030e-01
       86450000    4,608818889e-01   -1,285977066e-01
       86525000    4,582547843e-01   -1,328445673e-01
       86600000    4,601457417e-01   -1,372022927e-01
       86675000    4,610966742e-01   -1,424040645e-01
       86750000    4,587035179e-01   -1,462172121e-01
       86825000    4,586354792e-01   -1,514334679e-01
       86900000    4,571911395e-01   -1,549012661e-01
       86975000    4,556794167e-01   -1,588036716e-01
       87050000    4,559011161e-01   -1,658927947e-01
       87125000    4,527154863e-01   -1,673892438e-01
       87200000    4,523832500e-01   -1,714374423e-01
       87275000    4,515452385e-01   -1,781857014e-01
       87350000    4,490381777e-01   -1,794581562e-01
       87425000    4,493238628e-01   -1,836952716e-01
       87500000    4,478871822e-01   -1,877344549e-01
       87575000    4,466498792e-01   -1,902423948e-01
       87650000    4,424440563e-01   -1,939649731e-01
       87725000    4,432181716e-01   -1,988908648e-01
       87800000    4,421552122e-01   -2,039590776e-01
       87875000    4,408156872e-01   -2,046167552e-01
       87950000    4,390925169e-01   -2,084870338e-01
       88025000    4,389784038e-01   -2,110180110e-01
       88100000    4,341120422e-01   -2,155244052e-01
       88175000    4,353061616e-01   -2,181806862e-01
       88250000    4,346256852e-01   -2,231360525e-01
       88325000    4,292103052e-01   -2,256063372e-01
       88400000    4,291794002e-01   -2,276538610e-01
       88475000    4,254462421e-01   -2,327284068e-01
       88550000    4,266362488e-01   -2,345332354e-01
       88625000    4,256078899e-01   -2,365931720e-01
       88700000    4,235088825e-01   -2,425845712e-01
       88775000    4,183242023e-01   -2,428731620e-01
       88850000    4,192345142e-01   -2,464600503e-01
       88925000    4,175814986e-01   -2,474310547e-01
       89000000    4,132643640e-01   -2,503081262e-01
       89075000    4,110425115e-01   -2,535018623e-01
       89150000    4,071110487e-01   -2,573336661e-01
       89225000    4,070004523e-01   -2,590106130e-01
       89300000    4,029167891e-01   -2,623460591e-01
       89375000    4,020643830e-01   -2,624422014e-01
       89450000    3,989234865e-01   -2,663000226e-01
       89525000    3,952914774e-01   -2,639421523e-01
       89600000    3,945645988e-01   -2,652989030e-01
       89675000    3,936528862e-01   -2,663750052e-01
       89750000    3,885331452e-01   -2,664190531e-01
       89825000    3,875918984e-01   -2,682313919e-01
       89900000    3,861725926e-01   -2,702252567e-01
       89975000    3,833231628e-01   -2,680837214e-01
       90050000    3,820842505e-01   -2,686501145e-01
       90125000    3,775100708e-01   -2,670261860e-01
       90200000    3,769153655e-01   -2,668941319e-01
       90275000    3,779031932e-01   -2,673858404e-01
       90350000    3,751936257e-01   -2,655895054e-01
       90425000    3,741690218e-01   -2,650858462e-01
       90500000    3,712033331e-01   -2,649913430e-01
       90575000    3,755629659e-01   -2,633516788e-01
       90650000    3,740436733e-01   -2,625093162e-01
       90725000    3,746609390e-01   -2,636837661e-01
       90800000    3,757472634e-01   -2,610096931e-01
       90875000    3,776378036e-01   -2,599413991e-01
       90950000    3,773602247e-01   -2,579381466e-01
       91025000    3,798579276e-01   -2,578096688e-01
       91100000    3,806152046e-01   -2,569709122e-01
       91175000    3,824749291e-01   -2,573454380e-01
       91250000    3,828800917e-01   -2,575698495e-01
       91325000    3,876377940e-01   -2,575405240e-01
       91400000    3,883304298e-01   -2,609815001e-01
       91475000    3,918751180e-01   -2,603021562e-01
       91550000    3,956439495e-01   -2,623211145e-01
       91625000    3,982070088e-01   -2,615028322e-01
       91700000    4,013796747e-01   -2,643661201e-01
       91775000    4,039046168e-01   -2,634666860e-01
       91850000    4,068043828e-01   -2,658838034e-01
       91925000    4,076891541e-01   -2,675463855e-01
