! NanoVNA-App
! Date: 2025-08-09 12:58:55
! Start: 65MHz Stop: 95MHz Points: 401
! S-Parameter data: F S11
# Hz S RI R 50
!     Frequency           S11_Real           S11_Imag
       65000000    5,195865631e-01   -5,210772529e-02
       65075000    5,233895779e-01   -5,395009369e-02
       65150000    5,223338604e-01   -5,705340579e-02
       65225000    5,208227634e-01   -6,126675755e-02
       65300000    5,187655091e-01   -6,473031640e-02
       65375000    5,194439888e-01   -6,733614206e-02
       65450000    5,169576406e-01   -7,178944349e-02
       65525000    5,155621767e-01   -7,477919012e-02
       65600000    5,146812797e-01   -7,819797844e-02
       65675000    5,139387846e-01   -8,225384355e-02
       65750000    5,128087997e-01   -8,476981521e-02
       65825000    5,110455155e-01   -8,941327780e-02
       65900000    5,100775957e-01   -9,289826453e-02
       65975000    5,082579255e-01   -9,617093205e-02
       66050000    5,073478818e-01   -9,981592000e-02
       66125000    5,048959255e-01   -1,029689834e-01
       66200000    5,049270391e-01   -1,070322394e-01
       66275000    5,031716228e-01   -1,091448069e-01
       66350000    5,022701025e-01   -1,124656945e-01
       66425000    5,016373992e-01   -1,161906272e-01
       66500000    4,996068776e-01   -1,195263416e-01
       66575000    4,988167584e-01   -1,221760213e-01
       66650000    4,970061183e-01   -1,258680671e-01
       66725000    4,953806698e-01   -1,283106953e-01
       66800000    4,935930073e-01   -1,318864375e-01
       66875000    4,923566580e-01   -1,341409832e-01
       66950000    4,916423261e-01   -1,375822425e-01
       67025000    4,900640249e-01   -1,414157748e-01
       67100000    4,892968535e-01   -1,441201717e-01
       67175000    4,886370003e-01   -1,469441652e-01
       67250000    4,872604907e-01   -1,504843533e-01
       67325000    4,876249433e-01   -1,533702314e-01
       67400000    4,848660231e-01   -1,565074176e-01
       67475000    4,833014905e-01   -1,597092450e-01
       67550000    4,820672572e-01   -1,641536802e-01
       67625000    4,812483788e-01   -1,664682478e-01
       67700000    4,812963605e-01   -1,689440012e-01
       67775000    4,780305922e-01   -1,732008159e-01
       67850000    4,770433009e-01   -1,763736010e-01
       67925000    4,756513238e-01   -1,794822514e-01
       68000000    4,736176133e-01   -1,821558028e-01
       68075000    4,739916027e-01   -1,841350645e-01
       68150000    4,715993702e-01   -1,871956885e-01
       68225000    4,697902799e-01   -1,914083809e-01
       68300000    4,673762918e-01   -1,953738928e-01
       68375000    4,660166502e-01   -1,977098435e-01
       68450000    4,664547145e-01   -2,015036494e-01
       68525000    4,639455378e-01   -2,046305686e-01
       68600000    4,621753395e-01   -2,080507278e-01
       68675000    4,596136808e-01   -2,091640234e-01
       68750000    4,582037926e-01   -2,132191807e-01
       68825000    4,543787241e-01   -2,152432799e-01
       68900000    4,532106221e-01   -2,182647288e-01
       68975000    4,506631494e-01   -2,228799313e-01
       69050000    4,487110674e-01   -2,247549444e-01
       69125000    4,467076361e-01   -2,281739265e-01
       69200000    4,429210424e-01   -2,311809957e-01
       69275000    4,418798983e-01   -2,337113768e-01
       69350000    4,396415949e-01   -2,352676392e-01
       69425000    4,369501472e-01   -2,386367619e-01
       69500000    4,345989525e-01   -2,406253666e-01
       69575000    4,323491454e-01   -2,436005771e-01
       69650000    4,292187691e-01   -2,455270886e-01
       69725000    4,271718264e-01   -2,483031452e-01
       69800000    4,243754447e-01   -2,498431951e-01
       69875000    4,223387241e-01   -2,520882189e-01
       69950000    4,187743664e-01   -2,525885999e-01
       70025000    4,174104333e-01   -2,556820214e-01
       70100000    4,148781002e-01   -2,563691735e-01
       70175000    4,115046561e-01   -2,579491735e-01
       70250000    4,095644653e-01   -2,606697083e-01
       70325000    4,070343077e-01   -2,625884116e-01
       70400000    4,045114815e-01   -2,631718218e-01
       70475000    4,026178420e-01   -2,630873919e-01
       70550000    3,985317051e-01   -2,650718987e-01
       70625000    3,965652287e-01   -2,664388716e-01
       70700000    3,955656588e-01   -2,666594386e-01
       70775000    3,931027949e-01   -2,670343220e-01
       70850000    3,912989497e-01   -2,685393989e-01
       70925000    3,881519139e-01   -2,700441480e-01
       71000000    3,871375620e-01   -2,714844346e-01
       71075000    3,850239515e-01   -2,704161108e-01
       71150000    3,828318119e-01   -2,723836601e-01
       71225000    3,813824654e-01   -2,724089026e-01
       71300000    3,782584965e-01   -2,735979259e-01
       71375000    3,776312768e-01   -2,745209038e-01
       71450000    3,765475750e-01   -2,747010291e-01
       71525000    3,755294383e-01   -2,752919793e-01
       71600000    3,718543649e-01   -2,765560150e-01
       71675000    3,715904057e-01   -2,765665948e-01
       71750000    3,710652590e-01   -2,778726518e-01
       71825000    3,680694699e-01   -2,779963613e-01
       71900000    3,677913249e-01   -2,788116038e-01
       71975000    3,667432368e-01   -2,796508670e-01
       72050000    3,628027439e-01   -2,805639207e-01
       72125000    3,622277975e-01   -2,817385197e-01
       72200000    3,619996011e-01   -2,828677893e-01
       72275000    3,603655398e-01   -2,821919024e-01
       72350000    3,590779603e-01   -2,835023701e-01
       72425000    3,575210869e-01   -2,835609019e-01
       72500000    3,556311131e-01   -2,854213715e-01
       72575000    3,552893698e-01   -2,842824757e-01
       72650000    3,540959060e-01   -2,851639092e-01
       72725000    3,534697592e-01   -2,857512534e-01
       72800000    3,515089750e-01   -2,864834666e-01
       72875000    3,510395288e-01   -2,874053717e-01
       72950000    3,488109112e-01   -2,867099643e-01
       73025000    3,481394649e-01   -2,881923318e-01
       73100000    3,461833596e-01   -2,893601656e-01
       73175000    3,469997942e-01   -2,886862755e-01
       73250000    3,437261283e-01   -2,893888950e-01
       73325000    3,429229259e-01   -2,897262573e-01
       73400000    3,437799811e-01   -2,904579043e-01
       73475000    3,413361311e-01   -2,904545367e-01
       73550000    3,408384919e-01   -2,924678028e-01
       73625000    3,390820324e-01   -2,935319543e-01
       73700000    3,397884667e-01   -2,944805324e-01
       73775000    3,379965723e-01   -2,951430082e-01
       73850000    3,381918967e-01   -2,935943604e-01
       73925000    3,366393745e-01   -2,948457897e-01
       74000000    3,347592056e-01   -2,949831486e-01
       74075000    3,340661228e-01   -2,962180972e-01
       74150000    3,346258402e-01   -2,968155742e-01
       74225000    3,338587582e-01   -2,990166247e-01
       74300000    3,335497975e-01   -2,986632288e-01
       74375000    3,332413435e-01   -2,992667258e-01
       74450000    3,299501240e-01   -3,005925715e-01
       74525000    3,302033544e-01   -2,996329367e-01
       74600000    3,278235793e-01   -3,021908104e-01
       74675000    3,293540776e-01   -3,025984466e-01
       74750000    3,280800283e-01   -3,033904731e-01
       74825000    3,273435831e-01   -3,029436767e-01
       74900000    3,263372481e-01   -3,032552898e-01
       74975000    3,236609101e-01   -3,047533631e-01
       75050000    3,238325119e-01   -3,056418300e-01
       75125000    3,226423860e-01   -3,070178330e-01
       75200000    3,235198259e-01   -3,069591522e-01
       75275000    3,213263154e-01   -3,084125817e-01
       75350000    3,213458061e-01   -3,082802296e-01
       75425000    3,218590319e-01   -3,079195619e-01
       75500000    3,194993436e-01   -3,075824678e-01
       75575000    3,197209835e-01   -3,089155555e-01
       75650000    3,183394670e-01   -3,089307249e-01
       75725000    3,177750707e-01   -3,093848526e-01
       75800000    3,168065548e-01   -3,102870286e-01
       75875000    3,163240850e-01   -3,104688525e-01
       75950000    3,151508570e-01   -3,108854890e-01
       76025000    3,144783378e-01   -3,127983809e-01
       76100000    3,142727315e-01   -3,141185045e-01
       76175000    3,131219447e-01   -3,121498525e-01
       76250000    3,115591407e-01   -3,130979538e-01
       76325000    3,099979758e-01   -3,135827780e-01
       76400000    3,099773824e-01   -3,134315908e-01
       76475000    3,096664846e-01   -3,154981136e-01
       76550000    3,067962229e-01   -3,159219921e-01
       76625000    3,075366616e-01   -3,160873652e-01
       76700000    3,060881197e-01   -3,160752356e-01
       76775000    3,055206239e-01   -3,153102398e-01
       76850000    3,044444323e-01   -3,171535134e-01
       76925000    3,055502176e-01   -3,163246512e-01
       77000000    3,039187491e-01   -3,157144487e-01
       77075000    3,035036027e-01   -3,172233403e-01
       77150000    3,021905422e-01   -3,178652525e-01
       77225000    3,003506660e-01   -3,159340620e-01
       77300000    2,990282476e-01   -3,182586432e-01
       77375000    2,993834019e-01   -3,175285161e-01
       77450000    2,993284464e-01   -3,177064359e-01
       77525000    2,981671691e-01   -3,181853592e-01
       77600000    2,981207967e-01   -3,170250952e-01
       77675000    2,976158559e-01   -3,172244430e-01
       77750000    2,970323265e-01   -3,147320449e-01
       77825000    2,955863774e-01   -3,151004016e-01
       77900000    2,970762253e-01   -3,141743243e-01
       77975000    2,946227491e-01   -3,122221529e-01
       78050000    2,948096395e-01   -3,130882382e-01
       78125000    2,967638075e-01   -3,115164340e-01
       78200000    2,954543531e-01   -3,096352816e-01
       78275000    2,967620194e-01   -3,091886044e-01
       78350000    2,980623245e-01   -3,074749708e-01
       78425000    3,001419306e-01   -3,074085116e-01
       78500000    3,007086515e-01   -3,061859012e-01
       78575000    3,013707995e-01   -3,073019087e-01
       78650000    3,013542295e-01   -3,083990812e-01
       78725000    3,041522205e-01   -3,085877299e-01
       78800000    3,040092289e-01   -3,085725605e-01
       78875000    3,039302826e-01   -3,095054030e-01
       78950000    3,051516414e-01   -3,096775711e-01
       79025000    3,056465387e-01   -3,109171093e-01
       79100000    3,071896732e-01   -3,107227981e-01
       79175000    3,097211719e-01   -3,091390133e-01
       79250000    3,096800745e-01   -3,090827763e-01
       79325000    3,100239933e-01   -3,098663390e-01
       79400000    3,103114069e-01   -3,105440140e-01
       79475000    3,125399351e-01   -3,124011755e-01
       79550000    3,144270778e-01   -3,118144572e-01
       79625000    3,148022294e-01   -3,113624156e-01
       79700000    3,157097697e-01   -3,132173121e-01
       79775000    3,162346780e-01   -3,141579032e-01
       79850000    3,191883266e-01   -3,137145936e-01
       79925000    3,185210824e-01   -3,150699437e-01
       80000000    3,218913674e-01   -3,167001307e-01
       80075000    3,223110437e-01   -3,143059611e-01
       80150000    3,226521611e-01   -3,159555197e-01
       80225000    3,261920214e-01   -3,189499080e-01
       80300000    3,261786401e-01   -3,185670674e-01
       80375000    3,291777372e-01   -3,190644681e-01
       80450000    3,277408481e-01   -3,204640448e-01
       80525000    3,297072053e-01   -3,216974139e-01
       80600000    3,313388228e-01   -3,224553168e-01
       80675000    3,346269429e-01   -3,249675333e-01
       80750000    3,358322680e-01   -3,266938627e-01
       80825000    3,365331292e-01   -3,254261315e-01
       80900000    3,394261897e-01   -3,271796107e-01
       80975000    3,399644494e-01   -3,310778141e-01
       81050000    3,409883082e-01   -3,308538198e-01
       81125000    3,438897133e-01   -3,325412273e-01
       81200000    3,444566131e-01   -3,342104256e-01
       81275000    3,473191857e-01   -3,363302350e-01
       81350000    3,464586139e-01   -3,378428519e-01
       81425000    3,491140306e-01   -3,414791524e-01
       81500000    3,497389853e-01   -3,445800245e-01
       81575000    3,514761627e-01   -3,455841541e-01
       81650000    3,526937366e-01   -3,458539844e-01
       81725000    3,551297784e-01   -3,491615057e-01
       81800000    3,548327088e-01   -3,500071168e-01
       81875000    3,558380604e-01   -3,525950313e-01
       81950000    3,558532596e-01   -3,558091521e-01
       82025000    3,592652678e-01   -3,589774966e-01
       82100000    3,595283329e-01   -3,617828488e-01
       82175000    3,606351912e-01   -3,643615246e-01
       82250000    3,623471260e-01   -3,671851754e-01
       82325000    3,642194271e-01   -3,678419590e-01
       82400000    3,653487265e-01   -3,705813885e-01
       82475000    3,645496368e-01   -3,719689250e-01
       82550000    3,657610118e-01   -3,751494884e-01
       82625000    3,661000133e-01   -3,777098656e-01
       82700000    3,671923578e-01   -3,815394640e-01
       82775000    3,670961261e-01   -3,839711845e-01
       82850000    3,686911464e-01   -3,870865107e-01
       82925000    3,685420156e-01   -3,907671273e-01
       83000000    3,689229786e-01   -3,937709630e-01
       83075000    3,706836104e-01   -3,969893754e-01
       83150000    3,718309700e-01   -4,003759325e-01
       83225000    3,709555268e-01   -4,038188159e-01
       83300000    3,726820052e-01   -4,073067605e-01
       83375000    3,727462292e-01   -4,109650254e-01
       83450000    3,745368421e-01   -4,105044305e-01
       83525000    3,766203523e-01   -4,149771631e-01
       83600000    3,740930557e-01   -4,176400304e-01
       83675000    3,757191002e-01   -4,242378771e-01
       83750000    3,755758703e-01   -4,284049869e-01
       83825000    3,752732575e-01   -4,280195236e-01
       83900000    3,754699230e-01   -4,324003756e-01
       83975000    3,729159832e-01   -4,362320006e-01
       84050000    3,734378517e-01   -4,404360056e-01
       84125000    3,726761341e-01   -4,445403814e-01
       84200000    3,751566112e-01   -4,459215701e-01
       84275000    3,735749424e-01   -4,495527744e-01
       84350000    3,711380064e-01   -4,532113075e-01
       84425000    3,717104793e-01   -4,576067328e-01
       84500000    3,702811003e-01   -4,610885382e-01
       84575000    3,726754487e-01   -4,644311368e-01
       84650000    3,706919253e-01   -4,671519697e-01
       84725000    3,680392504e-01   -4,714556634e-01
       84800000    3,673610687e-01   -4,757438004e-01
       84875000    3,659704924e-01   -4,797934592e-01
       84950000    3,684462607e-01   -4,814412594e-01
       85025000    3,669831753e-01   -4,869011641e-01
       85100000    3,659390509e-01   -4,888797104e-01
       85175000    3,621683717e-01   -4,914663434e-01
       85250000    3,615806699e-01   -4,959281385e-01
       85325000    3,603114486e-01   -5,027386546e-01
       85400000    3,595501482e-01   -5,050610304e-01
       85475000    3,588592112e-01   -5,080645084e-01
       85550000    3,547125161e-01   -5,123560429e-01
       85625000    3,523083627e-01   -5,119960308e-01
       85700000    3,494816422e-01   -5,179249644e-01
       85775000    3,516167104e-01   -5,217508078e-01
       85850000    3,460865021e-01   -5,235144496e-01
       85925000    3,467364907e-01   -5,247402191e-01
       86000000    3,444280624e-01   -5,287796855e-01
       86075000    3,402540386e-01   -5,308035016e-01
       86150000    3,387181461e-01   -5,369414091e-01
       86225000    3,358229697e-01   -5,387246609e-01
       86300000    3,362822831e-01   -5,432611704e-01
       86375000    3,331887126e-01   -5,466511846e-01
       86450000    3,307377100e-01   -5,481461883e-01
       86525000    3,256006241e-01   -5,506637692e-01
       86600000    3,253974319e-01   -5,550904274e-01
       86675000    3,239998817e-01   -5,545845032e-01
       86750000    3,210927844e-01   -5,581157804e-01
       86825000    3,175405860e-01   -5,627568960e-01
       86900000    3,107008934e-01   -5,617123842e-01
       86975000    3,095709383e-01   -5,642541051e-01
       87050000    3,104507029e-01   -5,680292249e-01
       87125000    3,059317768e-01   -5,669655204e-01
       87200000    3,023910820e-01   -5,685626864e-01
       87275000    3,006774485e-01   -5,743083954e-01
       87350000    2,977809608e-01   -5,728951693e-01
       87425000    2,950566709e-01   -5,742827058e-01
       87500000    2,939392626e-01   -5,732043386e-01
       87575000    2,886638939e-01   -5,772477388e-01
       87650000    2,863106132e-01   -5,802006721e-01
       87725000    2,837048173e-01   -5,863634944e-01
       87800000    2,829911411e-01   -5,859683752e-01
       87875000    2,812641263e-01   -5,875657201e-01
       87950000    2,738243341e-01   -5,872189403e-01
       88025000    2,742956281e-01   -5,866999030e-01
       88100000    2,704410851e-01   -5,904278159e-01
       88175000    2,694524825e-01   -5,943528414e-01
       88250000    2,677395046e-01   -5,942959189e-01
       88325000    2,631882727e-01   -5,947389007e-01
       88400000    2,590956092e-01   -5,960619450e-01
       88475000    2,582118213e-01   -5,966506600e-01
       88550000    2,536079288e-01   -6,000085473e-01
       88625000    2,548428774e-01   -5,989634991e-01
       88700000    2,511510849e-01   -6,030411124e-01
       88775000    2,483967841e-01   -6,009934545e-01
       88850000    2,447237223e-01   -6,057632565e-01
       88925000    2,435950041e-01   -6,020863056e-01
       89000000    2,409309000e-01   -6,038826704e-01
       89075000    2,357687950e-01   -6,041520238e-01
       89150000    2,335196733e-01   -6,056207418e-01
       89225000    2,292012423e-01   -6,076646447e-01
       89300000    2,280494273e-01   -6,085039973e-01
       89375000    2,238553762e-01   -6,087294221e-01
       89450000    2,218503058e-01   -6,086641550e-01
       89525000    2,213943452e-01   -6,073952913e-01
       89600000    2,185833305e-01   -6,056590080e-01
       89675000    2,171825171e-01   -6,080754399e-01
       89750000    2,138342708e-01   -6,080348492e-01
       89825000    2,099217027e-01   -6,091302633e-01
       89900000    2,083806247e-01   -6,073000431e-01
       89975000    2,062562257e-01   -6,080898046e-01
       90050000    2,060688138e-01   -6,049280763e-01
       90125000    2,036725730e-01   -6,029002070e-01
       90200000    2,004739195e-01   -6,009649038e-01
       90275000    2,014096975e-01   -6,021936536e-01
       90350000    2,013673633e-01   -6,031735539e-01
       90425000    1,980850995e-01   -5,979934335e-01
       90500000    1,981240213e-01   -5,988046527e-01
       90575000    1,955396384e-01   -6,011468172e-01
       90650000    1,986217052e-01   -5,961998701e-01
       90725000    1,959229559e-01   -5,990181565e-01
       90800000    1,955214739e-01   -5,983014703e-01
       90875000    1,987309605e-01   -5,987299085e-01
       90950000    1,995414943e-01   -5,987843871e-01
       91025000    2,004565746e-01   -5,967575312e-01
       91100000    2,005536556e-01   -5,986996889e-01
       91175000    2,002598494e-01   -5,954760909e-01
       91250000    2,012786567e-01   -5,971798301e-01
       91325000    2,015881985e-01   -5,959997177e-01
       91400000    2,002673745e-01   -6,008996964e-01
       91475000    2,001730055e-01   -6,012144089e-01
       91550000    2,025915831e-01   -6,044275165e-01
       91625000    2,021543682e-01   -6,062230468e-01
       91700000    2,050690651e-01   -6,085023284e-01
       91775000    2,053385526e-01   -6,103082299e-01
       91850000    2,071559131e-01   -6,109144688e-01
       91925000    2,070308030e-01   -6,130005121e-01
