! NanoVNA-App
! Date: 2025-08-09 12:54:57
! Start: 65MHz Stop: 95MHz Points: 401
! S-Parameter data: F S11
# Hz S RI R 50
!     Frequency           S11_Real           S11_Imag
       65000000    5,768821836e-01   -3,480737209e-01
       65075000    5,840597749e-01   -3,513523638e-01
       65150000    5,793150067e-01   -3,510566056e-01
       65225000    5,778548121e-01   -3,537552953e-01
       65300000    5,753902793e-01   -3,573079407e-01
       65375000    5,742690563e-01   -3,567222059e-01
       65450000    5,721402168e-01   -3,586535156e-01
       65525000    5,673120618e-01   -3,587314188e-01
       65600000    5,648295283e-01   -3,611527085e-01
       65675000    5,630127192e-01   -3,635368943e-01
       65750000    5,598095059e-01   -3,658083975e-01
       65825000    5,576866269e-01   -3,672527969e-01
       65900000    5,570939183e-01   -3,682015240e-01
       65975000    5,525529981e-01   -3,697459996e-01
       66050000    5,523277521e-01   -3,716023862e-01
       66125000    5,511593223e-01   -3,731725812e-01
       66200000    5,472854376e-01   -3,753979802e-01
       66275000    5,468004942e-01   -3,773770034e-01
       66350000    5,444374681e-01   -3,779786229e-01
       66425000    5,429958105e-01   -3,793684840e-01
       66500000    5,390817523e-01   -3,808077872e-01
       66575000    5,383397937e-01   -3,826453388e-01
       66650000    5,344688892e-01   -3,840354681e-01
       66725000    5,324254632e-01   -3,883877695e-01
       66800000    5,314983726e-01   -3,889062107e-01
       66875000    5,288599133e-01   -3,913742602e-01
       66950000    5,281566381e-01   -3,922031224e-01
       67025000    5,263490081e-01   -3,916622400e-01
       67100000    5,243001580e-01   -3,942809701e-01
       67175000    5,223185420e-01   -3,990296423e-01
       67250000    5,206074715e-01   -3,989877105e-01
       67325000    5,174488425e-01   -4,008456171e-01
       67400000    5,163270831e-01   -4,021302164e-01
       67475000    5,144163966e-01   -4,061889052e-01
       67550000    5,111693740e-01   -4,052685201e-01
       67625000    5,097634792e-01   -4,071834385e-01
       67700000    5,089863539e-01   -4,086789787e-01
       67775000    5,075920224e-01   -4,132856131e-01
       67850000    5,044346452e-01   -4,132241011e-01
       67925000    5,025526881e-01   -4,154820442e-01
       68000000    4,995526075e-01   -4,188556373e-01
       68075000    4,988783896e-01   -4,194000065e-01
       68150000    4,976104498e-01   -4,219116867e-01
       68225000    4,947950542e-01   -4,227148294e-01
       68300000    4,905087650e-01   -4,242150784e-01
       68375000    4,893301129e-01   -4,265387952e-01
       68450000    4,858306348e-01   -4,305505157e-01
       68525000    4,832293987e-01   -4,311176240e-01
       68600000    4,815270603e-01   -4,325972199e-01
       68675000    4,796298444e-01   -4,366705120e-01
       68750000    4,783286452e-01   -4,373437464e-01
       68825000    4,763752818e-01   -4,380976856e-01
       68900000    4,737716913e-01   -4,410754740e-01
       68975000    4,709568918e-01   -4,413172603e-01
       69050000    4,682419300e-01   -4,433073103e-01
       69125000    4,650202096e-01   -4,455187917e-01
       69200000    4,625475705e-01   -4,454139173e-01
       69275000    4,600576162e-01   -4,478346109e-01
       69350000    4,566670358e-01   -4,488449991e-01
       69425000    4,548101425e-01   -4,487931430e-01
       69500000    4,513512850e-01   -4,500485063e-01
       69575000    4,474218190e-01   -4,507253468e-01
       69650000    4,461382329e-01   -4,522531331e-01
       69725000    4,424146712e-01   -4,529416859e-01
       69800000    4,375924170e-01   -4,551034570e-01
       69875000    4,369383156e-01   -4,549818039e-01
       69950000    4,360173941e-01   -4,573924243e-01
       70025000    4,326183200e-01   -4,569257200e-01
       70100000    4,289368093e-01   -4,597824514e-01
       70175000    4,273823798e-01   -4,591350555e-01
       70250000    4,252193570e-01   -4,578920305e-01
       70325000    4,213044941e-01   -4,587562680e-01
       70400000    4,175261259e-01   -4,602671564e-01
       70475000    4,167394936e-01   -4,606880248e-01
       70550000    4,161008298e-01   -4,609737992e-01
       70625000    4,138063192e-01   -4,618921876e-01
       70700000    4,086801410e-01   -4,602015615e-01
       70775000    4,074359238e-01   -4,605602324e-01
       70850000    4,042688608e-01   -4,613427818e-01
       70925000    4,013841748e-01   -4,626308382e-01
       71000000    4,015326500e-01   -4,623813033e-01
       71075000    4,004262984e-01   -4,639731050e-01
       71150000    3,959379494e-01   -4,622181952e-01
       71225000    3,968853056e-01   -4,627293050e-01
       71300000    3,941296935e-01   -4,617935419e-01
       71375000    3,934174478e-01   -4,623766541e-01
       71450000    3,895787895e-01   -4,644812047e-01
       71525000    3,910409212e-01   -4,638249874e-01
       71600000    3,855164051e-01   -4,646087289e-01
       71675000    3,863437176e-01   -4,628226757e-01
       71750000    3,861718774e-01   -4,641965628e-01
       71825000    3,809663057e-01   -4,638887644e-01
       71900000    3,810501397e-01   -4,646262228e-01
       71975000    3,787930906e-01   -4,635821581e-01
       72050000    3,786953092e-01   -4,661893547e-01
       72125000    3,762741089e-01   -4,643171132e-01
       72200000    3,746716678e-01   -4,651050270e-01
       72275000    3,723616898e-01   -4,653120935e-01
       72350000    3,702933788e-01   -4,663153291e-01
       72425000    3,687094152e-01   -4,682716131e-01
       72500000    3,694714308e-01   -4,678351581e-01
       72575000    3,681350648e-01   -4,708821476e-01
       72650000    3,669122458e-01   -4,659728110e-01
       72725000    3,647490442e-01   -4,698825777e-01
       72800000    3,646104634e-01   -4,678583443e-01
       72875000    3,623938262e-01   -4,691154957e-01
       72950000    3,604574800e-01   -4,701006413e-01
       73025000    3,575040102e-01   -4,698812962e-01
       73100000    3,575578034e-01   -4,676114023e-01
       73175000    3,580559790e-01   -4,710573554e-01
       73250000    3,555213213e-01   -4,681935012e-01
       73325000    3,556506336e-01   -4,696623087e-01
       73400000    3,548820913e-01   -4,704895318e-01
       73475000    3,537570834e-01   -4,702701569e-01
       73550000    3,502755761e-01   -4,694562554e-01
       73625000    3,494856656e-01   -4,701659679e-01
       73700000    3,476895094e-01   -4,718070030e-01
       73775000    3,465994298e-01   -4,730213583e-01
       73850000    3,475398421e-01   -4,727127254e-01
       73925000    3,465620875e-01   -4,711861908e-01
       74000000    3,435169458e-01   -4,712218940e-01
       74075000    3,411137462e-01   -4,739421606e-01
       74150000    3,435299098e-01   -4,725510180e-01
       74225000    3,414042294e-01   -4,743494689e-01
       74300000    3,404915929e-01   -4,758130610e-01
       74375000    3,393236399e-01   -4,740442932e-01
       74450000    3,363977969e-01   -4,765252769e-01
       74525000    3,364728093e-01   -4,767830670e-01
       74600000    3,346278667e-01   -4,779093862e-01
       74675000    3,356696367e-01   -4,751715660e-01
       74750000    3,323931098e-01   -4,754448235e-01
       74825000    3,308850527e-01   -4,765254855e-01
       74900000    3,296461105e-01   -4,780461192e-01
       74975000    3,304372728e-01   -4,794589281e-01
       75050000    3,290474415e-01   -4,771330059e-01
       75125000    3,284160793e-01   -4,789805114e-01
       75200000    3,275045753e-01   -4,786610305e-01
       75275000    3,266778588e-01   -4,784168899e-01
       75350000    3,249273598e-01   -4,787071049e-01
       75425000    3,209591210e-01   -4,798541665e-01
       75500000    3,206217289e-01   -4,797621369e-01
       75575000    3,213571608e-01   -4,802270234e-01
       75650000    3,187935054e-01   -4,787820876e-01
       75725000    3,191486597e-01   -4,804529846e-01
       75800000    3,165878356e-01   -4,804778993e-01
       75875000    3,149729073e-01   -4,804543555e-01
       75950000    3,148373365e-01   -4,816923141e-01
       76025000    3,155824244e-01   -4,823219180e-01
       76100000    3,130133748e-01   -4,812506139e-01
       76175000    3,106918633e-01   -4,824754894e-01
       76250000    3,099086881e-01   -4,832033813e-01
       76325000    3,079951108e-01   -4,843472838e-01
       76400000    3,084824979e-01   -4,837146401e-01
       76475000    3,070185483e-01   -4,827630520e-01
       76550000    3,081282675e-01   -4,833248258e-01
       76625000    3,072523475e-01   -4,845690429e-01
       76700000    3,062446117e-01   -4,834653437e-01
       76775000    3,052558303e-01   -4,860970676e-01
       76850000    3,030812144e-01   -4,824008644e-01
       76925000    3,020836413e-01   -4,845997095e-01
       77000000    3,007094562e-01   -4,856602550e-01
       77075000    3,000109792e-01   -4,846087098e-01
       77150000    2,988174856e-01   -4,848763645e-01
       77225000    2,999136448e-01   -4,837360978e-01
       77300000    2,964285016e-01   -4,829303324e-01
       77375000    2,948539853e-01   -4,827120602e-01
       77450000    2,956736684e-01   -4,841134846e-01
       77525000    2,944999933e-01   -4,836910665e-01
       77600000    2,930462360e-01   -4,836719632e-01
       77675000    2,939630747e-01   -4,848094583e-01
       77750000    2,937051058e-01   -4,814812243e-01
       77825000    2,920646369e-01   -4,815900624e-01
       77900000    2,932229638e-01   -4,817456901e-01
       77975000    2,913134396e-01   -4,802270234e-01
       78050000    2,905130088e-01   -4,814794362e-01
       78125000    2,918694615e-01   -4,778962135e-01
       78200000    2,911785543e-01   -4,781873524e-01
       78275000    2,921163738e-01   -4,761422276e-01
       78350000    2,927463949e-01   -4,778499007e-01
       78425000    2,943540812e-01   -4,760796130e-01
       78500000    2,931812406e-01   -4,771423042e-01
       78575000    2,965014577e-01   -4,795764387e-01
       78650000    2,971612513e-01   -4,787201583e-01
       78725000    2,957662344e-01   -4,791189730e-01
       78800000    2,970728576e-01   -4,817884266e-01
       78875000    2,988781035e-01   -4,806006849e-01
       78950000    2,976895869e-01   -4,796447158e-01
       79025000    2,984308898e-01   -4,804919660e-01
       79100000    2,959520221e-01   -4,806131124e-01
       79175000    2,990491986e-01   -4,840804040e-01
       79250000    2,989506423e-01   -4,831042588e-01
       79325000    2,991481423e-01   -4,831975102e-01
       79400000    2,989354432e-01   -4,834411442e-01
       79475000    2,982777953e-01   -4,866890013e-01
       79550000    2,999276221e-01   -4,856771529e-01
       79625000    3,012841940e-01   -4,880266786e-01
       79700000    2,987833023e-01   -4,866131544e-01
       79775000    2,996900082e-01   -4,899586141e-01
       79850000    3,022115827e-01   -4,878987372e-01
       79925000    3,019878268e-01   -4,907355309e-01
       80000000    3,023281991e-01   -4,925547242e-01
       80075000    3,036956191e-01   -4,898658097e-01
       80150000    3,030332625e-01   -4,920041561e-01
       80225000    3,047920465e-01   -4,925078750e-01
       80300000    3,061516583e-01   -4,945639074e-01
       80375000    3,051121533e-01   -4,937324226e-01
       80450000    3,056387007e-01   -4,974521697e-01
       80525000    3,071994483e-01   -4,993498921e-01
       80600000    3,081560135e-01   -5,028117299e-01
       80675000    3,090222478e-01   -5,016435385e-01
       80750000    3,090047836e-01   -5,017350316e-01
       80825000    3,092961013e-01   -5,051465034e-01
       80900000    3,086895049e-01   -5,072047114e-01
       80975000    3,090024292e-01   -5,060822368e-01
       81050000    3,104022443e-01   -5,097650290e-01
       81125000    3,106243610e-01   -5,107660294e-01
       81200000    3,095762432e-01   -5,134236813e-01
       81275000    3,116852045e-01   -5,145525932e-01
       81350000    3,109554946e-01   -5,169956684e-01
       81425000    3,130855560e-01   -5,175738931e-01
       81500000    3,117111921e-01   -5,190224648e-01
       81575000    3,134827912e-01   -5,210195780e-01
       81650000    3,140124381e-01   -5,260233879e-01
       81725000    3,130839467e-01   -5,273202062e-01
       81800000    3,146167994e-01   -5,299877524e-01
       81875000    3,151766360e-01   -5,294945240e-01
       81950000    3,143813312e-01   -5,316808224e-01
       82025000    3,140302002e-01   -5,339748859e-01
       82100000    3,127340078e-01   -5,356534719e-01
       82175000    3,132417798e-01   -5,382425189e-01
       82250000    3,117026389e-01   -5,407566428e-01
       82325000    3,142350614e-01   -5,448956490e-01
       82400000    3,144829273e-01   -5,449165106e-01
       82475000    3,143751025e-01   -5,466951728e-01
       82550000    3,123139441e-01   -5,486006737e-01
       82625000    3,113597035e-01   -5,520376563e-01
       82700000    3,122034669e-01   -5,556924939e-01
       82775000    3,094565570e-01   -5,575253963e-01
       82850000    3,113904595e-01   -5,595802069e-01
       82925000    3,114117384e-01   -5,615643263e-01
       83000000    3,093582690e-01   -5,652768016e-01
       83075000    3,101137877e-01   -5,669686198e-01
       83150000    3,082523346e-01   -5,701248646e-01
       83225000    3,076857626e-01   -5,721668601e-01
       83300000    3,086518943e-01   -5,752932429e-01
       83375000    3,057766855e-01   -5,783249736e-01
       83450000    3,086307347e-01   -5,796968341e-01
       83525000    3,067215085e-01   -5,815572143e-01
       83600000    3,059454262e-01   -5,856065750e-01
       83675000    3,034859896e-01   -5,912156105e-01
       83750000    3,043414056e-01   -5,913568139e-01
       83825000    3,030321598e-01   -5,923276544e-01
       83900000    3,014869094e-01   -5,964370966e-01
       83975000    2,978770137e-01   -5,997158289e-01
       84050000    2,994343042e-01   -6,022812724e-01
       84125000    2,991713881e-01   -6,051572561e-01
       84200000    2,965071797e-01   -6,061171889e-01
       84275000    2,926922739e-01   -6,110219955e-01
       84350000    2,931738496e-01   -6,122492552e-01
       84425000    2,933792174e-01   -6,146312356e-01
       84500000    2,920857072e-01   -6,179797649e-01
       84575000    2,891118824e-01   -6,183768511e-01
       84650000    2,883146107e-01   -6,230353117e-01
       84725000    2,868971825e-01   -6,243879199e-01
       84800000    2,854399383e-01   -6,273486614e-01
       84875000    2,831151187e-01   -6,280201674e-01
       84950000    2,804876566e-01   -6,337953210e-01
       85025000    2,780807316e-01   -6,356493235e-01
       85100000    2,776325047e-01   -6,381716132e-01
       85175000    2,765811086e-01   -6,405460238e-01
       85250000    2,728719711e-01   -6,413727999e-01
       85325000    2,706291080e-01   -6,465755105e-01
       85400000    2,692112923e-01   -6,483858228e-01
       85475000    2,652845383e-01   -6,520842314e-01
       85550000    2,622260153e-01   -6,520351171e-01
       85625000    2,618816793e-01   -6,527149081e-01
       85700000    2,575742006e-01   -6,564460397e-01
       85775000    2,581573427e-01   -6,596912742e-01
       85850000    2,541314363e-01   -6,603029966e-01
       85925000    2,522138059e-01   -6,613119245e-01
       86000000    2,498618364e-01   -6,637374163e-01
       86075000    2,448532730e-01   -6,644303799e-01
       86150000    2,451912165e-01   -6,691238284e-01
       86225000    2,412702888e-01   -6,714996099e-01
       86300000    2,390100658e-01   -6,713102460e-01
       86375000    2,363252342e-01   -6,721186042e-01
       86450000    2,348048836e-01   -6,755339503e-01
       86525000    2,315389812e-01   -6,759290099e-01
       86600000    2,289247066e-01   -6,784505248e-01
       86675000    2,230844051e-01   -6,802562475e-01
       86750000    2,230249494e-01   -6,818195581e-01
       86825000    2,197950631e-01   -6,824270487e-01
       86900000    2,176327109e-01   -6,827464700e-01
       86975000    2,160747796e-01   -6,844621897e-01
       87050000    2,126547247e-01   -6,871485710e-01
       87125000    2,100498825e-01   -6,869548559e-01
       87200000    2,076645344e-01   -6,896740198e-01
       87275000    2,016319036e-01   -6,897076368e-01
       87350000    2,013833672e-01   -6,906686425e-01
       87425000    1,995697916e-01   -6,917648315e-01
       87500000    1,973768026e-01   -6,969521046e-01
       87575000    1,940341592e-01   -6,934075952e-01
       87650000    1,928040385e-01   -6,941310763e-01
       87725000    1,851271838e-01   -6,962962747e-01
       87800000    1,833157837e-01   -6,963887811e-01
       87875000    1,835279018e-01   -6,994315982e-01
       87950000    1,818740368e-01   -6,964448094e-01
       88025000    1,786789894e-01   -7,000589967e-01
       88100000    1,758913398e-01   -6,992819905e-01
       88175000    1,727194935e-01   -7,020885944e-01
       88250000    1,697627157e-01   -7,021308541e-01
       88325000    1,677704901e-01   -7,011067271e-01
       88400000    1,657089293e-01   -7,031916380e-01
       88475000    1,627707630e-01   -7,019119263e-01
       88550000    1,607803404e-01   -7,040339708e-01
       88625000    1,556638032e-01   -7,049137354e-01
       88700000    1,549090892e-01   -7,039622068e-01
       88775000    1,525148600e-01   -7,058658004e-01
       88850000    1,475615650e-01   -7,037377954e-01
       88925000    1,476969272e-01   -7,060570717e-01
       89000000    1,449765861e-01   -7,054753304e-01
       89075000    1,416554749e-01   -7,065969706e-01
       89150000    1,402655691e-01   -7,052553892e-01
       89225000    1,377096474e-01   -7,060858607e-01
       89300000    1,346515715e-01   -7,055578232e-01
       89375000    1,305412650e-01   -7,047213912e-01
       89450000    1,286542118e-01   -7,040734887e-01
       89525000    1,271964014e-01   -7,062349319e-01
       89600000    1,229738295e-01   -7,040399909e-01
       89675000    1,218272001e-01   -7,032842040e-01
       89750000    1,212352961e-01   -7,032690048e-01
       89825000    1,184405535e-01   -7,035710216e-01
       89900000    1,168212146e-01   -7,021086812e-01
       89975000    1,138100699e-01   -7,001006603e-01
       90050000    1,139040291e-01   -6,996732354e-01
       90125000    1,092210338e-01   -6,990205646e-01
       90200000    1,092716530e-01   -7,001076341e-01
       90275000    1,082435995e-01   -6,977283359e-01
       90350000    1,082867011e-01   -6,952522397e-01
       90425000    1,057504565e-01   -6,965555549e-01
       90500000    1,051514298e-01   -6,967241764e-01
       90575000    1,062992960e-01   -6,948373318e-01
       90650000    1,056128368e-01   -6,954653859e-01
       90725000    1,056746915e-01   -6,955823302e-01
       90800000    1,048789993e-01   -6,951149702e-01
       90875000    1,048162803e-01   -6,932029724e-01
       90950000    1,058433652e-01   -6,950678825e-01
       91025000    1,042772755e-01   -6,936019063e-01
       91100000    1,042345688e-01   -6,939317584e-01
       91175000    1,043154225e-01   -6,953853369e-01
       91250000    1,027865186e-01   -6,942898035e-01
       91325000    1,045560613e-01   -6,969843507e-01
       91400000    1,036890149e-01   -6,978151798e-01
       91475000    1,048140004e-01   -6,999489665e-01
       91550000    1,047235802e-01   -6,997681260e-01
       91625000    1,038402244e-01   -7,021195889e-01
       91700000    1,044860855e-01   -7,040246725e-01
       91775000    1,024526879e-01   -7,030622363e-01
       91850000    1,032032445e-01   -7,052900791e-01
       91925000    1,000592187e-01   -7,071288228e-01
