! NanoVNA-App
! Date: 2025-08-09 16:21:38
! Start: 65MHz Stop: 95MHz Points: 401
! S-Parameter data: F S11
# Hz S RI R 50
!     Frequency           S11_Real           S11_Imag
       65000000    5,674254894e-01    3,784244061e-01
       65075000    5,703985691e-01    3,784049153e-01
       65150000    5,726769567e-01    3,727834821e-01
       65225000    5,728262663e-01    3,687155843e-01
       65300000    5,738843083e-01    3,658808470e-01
       65375000    5,755465031e-01    3,629941642e-01
       65450000    5,779419541e-01    3,573260903e-01
       65525000    5,790002942e-01    3,542240560e-01
       65600000    5,781511068e-01    3,474345803e-01
       65675000    5,794723034e-01    3,441104889e-01
       65750000    5,802125931e-01    3,390443921e-01
       65825000    5,813215375e-01    3,354683220e-01
       65900000    5,821676254e-01    3,321431875e-01
       65975000    5,823770165e-01    3,269414604e-01
       66050000    5,836250782e-01    3,236299157e-01
       66125000    5,832711458e-01    3,194993734e-01
       66200000    5,846668482e-01    3,152552843e-01
       66275000    5,861542225e-01    3,123176694e-01
       66350000    5,856328607e-01    3,080693185e-01
       66425000    5,872720480e-01    3,052029312e-01
       66500000    5,874887705e-01    2,998380065e-01
       66575000    5,882989168e-01    2,966262400e-01
       66650000    5,889316797e-01    2,927244902e-01
       66725000    5,885312557e-01    2,896282971e-01
       66800000    5,904173255e-01    2,863357961e-01
       66875000    5,900318623e-01    2,824731171e-01
       66950000    5,917371511e-01    2,798111141e-01
       67025000    5,928167701e-01    2,764739692e-01
       67100000    5,933671594e-01    2,722463310e-01
       67175000    5,946810246e-01    2,695077956e-01
       67250000    5,962460041e-01    2,663418055e-01
       67325000    5,974923372e-01    2,630559504e-01
       67400000    5,976721048e-01    2,591643333e-01
       67475000    5,991852880e-01    2,550814152e-01
       67550000    6,008580327e-01    2,507953048e-01
       67625000    6,014608741e-01    2,474612743e-01
       67700000    6,027144194e-01    2,435400188e-01
       67775000    6,029931903e-01    2,389326245e-01
       67850000    6,033786535e-01    2,355501652e-01
       67925000    6,050173044e-01    2,314620018e-01
       68000000    6,056984067e-01    2,282776833e-01
       68075000    6,064616442e-01    2,245350331e-01
       68150000    6,067513824e-01    2,207743973e-01
       68225000    6,074594259e-01    2,167125195e-01
       68300000    6,072593927e-01    2,121607363e-01
       68375000    6,084600091e-01    2,087405622e-01
       68450000    6,099392176e-01    2,050153613e-01
       68525000    6,095050573e-01    2,017625570e-01
       68600000    6,094245911e-01    1,977491677e-01
       68675000    6,097962260e-01    1,936732680e-01
       68750000    6,103650928e-01    1,909387112e-01
       68825000    6,097608209e-01    1,856512427e-01
       68900000    6,113229990e-01    1,826879829e-01
       68975000    6,112347245e-01    1,783935875e-01
       69050000    6,115477085e-01    1,751082838e-01
       69125000    6,105647087e-01    1,701761186e-01
       69200000    6,121754646e-01    1,685280055e-01
       69275000    6,110622883e-01    1,630801409e-01
       69350000    6,112654805e-01    1,596613079e-01
       69425000    6,115102768e-01    1,554616541e-01
       69500000    6,110857129e-01    1,529867351e-01
       69575000    6,107411385e-01    1,484310180e-01
       69650000    6,101622581e-01    1,452763975e-01
       69725000    6,101175547e-01    1,419181824e-01
       69800000    6,095411777e-01    1,388929635e-01
       69875000    6,097159982e-01    1,350156963e-01
       69950000    6,086181998e-01    1,316583008e-01
       70025000    6,082973480e-01    1,288643479e-01
       70100000    6,076557040e-01    1,250624061e-01
       70175000    6,065557599e-01    1,214732006e-01
       70250000    6,064049006e-01    1,190507933e-01
       70325000    6,057752371e-01    1,160338446e-01
       70400000    6,045301557e-01    1,137498841e-01
       70475000    6,041983962e-01    1,103736386e-01
       70550000    6,025923491e-01    1,072614118e-01
       70625000    6,031493545e-01    1,057785079e-01
       70700000    6,027892232e-01    1,031626388e-01
       70775000    6,009728312e-01    1,002827063e-01
       70850000    6,014442444e-01    9,867482632e-02
       70925000    6,009395719e-01    9,520263225e-02
       71000000    5,997986197e-01    9,317783266e-02
       71075000    5,999997258e-01    9,107775986e-02
       71150000    5,995743871e-01    8,817954361e-02
       71225000    5,991524458e-01    8,638339490e-02
       71300000    5,985724330e-01    8,393647522e-02
       71375000    5,985122323e-01    8,152623475e-02
       71450000    5,982477665e-01    7,965727150e-02
       71525000    5,981774926e-01    7,809074223e-02
       71600000    5,985838771e-01    7,634674013e-02
       71675000    5,983840823e-01    7,334519178e-02
       71750000    5,975576043e-01    7,115056366e-02
       71825000    5,984048247e-01    6,856057793e-02
       71900000    5,980035067e-01    6,758406758e-02
       71975000    5,975732803e-01    6,416587532e-02
       72050000    5,982972383e-01    6,254957616e-02
       72125000    5,979992747e-01    5,969127268e-02
       72200000    5,979136229e-01    5,826160312e-02
       72275000    5,983897448e-01    5,515173450e-02
       72350000    5,979176164e-01    5,306905881e-02
       72425000    5,983174443e-01    5,115266144e-02
       72500000    5,982002020e-01    5,079566687e-02
       72575000    5,982095003e-01    4,759699106e-02
       72650000    5,977435112e-01    4,375954345e-02
       72725000    5,973421335e-01    4,247644916e-02
       72800000    5,986856222e-01    4,079652950e-02
       72875000    5,983407497e-01    3,666748106e-02
       72950000    5,985084772e-01    3,564610332e-02
       73025000    5,993097425e-01    3,291280195e-02
       73100000    5,985767245e-01    3,102162480e-02
       73175000    5,980089903e-01    2,988900244e-02
       73250000    5,994709730e-01    2,761530690e-02
       73325000    5,989713669e-01    2,431311645e-02
       73400000    6,003372073e-01    2,151217125e-02
       73475000    5,986386538e-01    1,905951463e-02
       73550000    5,997074246e-01    1,768920757e-02
       73625000    5,994542241e-01    1,592398621e-02
       73700000    6,007091403e-01    1,269484032e-02
       73775000    5,985981822e-01    9,696415626e-03
       73850000    5,998902321e-01    9,584296495e-03
       73925000    5,999618769e-01    6,899634376e-03
       74000000    6,015190482e-01    3,122097580e-03
       74075000    6,008892655e-01    1,757604477e-04
       74150000    5,999227166e-01   -2,141607460e-03
       74225000    5,985601544e-01   -3,406097647e-03
       74300000    6,007502079e-01   -4,139734432e-03
       74375000    6,016392112e-01   -8,978368714e-03
       74450000    5,995774865e-01   -1,095078327e-02
       74525000    6,005406976e-01   -1,330515742e-02
       74600000    5,983536243e-01   -1,443070918e-02
       74675000    6,000705361e-01   -1,588113979e-02
       74750000    5,998713970e-01   -2,166931517e-02
       74825000    6,002581716e-01   -2,357774414e-02
       74900000    5,985348821e-01   -2,604290843e-02
       74975000    5,977824926e-01   -2,708134614e-02
       75050000    5,994918942e-01   -2,927573025e-02
       75125000    5,987407565e-01   -3,361275420e-02
       75200000    5,976448655e-01   -3,355477750e-02
       75275000    5,977662206e-01   -3,691303357e-02
       75350000    5,979904532e-01   -3,979884088e-02
       75425000    5,976440310e-01   -4,289152846e-02
       75500000    5,958958268e-01   -4,337315261e-02
       75575000    5,974897742e-01   -4,513132572e-02
       75650000    5,966935158e-01   -4,884387925e-02
       75725000    5,948745012e-01   -5,014673248e-02
       75800000    5,963225365e-01   -5,240672082e-02
       75875000    5,945925713e-01   -5,705391243e-02
       75950000    5,937186480e-01   -5,623152480e-02
       76025000    5,935306549e-01   -6,054093689e-02
       76100000    5,917788744e-01   -6,182418019e-02
       76175000    5,922754407e-01   -6,083014980e-02
       76250000    5,921266079e-01   -6,484305114e-02
       76325000    5,896801353e-01   -6,737332046e-02
       76400000    5,902261734e-01   -6,669606268e-02
       76475000    5,880784988e-01   -7,097615302e-02
       76550000    5,880636573e-01   -7,299759984e-02
       76625000    5,880361199e-01   -7,291074842e-02
       76700000    5,874406695e-01   -7,567858696e-02
       76775000    5,843864679e-01   -7,475499809e-02
       76850000    5,857095122e-01   -7,664368302e-02
       76925000    5,849095583e-01   -7,782730460e-02
       77000000    5,824007392e-01   -8,017817140e-02
       77075000    5,854468942e-01   -7,998362929e-02
       77150000    5,841692090e-01   -7,912184298e-02
       77225000    5,860874057e-01   -8,134547621e-02
       77300000    5,855734348e-01   -8,095866442e-02
       77375000    5,892733335e-01   -8,267073333e-02
       77450000    5,881141424e-01   -8,521257341e-02
       77525000    5,876496434e-01   -8,703614026e-02
       77600000    5,900396109e-01   -8,842322230e-02
       77675000    5,892162323e-01   -9,194140136e-02
       77750000    5,889498591e-01   -9,339319915e-02
       77825000    5,900546312e-01   -9,619585425e-02
       77900000    5,878505707e-01   -9,668623656e-02
       77975000    5,868821740e-01   -9,675124288e-02
       78050000    5,889081359e-01   -9,866845608e-02
       78125000    5,885264277e-01   -1,005346254e-01
       78200000    5,881738067e-01   -9,978903830e-02
       78275000    5,883831978e-01   -1,039078236e-01
       78350000    5,899139047e-01   -1,056824103e-01
       78425000    5,910515785e-01   -1,071770042e-01
       78500000    5,886349082e-01   -1,092239022e-01
       78575000    5,893384814e-01   -1,109393239e-01
       78650000    5,893850327e-01   -1,112833545e-01
       78725000    5,894675851e-01   -1,115916520e-01
       78800000    5,895506740e-01   -1,130350605e-01
       78875000    5,909550190e-01   -1,143511161e-01
       78950000    5,926891565e-01   -1,172898412e-01
       79025000    5,920640230e-01   -1,198184788e-01
       79100000    5,914694071e-01   -1,202604696e-01
       79175000    5,936726928e-01   -1,225920618e-01
       79250000    5,930446386e-01   -1,231840178e-01
       79325000    5,951463580e-01   -1,228746772e-01
       79400000    5,979906321e-01   -1,280956268e-01
       79475000    5,976770520e-01   -1,284061372e-01
       79550000    5,977665782e-01   -1,288072169e-01
       79625000    5,965691209e-01   -1,302231848e-01
       79700000    6,003382802e-01   -1,321675926e-01
       79775000    6,017917991e-01   -1,346769035e-01
       79850000    6,013909578e-01   -1,362674534e-01
       79925000    6,028126478e-01   -1,378731728e-01
       80000000    6,021408439e-01   -1,401344240e-01
       80075000    6,042963266e-01   -1,408177167e-01
       80150000    6,040707827e-01   -1,448246241e-01
       80225000    6,056986451e-01   -1,441037059e-01
       80300000    6,069750786e-01   -1,471397132e-01
       80375000    6,067876220e-01   -1,495983005e-01
       80450000    6,090071797e-01   -1,534111202e-01
       80525000    6,108241677e-01   -1,550656110e-01
       80600000    6,113734841e-01   -1,559263468e-01
       80675000    6,120932102e-01   -1,590500176e-01
       80750000    6,108143926e-01   -1,621350348e-01
       80825000    6,136994958e-01   -1,644760072e-01
       80900000    6,144946218e-01   -1,683168560e-01
       80975000    6,132144928e-01   -1,685661972e-01
       81050000    6,154938340e-01   -1,723125726e-01
       81125000    6,169347763e-01   -1,742253602e-01
       81200000    6,167412400e-01   -1,761371791e-01
       81275000    6,179956794e-01   -1,791211665e-01
       81350000    6,185990572e-01   -1,813274175e-01
       81425000    6,179415584e-01   -1,849759370e-01
       81500000    6,183409095e-01   -1,888609380e-01
       81575000    6,200149655e-01   -1,902572513e-01
       81650000    6,199622154e-01   -1,916466355e-01
       81725000    6,221120358e-01   -1,953175813e-01
       81800000    6,216003299e-01   -1,970221996e-01
       81875000    6,216580272e-01   -2,001052648e-01
       81950000    6,203998923e-01   -2,032256424e-01
       82025000    6,222431064e-01   -2,055532336e-01
       82100000    6,222969890e-01   -2,106466591e-01
       82175000    6,244472265e-01   -2,118730992e-01
       82250000    6,229311824e-01   -2,156750113e-01
       82325000    6,254630089e-01   -2,171562463e-01
       82400000    6,257768273e-01   -2,204566300e-01
       82475000    6,253938079e-01   -2,216231227e-01
       82550000    6,263816357e-01   -2,241407037e-01
       82625000    6,281083822e-01   -2,282656729e-01
       82700000    6,278275251e-01   -2,304793298e-01
       82775000    6,282532811e-01   -2,342578918e-01
       82850000    6,291290522e-01   -2,363900393e-01
       82925000    6,300047040e-01   -2,393000722e-01
       83000000    6,294828653e-01   -2,420858741e-01
       83075000    6,298559308e-01   -2,457690239e-01
       83150000    6,295130253e-01   -2,483191192e-01
       83225000    6,312354803e-01   -2,529263496e-01
       83300000    6,311914325e-01   -2,575133443e-01
       83375000    6,313089728e-01   -2,589457929e-01
       83450000    6,311848760e-01   -2,617124915e-01
       83525000    6,295479536e-01   -2,651550770e-01
       83600000    6,309913993e-01   -2,688440382e-01
       83675000    6,320109367e-01   -2,731627822e-01
       83750000    6,322140098e-01   -2,751829922e-01
       83825000    6,305404902e-01   -2,795204520e-01
       83900000    6,307134032e-01   -2,834469080e-01
       83975000    6,315399408e-01   -2,885531783e-01
       84050000    6,325932145e-01   -2,903392911e-01
       84125000    6,324812770e-01   -2,930301726e-01
       84200000    6,292120218e-01   -2,987280488e-01
       84275000    6,317921877e-01   -3,011173904e-01
       84350000    6,311758161e-01   -3,066917062e-01
       84425000    6,302670240e-01   -3,078227341e-01
       84500000    6,307712197e-01   -3,109722435e-01
       84575000    6,268534064e-01   -3,173283637e-01
       84650000    6,290407777e-01   -3,205679059e-01
       84725000    6,285200119e-01   -3,226995170e-01
       84800000    6,269569397e-01   -3,249704838e-01
       84875000    6,259064078e-01   -3,296093345e-01
       84950000    6,241751313e-01   -3,371864259e-01
       85025000    6,224793196e-01   -3,376090229e-01
       85100000    6,223370433e-01   -3,431866169e-01
       85175000    6,238562465e-01   -3,475019932e-01
       85250000    6,225010753e-01   -3,490011692e-01
       85325000    6,198838949e-01   -3,523579836e-01
       85400000    6,164798141e-01   -3,585073948e-01
       85475000    6,167914271e-01   -3,610095084e-01
       85550000    6,140759587e-01   -3,634670377e-01
       85625000    6,146174073e-01   -3,656733632e-01
       85700000    6,101390123e-01   -3,706202805e-01
       85775000    6,104127169e-01   -3,752066195e-01
       85850000    6,080456972e-01   -3,766973317e-01
       85925000    6,089736223e-01   -3,829708695e-01
       86000000    6,066816449e-01   -3,840675950e-01
       86075000    6,037694812e-01   -3,884482980e-01
       86150000    5,984815955e-01   -3,916727304e-01
       86225000    5,974455476e-01   -3,936523497e-01
       86300000    5,989981294e-01   -3,981021643e-01
       86375000    5,960836411e-01   -4,011988342e-01
       86450000    5,923293829e-01   -4,065879881e-01
       86525000    5,879178643e-01   -4,070440531e-01
       86600000    5,889520049e-01   -4,118649065e-01
       86675000    5,869029164e-01   -4,155722857e-01
       86750000    5,846768022e-01   -4,158951342e-01
       86825000    5,809751749e-01   -4,191438854e-01
       86900000    5,782078505e-01   -4,191095829e-01
       86975000    5,765221119e-01   -4,216727912e-01
       87050000    5,735313296e-01   -4,276413321e-01
       87125000    5,710920691e-01   -4,262170196e-01
       87200000    5,686630011e-01   -4,285136759e-01
       87275000    5,631477237e-01   -4,331345558e-01
       87350000    5,646867752e-01   -4,316950440e-01
       87425000    5,625485778e-01   -4,345197976e-01
       87500000    5,564499497e-01   -4,390020072e-01
       87575000    5,563367605e-01   -4,392914176e-01
       87650000    5,566226840e-01   -4,389746487e-01
       87725000    5,504614115e-01   -4,411824346e-01
       87800000    5,537543893e-01   -4,454968572e-01
       87875000    5,482252240e-01   -4,489956200e-01
       87950000    5,445587039e-01   -4,495616555e-01
       88025000    5,454113483e-01   -4,436773956e-01
       88100000    5,463330150e-01   -4,484412670e-01
       88175000    5,403943062e-01   -4,530125856e-01
       88250000    5,369259715e-01   -4,552141130e-01
       88325000    5,366336107e-01   -4,502546191e-01
       88400000    5,368052125e-01   -4,613974988e-01
       88475000    5,319749117e-01   -4,581355453e-01
       88550000    5,322435498e-01   -4,582728446e-01
       88625000    5,256454945e-01   -4,644187987e-01
       88700000    5,304850340e-01   -4,636749923e-01
       88775000    5,269582868e-01   -4,630616903e-01
       88850000    5,264788866e-01   -4,624160528e-01
       88925000    5,208969116e-01   -4,694724381e-01
       89000000    5,189148188e-01   -4,635994136e-01
       89075000    5,203232169e-01   -4,679489732e-01
       89150000    5,136005878e-01   -4,721658230e-01
       89225000    5,189379454e-01   -4,689424932e-01
       89300000    5,139198899e-01   -4,776288867e-01
       89375000    5,104691386e-01   -4,715434313e-01
       89450000    5,127100945e-01   -4,756678343e-01
       89525000    5,048367381e-01   -4,738619924e-01
       89600000    5,068781972e-01   -4,802232385e-01
       89675000    5,029582381e-01   -4,753331542e-01
       89750000    5,003701448e-01   -4,797305763e-01
       89825000    4,978926480e-01   -4,719091654e-01
       89900000    5,018247962e-01   -4,779304862e-01
       89975000    4,938886464e-01   -4,771826565e-01
       90050000    4,947250187e-01   -4,743024707e-01
       90125000    4,966316223e-01   -4,763294458e-01
       90200000    4,927368462e-01   -4,838047326e-01
       90275000    4,936782718e-01   -4,760251641e-01
       90350000    4,901628196e-01   -4,806262255e-01
       90425000    4,902310073e-01   -4,828453660e-01
       90500000    4,848792851e-01   -4,785657525e-01
       90575000    4,898412824e-01   -4,763841629e-01
       90650000    4,895628691e-01   -4,774284661e-01
       90725000    4,930226505e-01   -4,730193317e-01
       90800000    4,967833459e-01   -4,820950925e-01
       90875000    4,896165431e-01   -4,791958630e-01
       90950000    4,908261001e-01   -4,779923260e-01
       91025000    4,910214841e-01   -4,837449491e-01
       91100000    4,967684746e-01   -4,773703218e-01
       91175000    4,977699816e-01   -4,846467674e-01
       91250000    4,967758358e-01   -4,830195010e-01
       91325000    4,971808195e-01   -4,883882403e-01
       91400000    5,010942221e-01   -4,889041483e-01
       91475000    5,004549623e-01   -4,881507754e-01
       91550000    5,008004308e-01   -4,916033745e-01
       91625000    5,030430555e-01   -4,946182072e-01
       91700000    5,024463534e-01   -4,961005151e-01
       91775000    5,032091141e-01   -4,982648790e-01
       91850000    5,008264184e-01   -4,999479651e-01
       91925000    4,993414283e-01   -5,018996596e-01
