! NanoVNA-App
! Date: 2025-08-09 12:44:32
! Start: 65MHz Stop: 95MHz Points: 401
! S-Parameter data: F S11
# Hz S RI R 50
!     Frequency           S11_Real           S11_Imag
       65000000    5,303208232e-01   -1,846070737e-01
       65075000    5,304548144e-01   -1,850740463e-01
       65150000    5,280249715e-01   -1,884344369e-01
       65225000    5,268092752e-01   -1,908514798e-01
       65300000    5,221732855e-01   -1,921302825e-01
       65375000    5,230489969e-01   -1,961821914e-01
       65450000    5,208697319e-01   -1,990135163e-01
       65525000    5,193669796e-01   -2,018976510e-01
       65600000    5,167939663e-01   -2,053231150e-01
       65675000    5,157575011e-01   -2,072985321e-01
       65750000    5,130785108e-01   -2,104660124e-01
       65825000    5,128242970e-01   -2,133138478e-01
       65900000    5,096346736e-01   -2,154254466e-01
       65975000    5,084052682e-01   -2,186858803e-01
       66050000    5,061040521e-01   -2,211045772e-01
       66125000    5,046580434e-01   -2,240457088e-01
       66200000    5,026993752e-01   -2,260220200e-01
       66275000    5,010316372e-01   -2,295091003e-01
       66350000    4,984968007e-01   -2,326416224e-01
       66425000    4,976401925e-01   -2,348871231e-01
       66500000    4,945042133e-01   -2,378382385e-01
       66575000    4,938760698e-01   -2,390674949e-01
       66650000    4,909721613e-01   -2,423050106e-01
       66725000    4,899969697e-01   -2,458991408e-01
       66800000    4,879058003e-01   -2,464701086e-01
       66875000    4,859536290e-01   -2,497489303e-01
       66950000    4,850549996e-01   -2,515886128e-01
       67025000    4,831753671e-01   -2,540951967e-01
       67100000    4,803600609e-01   -2,568184435e-01
       67175000    4,800173044e-01   -2,599340081e-01
       67250000    4,773609936e-01   -2,625169158e-01
       67325000    4,771522880e-01   -2,643519640e-01
       67400000    4,744686484e-01   -2,683089077e-01
       67475000    4,714951217e-01   -2,692160010e-01
       67550000    4,708633423e-01   -2,711557448e-01
       67625000    4,687680900e-01   -2,743140459e-01
       67700000    4,671320021e-01   -2,767678797e-01
       67775000    4,655225277e-01   -2,800632417e-01
       67850000    4,635374844e-01   -2,814359069e-01
       67925000    4,624439180e-01   -2,842412889e-01
       68000000    4,612677693e-01   -2,868074477e-01
       68075000    4,601536095e-01   -2,897748351e-01
       68150000    4,561676383e-01   -2,925334871e-01
       68225000    4,555988014e-01   -2,952066362e-01
       68300000    4,523935318e-01   -2,972360551e-01
       68375000    4,513634443e-01   -2,996544838e-01
       68450000    4,478922188e-01   -3,030318618e-01
       68525000    4,464973807e-01   -3,050621450e-01
       68600000    4,444276392e-01   -3,076031804e-01
       68675000    4,414007366e-01   -3,118419945e-01
       68750000    4,400847256e-01   -3,120526075e-01
       68825000    4,375929832e-01   -3,143723309e-01
       68900000    4,354194701e-01   -3,182293773e-01
       68975000    4,327512681e-01   -3,194404244e-01
       69050000    4,306756258e-01   -3,220110834e-01
       69125000    4,277823865e-01   -3,244867623e-01
       69200000    4,251186848e-01   -3,256404996e-01
       69275000    4,230232537e-01   -3,283977211e-01
       69350000    4,192695320e-01   -3,294001520e-01
       69425000    4,164377749e-01   -3,312388361e-01
       69500000    4,141476452e-01   -3,336280584e-01
       69575000    4,102366269e-01   -3,345356286e-01
       69650000    4,100063443e-01   -3,370546401e-01
       69725000    4,057389200e-01   -3,382569849e-01
       69800000    4,030645490e-01   -3,396518230e-01
       69875000    4,005942643e-01   -3,411392272e-01
       69950000    3,971037567e-01   -3,431925178e-01
       70025000    3,962351680e-01   -3,427232504e-01
       70100000    3,924477398e-01   -3,448682725e-01
       70175000    3,889583647e-01   -3,449417949e-01
       70250000    3,878712654e-01   -3,467961252e-01
       70325000    3,834550977e-01   -3,473764062e-01
       70400000    3,817270696e-01   -3,490103185e-01
       70475000    3,796021640e-01   -3,485938907e-01
       70550000    3,772636950e-01   -3,484326601e-01
       70625000    3,751406372e-01   -3,496025205e-01
       70700000    3,731941879e-01   -3,510777354e-01
       70775000    3,694833517e-01   -3,495444655e-01
       70850000    3,685492277e-01   -3,518572152e-01
       70925000    3,658478260e-01   -3,516598940e-01
       71000000    3,647191823e-01   -3,524166942e-01
       71075000    3,612281084e-01   -3,516455293e-01
       71150000    3,610441685e-01   -3,535511494e-01
       71225000    3,584823608e-01   -3,535180688e-01
       71300000    3,573971093e-01   -3,539807498e-01
       71375000    3,557895124e-01   -3,547084928e-01
       71450000    3,528036475e-01   -3,539552391e-01
       71525000    3,527210355e-01   -3,551609516e-01
       71600000    3,502396345e-01   -3,565158546e-01
       71675000    3,479505777e-01   -3,555413187e-01
       71750000    3,482546210e-01   -3,562199175e-01
       71825000    3,458250165e-01   -3,561801314e-01
       71900000    3,438391089e-01   -3,568721712e-01
       71975000    3,413061202e-01   -3,570161164e-01
       72050000    3,414570093e-01   -3,584391475e-01
       72125000    3,395180702e-01   -3,581247628e-01
       72200000    3,386707902e-01   -3,584282398e-01
       72275000    3,355355859e-01   -3,592324257e-01
       72350000    3,362322450e-01   -3,591347039e-01
       72425000    3,342939317e-01   -3,586378098e-01
       72500000    3,325774372e-01   -3,599409759e-01
       72575000    3,303200603e-01   -3,612295985e-01
       72650000    3,312354088e-01   -3,604459763e-01
       72725000    3,283042908e-01   -3,610586226e-01
       72800000    3,275939822e-01   -3,611805737e-01
       72875000    3,274574578e-01   -3,620380759e-01
       72950000    3,254768252e-01   -3,610732257e-01
       73025000    3,248891532e-01   -3,625561893e-01
       73100000    3,227831423e-01   -3,636740446e-01
       73175000    3,225781024e-01   -3,630624712e-01
       73250000    3,217678368e-01   -3,633419573e-01
       73325000    3,205197155e-01   -3,641650379e-01
       73400000    3,184961975e-01   -3,639978766e-01
       73475000    3,186360300e-01   -3,641543090e-01
       73550000    3,169895113e-01   -3,657586277e-01
       73625000    3,160853982e-01   -3,653589189e-01
       73700000    3,162203133e-01   -3,663477302e-01
       73775000    3,149927258e-01   -3,675908744e-01
       73850000    3,134446442e-01   -3,664591312e-01
       73925000    3,131904006e-01   -3,673236966e-01
       74000000    3,113268316e-01   -3,675991297e-01
       74075000    3,099746108e-01   -3,692035675e-01
       74150000    3,088206947e-01   -3,687082231e-01
       74225000    3,079625964e-01   -3,687139153e-01
       74300000    3,073929846e-01   -3,701371849e-01
       74375000    3,065069020e-01   -3,702489436e-01
       74450000    3,064475060e-01   -3,723442554e-01
       74525000    3,061563373e-01   -3,713894188e-01
       74600000    3,038156629e-01   -3,718682826e-01
       74675000    3,038931191e-01   -3,722928464e-01
       74750000    3,017347455e-01   -3,724541068e-01
       74825000    3,008794487e-01   -3,719496131e-01
       74900000    2,989642620e-01   -3,738203049e-01
       74975000    2,987624109e-01   -3,741564155e-01
       75050000    2,995325029e-01   -3,748957515e-01
       75125000    2,967865169e-01   -3,750322163e-01
       75200000    2,974785566e-01   -3,761959970e-01
       75275000    2,947827578e-01   -3,759945035e-01
       75350000    2,950275242e-01   -3,770529032e-01
       75425000    2,934464812e-01   -3,764717281e-01
       75500000    2,939379215e-01   -3,765978515e-01
       75575000    2,909655571e-01   -3,766362965e-01
       75650000    2,902182341e-01   -3,776354194e-01
       75725000    2,892664969e-01   -3,782338798e-01
       75800000    2,881011963e-01   -3,783258200e-01
       75875000    2,877618074e-01   -3,783305287e-01
       75950000    2,869074941e-01   -3,796362877e-01
       76025000    2,858759761e-01   -3,790036738e-01
       76100000    2,845485508e-01   -3,797870576e-01
       76175000    2,848160565e-01   -3,798766732e-01
       76250000    2,823525071e-01   -3,809683621e-01
       76325000    2,823833525e-01   -3,801900148e-01
       76400000    2,817841172e-01   -3,813000917e-01
       76475000    2,813324630e-01   -3,808685839e-01
       76550000    2,802780569e-01   -3,817887902e-01
       76625000    2,789004743e-01   -3,817098439e-01
       76700000    2,791027129e-01   -3,814539909e-01
       76775000    2,774826884e-01   -3,817726374e-01
       76850000    2,767837942e-01   -3,822437525e-01
       76925000    2,748261392e-01   -3,810975254e-01
       77000000    2,746251822e-01   -3,809706569e-01
       77075000    2,738708556e-01   -3,811061382e-01
       77150000    2,739358246e-01   -3,818375766e-01
       77225000    2,720821202e-01   -3,822790086e-01
       77300000    2,707799971e-01   -3,808653653e-01
       77375000    2,703044713e-01   -3,819873333e-01
       77450000    2,693028450e-01   -3,800199926e-01
       77525000    2,690215409e-01   -3,800499141e-01
       77600000    2,684389353e-01   -3,797966540e-01
       77675000    2,694158554e-01   -3,794420660e-01
       77750000    2,661345601e-01   -3,788916171e-01
       77825000    2,663875520e-01   -3,779619932e-01
       77900000    2,674236000e-01   -3,760443628e-01
       77975000    2,649132013e-01   -3,762653172e-01
       78050000    2,658195496e-01   -3,748573959e-01
       78125000    2,661674321e-01   -3,732880056e-01
       78200000    2,664682865e-01   -3,734650612e-01
       78275000    2,678165734e-01   -3,717935383e-01
       78350000    2,683970332e-01   -3,725800514e-01
       78425000    2,697188556e-01   -3,721868992e-01
       78500000    2,702727914e-01   -3,722492158e-01
       78575000    2,732008398e-01   -3,720083237e-01
       78650000    2,744506299e-01   -3,718052506e-01
       78725000    2,722828984e-01   -3,727900684e-01
       78800000    2,753691673e-01   -3,731809855e-01
       78875000    2,755596936e-01   -3,721399009e-01
       78950000    2,755959928e-01   -3,732060194e-01
       79025000    2,752045095e-01   -3,725671768e-01
       79100000    2,759355903e-01   -3,738918006e-01
       79175000    2,779320180e-01   -3,743754029e-01
       79250000    2,792561054e-01   -3,749131560e-01
       79325000    2,790061831e-01   -3,740870059e-01
       79400000    2,802930474e-01   -3,745583594e-01
       79475000    2,807256579e-01   -3,749412596e-01
       79550000    2,824343741e-01   -3,765844703e-01
       79625000    2,829462886e-01   -3,765275776e-01
       79700000    2,843709886e-01   -3,764419258e-01
       79775000    2,832818925e-01   -3,774996698e-01
       79850000    2,855142951e-01   -3,775352240e-01
       79925000    2,860300839e-01   -3,775497675e-01
       80000000    2,876298726e-01   -3,782585263e-01
       80075000    2,897849679e-01   -3,797538280e-01
       80150000    2,895764709e-01   -3,801848590e-01
       80225000    2,918489575e-01   -3,821756840e-01
       80300000    2,927220464e-01   -3,850023150e-01
       80375000    2,945765853e-01   -3,827993274e-01
       80450000    2,938547432e-01   -3,843514919e-01
       80525000    2,953696549e-01   -3,848261833e-01
       80600000    2,963912785e-01   -3,871955574e-01
       80675000    2,986385226e-01   -3,880569339e-01
       80750000    3,012833297e-01   -3,897840381e-01
       80825000    3,004144430e-01   -3,896435201e-01
       80900000    3,014155924e-01   -3,925894201e-01
       80975000    3,034322560e-01   -3,930443525e-01
       81050000    3,040128648e-01   -3,940377831e-01
       81125000    3,049360216e-01   -3,962668180e-01
       81200000    3,070124984e-01   -3,977863193e-01
       81275000    3,065789342e-01   -4,000574052e-01
       81350000    3,091062009e-01   -4,025066793e-01
       81425000    3,100695014e-01   -4,029945135e-01
       81500000    3,122746646e-01   -4,056998491e-01
       81575000    3,121516407e-01   -4,066384733e-01
       81650000    3,130503297e-01   -4,101929963e-01
       81725000    3,126301169e-01   -4,122456610e-01
       81800000    3,141805828e-01   -4,140717387e-01
       81875000    3,165442944e-01   -4,167963564e-01
       81950000    3,174074590e-01   -4,182869196e-01
       82025000    3,180041313e-01   -4,195765853e-01
       82100000    3,193829060e-01   -4,218073785e-01
       82175000    3,190887570e-01   -4,236609042e-01
       82250000    3,204257786e-01   -4,262080789e-01
       82325000    3,200454116e-01   -4,305833578e-01
       82400000    3,213945031e-01   -4,335961640e-01
       82475000    3,227955103e-01   -4,345706999e-01
       82550000    3,244709373e-01   -4,375785887e-01
       82625000    3,237676024e-01   -4,395145178e-01
       82700000    3,248722255e-01   -4,430707097e-01
       82775000    3,239783049e-01   -4,441559017e-01
       82850000    3,261741102e-01   -4,473153651e-01
       82925000    3,258660734e-01   -4,501004219e-01
       83000000    3,265213966e-01   -4,526240230e-01
       83075000    3,252033889e-01   -4,553229511e-01
       83150000    3,268852830e-01   -4,585904777e-01
       83225000    3,271855712e-01   -4,618386328e-01
       83300000    3,273500502e-01   -4,643046856e-01
       83375000    3,260422647e-01   -4,680099785e-01
       83450000    3,273501396e-01   -4,723612964e-01
       83525000    3,275699615e-01   -4,764525592e-01
       83600000    3,273705542e-01   -4,782847464e-01
       83675000    3,265288472e-01   -4,803969562e-01
       83750000    3,248557448e-01   -4,849301577e-01
       83825000    3,262425959e-01   -4,882791936e-01
       83900000    3,259749115e-01   -4,927576780e-01
       83975000    3,266839981e-01   -4,934998155e-01
       84050000    3,258070648e-01   -4,959517717e-01
       84125000    3,230310082e-01   -4,986197352e-01
       84200000    3,228002191e-01   -5,037139058e-01
       84275000    3,238257468e-01   -5,067087412e-01
       84350000    3,222808540e-01   -5,091834664e-01
       84425000    3,222709894e-01   -5,121876001e-01
       84500000    3,196988702e-01   -5,143001676e-01
       84575000    3,186794519e-01   -5,191493034e-01
       84650000    3,194925487e-01   -5,247833729e-01
       84725000    3,191592693e-01   -5,246607661e-01
       84800000    3,150551021e-01   -5,280133486e-01
       84875000    3,145518601e-01   -5,311335921e-01
       84950000    3,138996661e-01   -5,381338596e-01
       85025000    3,109772205e-01   -5,399630070e-01
       85100000    3,117514253e-01   -5,426855087e-01
       85175000    3,081989288e-01   -5,438451767e-01
       85250000    3,080888987e-01   -5,475440621e-01
       85325000    3,055074215e-01   -5,527787805e-01
       85400000    3,041343689e-01   -5,572192073e-01
       85475000    3,030456007e-01   -5,575194359e-01
       85550000    3,001215160e-01   -5,618061423e-01
       85625000    2,958917022e-01   -5,632569194e-01
       85700000    2,951542139e-01   -5,676308274e-01
       85775000    2,949033976e-01   -5,697016120e-01
       85850000    2,900782228e-01   -5,739028454e-01
       85925000    2,888775468e-01   -5,744895339e-01
       86000000    2,853304446e-01   -5,774179697e-01
       86075000    2,837015092e-01   -5,807915330e-01
       86150000    2,833328843e-01   -5,856076479e-01
       86225000    2,803719938e-01   -5,860616565e-01
       86300000    2,774921060e-01   -5,871430635e-01
       86375000    2,754382193e-01   -5,895295739e-01
       86450000    2,714921236e-01   -5,917320251e-01
       86525000    2,702671289e-01   -5,962484479e-01
       86600000    2,648477554e-01   -5,972213149e-01
       86675000    2,631434798e-01   -5,997279286e-01
       86750000    2,589541674e-01   -6,029030085e-01
       86825000    2,578693926e-01   -6,043274403e-01
       86900000    2,566509545e-01   -6,060083508e-01
       86975000    2,556115389e-01   -6,072710752e-01
       87050000    2,483439147e-01   -6,096877456e-01
       87125000    2,496023178e-01   -6,119894981e-01
       87200000    2,460892797e-01   -6,118746996e-01
       87275000    2,414168864e-01   -6,128744483e-01
       87350000    2,411420643e-01   -6,159988642e-01
       87425000    2,371127903e-01   -6,168521047e-01
       87500000    2,337534726e-01   -6,213495731e-01
       87575000    2,327288538e-01   -6,191958785e-01
       87650000    2,308984548e-01   -6,213515401e-01
       87725000    2,243193835e-01   -6,226565838e-01
       87800000    2,224975973e-01   -6,241922975e-01
       87875000    2,197206318e-01   -6,273913980e-01
       87950000    2,181530297e-01   -6,241999865e-01
       88025000    2,171070725e-01   -6,280227304e-01
       88100000    2,156894058e-01   -6,276819110e-01
       88175000    2,089946866e-01   -6,305778027e-01
       88250000    2,075492591e-01   -6,310174465e-01
       88325000    2,067113817e-01   -6,306294203e-01
       88400000    2,033256590e-01   -6,311200261e-01
       88475000    2,018510103e-01   -6,323056817e-01
       88550000    1,971356422e-01   -6,331055760e-01
       88625000    1,956694871e-01   -6,371514201e-01
       88700000    1,921559423e-01   -6,362371445e-01
       88775000    1,928343028e-01   -6,377716660e-01
       88850000    1,842455864e-01   -6,380222440e-01
       88925000    1,847379506e-01   -6,401848197e-01
       89000000    1,831114590e-01   -6,420348883e-01
       89075000    1,803698838e-01   -6,394842267e-01
       89150000    1,790315956e-01   -6,408075094e-01
       89225000    1,723397821e-01   -6,391976476e-01
       89300000    1,696563363e-01   -6,401296258e-01
       89375000    1,670133322e-01   -6,396168470e-01
       89450000    1,643870622e-01   -6,403861046e-01
       89525000    1,641678363e-01   -6,431090832e-01
       89600000    1,610666960e-01   -6,406840682e-01
       89675000    1,570135206e-01   -6,413738728e-01
       89750000    1,551304609e-01   -6,421065927e-01
       89825000    1,499121338e-01   -6,391450763e-01
       89900000    1,493130624e-01   -6,388315558e-01
       89975000    1,464586407e-01   -6,379992366e-01
       90050000    1,462432295e-01   -6,371033788e-01
       90125000    1,470292509e-01   -6,369725466e-01
       90200000    1,450590044e-01   -6,330306530e-01
       90275000    1,419623196e-01   -6,349733472e-01
       90350000    1,407855451e-01   -6,342619658e-01
       90425000    1,419429183e-01   -6,303429008e-01
       90500000    1,426534653e-01   -6,300135851e-01
       90575000    1,377526671e-01   -6,303567886e-01
       90650000    1,405164897e-01   -6,286997199e-01
       90725000    1,393387467e-01   -6,276494265e-01
       90800000    1,371552944e-01   -6,270443797e-01
       90875000    1,397787184e-01   -6,290726662e-01
       90950000    1,397959292e-01   -6,299735308e-01
       91025000    1,410871148e-01   -6,295695305e-01
       91100000    1,410432160e-01   -6,301180124e-01
       91175000    1,435825527e-01   -6,284167767e-01
       91250000    1,446086317e-01   -6,303557754e-01
       91325000    1,441861540e-01   -6,295706630e-01
       91400000    1,438072622e-01   -6,304346323e-01
       91475000    1,425857842e-01   -6,308189631e-01
       91550000    1,437434703e-01   -6,334919930e-01
       91625000    1,431109011e-01   -6,358708143e-01
       91700000    1,436937302e-01   -6,374534369e-01
       91775000    1,451395005e-01   -6,416225433e-01
       91850000    1,464148760e-01   -6,422200203e-01
       91925000    1,464258879e-01   -6,451860070e-01
