! NanoVNA-App
! Date: 2025-08-09 13:05:19
! Start: 65MHz Stop: 95MHz Points: 401
! S-Parameter data: F S11
# Hz S RI R 50
!     Frequency           S11_Real           S11_Imag
       65000000   -6,350931525e-01   -4,878605604e-01
       65075000   -6,381253600e-01   -4,909595251e-01
       65150000   -6,390337944e-01   -4,892993569e-01
       65225000   -6,380981803e-01   -4,844851792e-01
       65300000   -6,386535168e-01   -4,811468124e-01
       65375000   -6,406865716e-01   -4,775618017e-01
       65450000   -6,399903297e-01   -4,731408060e-01
       65525000   -6,404383183e-01   -4,715709686e-01
       65600000   -6,410782337e-01   -4,671129286e-01
       65675000   -6,411181092e-01   -4,650082290e-01
       65750000   -6,422176957e-01   -4,606890380e-01
       65825000   -6,398848295e-01   -4,560540617e-01
       65900000   -6,415118575e-01   -4,548022747e-01
       65975000   -6,409732103e-01   -4,501242936e-01
       66050000   -6,422173977e-01   -4,477446973e-01
       66125000   -6,429401040e-01   -4,445403814e-01
       66200000   -6,415159702e-01   -4,410021007e-01
       66275000   -6,426728368e-01   -4,376653135e-01
       66350000   -6,436616182e-01   -4,352414012e-01
       66425000   -6,414316893e-01   -4,311538637e-01
       66500000   -6,432943344e-01   -4,274426401e-01
       66575000   -6,418164968e-01   -4,234266579e-01
       66650000   -6,429877877e-01   -4,207795262e-01
       66725000   -6,441566348e-01   -4,175111651e-01
       66800000   -6,429123878e-01   -4,149673879e-01
       66875000   -6,444820166e-01   -4,117650390e-01
       66950000   -6,433422565e-01   -4,089263082e-01
       67025000   -6,435158849e-01   -4,067363739e-01
       67100000   -6,442976594e-01   -4,031163752e-01
       67175000   -6,445203424e-01   -3,979195356e-01
       67250000   -6,437097192e-01   -3,949924111e-01
       67325000   -6,437597275e-01   -3,922324479e-01
       67400000   -6,444404125e-01   -3,880895078e-01
       67475000   -6,437799335e-01   -3,854103386e-01
       67550000   -6,434899569e-01   -3,809382915e-01
       67625000   -6,434719563e-01   -3,773478866e-01
       67700000   -6,431757212e-01   -3,750399053e-01
       67775000   -6,439349651e-01   -3,723972738e-01
       67850000   -6,424831748e-01   -3,676466048e-01
       67925000   -6,436356306e-01   -3,657051325e-01
       68000000   -6,426155567e-01   -3,608516455e-01
       68075000   -6,433075666e-01   -3,581707776e-01
       68150000   -6,420413852e-01   -3,530221581e-01
       68225000   -6,412269473e-01   -3,514165580e-01
       68300000   -6,419009566e-01   -3,483180404e-01
       68375000   -6,395553350e-01   -3,445917666e-01
       68450000   -6,399617791e-01   -3,408638239e-01
       68525000   -6,390387416e-01   -3,354978859e-01
       68600000   -6,390566230e-01   -3,347371519e-01
       68675000   -6,382029653e-01   -3,316371143e-01
       68750000   -6,372358203e-01   -3,284513950e-01
       68825000   -6,373511553e-01   -3,252980411e-01
       68900000   -6,350117922e-01   -3,213942647e-01
       68975000   -6,350103021e-01   -3,192418218e-01
       69050000   -6,332363486e-01   -3,158678114e-01
       69125000   -6,331849098e-01   -3,132263720e-01
       69200000   -6,310895681e-01   -3,098688126e-01
       69275000   -6,314690113e-01   -3,071730137e-01
       69350000   -6,293806434e-01   -3,037860096e-01
       69425000   -6,285880208e-01   -3,011099398e-01
       69500000   -6,265253425e-01   -2,976320088e-01
       69575000   -6,265926957e-01   -2,951041758e-01
       69650000   -6,244292855e-01   -2,912876010e-01
       69725000   -6,244643927e-01   -2,901324034e-01
       69800000   -6,233909726e-01   -2,867310047e-01
       69875000   -6,216699481e-01   -2,853802443e-01
       69950000   -6,214818954e-01   -2,831265926e-01
       70025000   -6,202085018e-01   -2,798062563e-01
       70100000   -6,181666255e-01   -2,789181173e-01
       70175000   -6,170392632e-01   -2,757387757e-01
       70250000   -6,170523763e-01   -2,735348940e-01
       70325000   -6,153559089e-01   -2,711870968e-01
       70400000   -6,146231890e-01   -2,692196071e-01
       70475000   -6,135823727e-01   -2,685365379e-01
       70550000   -6,126549244e-01   -2,659496069e-01
       70625000   -6,116206646e-01   -2,631640136e-01
       70700000   -6,103099585e-01   -2,622319162e-01
       70775000   -6,105827093e-01   -2,597070634e-01
       70850000   -6,096668839e-01   -2,594713271e-01
       70925000   -6,077890396e-01   -2,555957735e-01
       71000000   -6,082860231e-01   -2,539147139e-01
       71075000   -6,067820787e-01   -2,525695860e-01
       71150000   -6,071056128e-01   -2,516428828e-01
       71225000   -6,061935425e-01   -2,482841909e-01
       71300000   -6,043505073e-01   -2,460795343e-01
       71375000   -6,051919460e-01   -2,452135235e-01
       71450000   -6,044271588e-01   -2,422835231e-01
       71525000   -6,044744253e-01   -2,409541905e-01
       71600000   -6,016466022e-01   -2,373795807e-01
       71675000   -6,017068028e-01   -2,370022833e-01
       71750000   -6,027500033e-01   -2,352669388e-01
       71825000   -6,014401913e-01   -2,328966558e-01
       71900000   -6,021436453e-01   -2,323989421e-01
       71975000   -5,999786258e-01   -2,281577438e-01
       72050000   -5,994965434e-01   -2,275665700e-01
       72125000   -5,996774435e-01   -2,258685529e-01
       72200000   -5,998363495e-01   -2,235093117e-01
       72275000   -5,984733105e-01   -2,221951038e-01
       72350000   -5,987548232e-01   -2,202316225e-01
       72425000   -5,971642733e-01   -2,176984251e-01
       72500000   -5,967048407e-01   -2,154542059e-01
       72575000   -5,964285731e-01   -2,147334814e-01
       72650000   -5,973392725e-01   -2,125836611e-01
       72725000   -5,965445638e-01   -2,112160623e-01
       72800000   -5,959109664e-01   -2,093133926e-01
       72875000   -5,965762138e-01   -2,071516067e-01
       72950000   -5,950276852e-01   -2,058230340e-01
       73025000   -5,949500203e-01   -2,045689821e-01
       73100000   -5,947031379e-01   -2,021230757e-01
       73175000   -5,949887037e-01   -1,998394579e-01
       73250000   -5,944833755e-01   -1,979314238e-01
       73325000   -5,937932730e-01   -1,961742043e-01
       73400000   -5,935218930e-01   -1,940767914e-01
       73475000   -5,934285522e-01   -1,917319745e-01
       73550000   -5,936388969e-01   -1,907025278e-01
       73625000   -5,928578377e-01   -1,874000281e-01
       73700000   -5,921055675e-01   -1,859801710e-01
       73775000   -5,928006768e-01   -1,833605617e-01
       73850000   -5,922666192e-01   -1,823647916e-01
       73925000   -5,923083425e-01   -1,802787632e-01
       74000000   -5,911672115e-01   -1,770428568e-01
       74075000   -5,911787152e-01   -1,762751192e-01
       74150000   -5,913795233e-01   -1,738218218e-01
       74225000   -5,916541815e-01   -1,722072661e-01
       74300000   -5,902492404e-01   -1,697351784e-01
       74375000   -5,900599360e-01   -1,672500819e-01
       74450000   -5,898658037e-01   -1,646354645e-01
       74525000   -5,901768208e-01   -1,645071656e-01
       74600000   -5,890620947e-01   -1,602777094e-01
       74675000   -5,889486074e-01   -1,597289294e-01
       74750000   -5,892723799e-01   -1,571054608e-01
       74825000   -5,873053074e-01   -1,549153775e-01
       74900000   -5,880491138e-01   -1,533171237e-01
       74975000   -5,874237418e-01   -1,508732736e-01
       75050000   -5,865292549e-01   -1,487669498e-01
       75125000   -5,865256786e-01   -1,457707733e-01
       75200000   -5,860282779e-01   -1,451336443e-01
       75275000   -5,855525732e-01   -1,425439566e-01
       75350000   -5,850018263e-01   -1,410807520e-01
       75425000   -5,853020549e-01   -1,392848343e-01
       75500000   -5,836979151e-01   -1,366153806e-01
       75575000   -5,843511224e-01   -1,353573352e-01
       75650000   -5,833670497e-01   -1,326700747e-01
       75725000   -5,825442672e-01   -1,301665008e-01
       75800000   -5,819047093e-01   -1,283045411e-01
       75875000   -5,825501680e-01   -1,264045984e-01
       75950000   -5,818524361e-01   -1,252950579e-01
       76025000   -5,808471441e-01   -1,232236847e-01
       76100000   -5,815700293e-01   -1,212824360e-01
       76175000   -5,803433657e-01   -1,192550287e-01
       76250000   -5,801970363e-01   -1,164888069e-01
       76325000   -5,799456239e-01   -1,150427163e-01
       76400000   -5,797591805e-01   -1,133184955e-01
       76475000   -5,792203546e-01   -1,109683141e-01
       76550000   -5,785445571e-01   -1,095868722e-01
       76625000   -5,779722929e-01   -1,072607487e-01
       76700000   -5,780827403e-01   -1,061821803e-01
       76775000   -5,772221684e-01   -1,030918062e-01
       76850000   -5,760832429e-01   -1,019265726e-01
       76925000   -5,765957832e-01   -1,001619771e-01
       77000000   -5,755217671e-01   -9,775913507e-02
       77075000   -5,742809176e-01   -9,568510950e-02
       77150000   -5,754386783e-01   -9,494780749e-02
       77225000   -5,749331117e-01   -9,311763942e-02
       77300000   -5,748779178e-01   -9,033115953e-02
       77375000   -5,738502145e-01   -8,980885148e-02
       77450000   -5,742853284e-01   -8,710511774e-02
       77525000   -5,738506913e-01   -8,520094305e-02
       77600000   -5,731571913e-01   -8,487965167e-02
       77675000   -5,737308860e-01   -8,318610489e-02
       77750000   -5,725269318e-01   -8,074066043e-02
       77825000   -5,729334950e-01   -7,971261442e-02
       77900000   -5,745192170e-01   -7,825914025e-02
       77975000   -5,731949806e-01   -7,590696961e-02
       78050000   -5,741693377e-01   -7,519139349e-02
       78125000   -5,752118230e-01   -7,380595803e-02
       78200000   -5,754668713e-01   -7,224345952e-02
       78275000   -5,756716132e-01   -6,988531351e-02
       78350000   -5,779265761e-01   -6,794256717e-02
       78425000   -5,787738562e-01   -6,529243290e-02
       78500000   -5,788426995e-01   -6,134874374e-02
       78575000   -5,791037679e-01   -5,978666246e-02
       78650000   -5,799196959e-01   -5,552937463e-02
       78725000   -5,792450309e-01   -5,251916498e-02
       78800000   -5,785477757e-01   -5,123652518e-02
       78875000   -5,797842741e-01   -4,831630364e-02
       78950000   -5,786287785e-01   -4,654426873e-02
       79025000   -5,796360373e-01   -4,347650707e-02
       79100000   -5,790086389e-01   -4,127253965e-02
       79175000   -5,804648399e-01   -3,873939812e-02
       79250000   -5,793973207e-01   -3,551141173e-02
       79325000   -5,794249177e-01   -3,301814198e-02
       79400000   -5,808287263e-01   -3,082948923e-02
       79475000   -5,796702504e-01   -2,758512832e-02
       79550000   -5,806388259e-01   -2,471029572e-02
       79625000   -5,804780722e-01   -2,176525816e-02
       79700000   -5,802511573e-01   -1,927920990e-02
       79775000   -5,811927915e-01   -1,622482762e-02
       79850000   -5,805214643e-01   -1,317362487e-02
       79925000   -5,804931521e-01   -1,097747311e-02
       80000000   -5,823057890e-01   -7,647441700e-03
       80075000   -5,809806585e-01   -4,075500183e-03
       80150000   -5,823063850e-01   -2,120596590e-03
       80225000   -5,813481212e-01    1,510792994e-03
       80300000   -5,811822414e-01    5,268462002e-03
       80375000   -5,816299319e-01    7,996776141e-03
       80450000   -5,810638070e-01    1,244747825e-02
       80525000   -5,798376203e-01    1,499876939e-02
       80600000   -5,811772943e-01    1,826668344e-02
       80675000   -5,798152089e-01    2,156255208e-02
       80750000   -5,808438659e-01    2,569726855e-02
       80825000   -5,800439119e-01    2,988242917e-02
       80900000   -5,793194771e-01    3,248281404e-02
       80975000   -5,793308020e-01    3,648081049e-02
       81050000   -5,785976648e-01    4,004599899e-02
       81125000   -5,782701969e-01    4,304486513e-02
       81200000   -5,771734118e-01    4,777485505e-02
       81275000   -5,764390826e-01    5,109648779e-02
       81350000   -5,762385130e-01    5,466878414e-02
       81425000   -5,747023225e-01    5,873844400e-02
       81500000   -5,748984218e-01    6,273995340e-02
       81575000   -5,736293197e-01    6,572412699e-02
       81650000   -5,733935833e-01    6,921581179e-02
       81725000   -5,728161335e-01    7,264295220e-02
       81800000   -5,719296336e-01    7,763590664e-02
       81875000   -5,697058439e-01    8,172015846e-02
       81950000   -5,692681074e-01    8,521779627e-02
       82025000   -5,677071214e-01    8,841309696e-02
       82100000   -5,677564740e-01    9,318211675e-02
       82175000   -5,650976896e-01    9,736267477e-02
       82250000   -5,649083853e-01    1,014105082e-01
       82325000   -5,633548498e-01    1,051307395e-01
       82400000   -5,619813204e-01    1,086049005e-01
       82475000   -5,608600974e-01    1,135691628e-01
       82550000   -5,593041778e-01    1,170270368e-01
       82625000   -5,578083396e-01    1,213587001e-01
       82700000   -5,559813976e-01    1,247979105e-01
       82775000   -5,534361005e-01    1,299223006e-01
       82850000   -5,527969003e-01    1,327948719e-01
       82925000   -5,505955815e-01    1,377997100e-01
       83000000   -5,491434932e-01    1,409833431e-01
       83075000   -5,467144251e-01    1,455746293e-01
       83150000   -5,452173352e-01    1,489329189e-01
       83225000   -5,438427329e-01    1,539451480e-01
       83300000   -5,407934785e-01    1,577545255e-01
       83375000   -5,390379429e-01    1,619870365e-01
       83450000   -5,374616385e-01    1,665292084e-01
       83525000   -5,345442295e-01    1,699316949e-01
       83600000   -5,308740139e-01    1,752505302e-01
       83675000   -5,286470652e-01    1,794055551e-01
       83750000   -5,272417665e-01    1,827599406e-01
       83825000   -5,241503716e-01    1,868904531e-01
       83900000   -5,209786296e-01    1,900320500e-01
       83975000   -5,171057582e-01    1,949402690e-01
       84050000   -5,140336752e-01    1,984658837e-01
       84125000   -5,125901699e-01    2,027567476e-01
       84200000   -5,086017847e-01    2,061631680e-01
       84275000   -5,059930086e-01    2,097124904e-01
       84350000   -5,023944974e-01    2,146482915e-01
       84425000   -4,978019893e-01    2,179697603e-01
       84500000   -4,969409704e-01    2,212824672e-01
       84575000   -4,930925369e-01    2,264527977e-01
       84650000   -4,898897409e-01    2,282980233e-01
       84725000   -4,854352772e-01    2,335193455e-01
       84800000   -4,804016948e-01    2,370098531e-01
       84875000   -4,786948860e-01    2,404725701e-01
       84950000   -4,742021859e-01    2,443545759e-01
       85025000   -4,697151780e-01    2,477929294e-01
       85100000   -4,662726223e-01    2,504999042e-01
       85175000   -4,620241225e-01    2,536940575e-01
       85250000   -4,577886760e-01    2,562981248e-01
       85325000   -4,535015821e-01    2,611083686e-01
       85400000   -4,478498399e-01    2,636441588e-01
       85475000   -4,443618655e-01    2,669238448e-01
       85550000   -4,390462041e-01    2,699362934e-01
       85625000   -4,348658025e-01    2,720016539e-01
       85700000   -4,291829765e-01    2,746066451e-01
       85775000   -4,263647497e-01    2,779527009e-01
       85850000   -4,200347662e-01    2,800872922e-01
       85925000   -4,162440002e-01    2,824631631e-01
       86000000   -4,110914171e-01    2,840287089e-01
       86075000   -4,065668881e-01    2,856041789e-01
       86150000   -4,001758397e-01    2,892111242e-01
       86225000   -3,953668475e-01    2,901336253e-01
       86300000   -3,913507164e-01    2,917796969e-01
       86375000   -3,870488405e-01    2,938700318e-01
       86450000   -3,816753626e-01    2,953075469e-01
       86525000   -3,756543100e-01    2,967168093e-01
       86600000   -3,723477125e-01    2,977757454e-01
       86675000   -3,661508858e-01    2,992563546e-01
       86750000   -3,608732522e-01    2,992799580e-01
       86825000   -3,575631976e-01    3,004016280e-01
       86900000   -3,505074680e-01    3,013261557e-01
       86975000   -3,464754820e-01    3,016171753e-01
       87050000   -3,415318429e-01    3,025876880e-01
       87125000   -3,358213007e-01    3,026304841e-01
       87200000   -3,328416348e-01    3,025801778e-01
       87275000   -3,283934295e-01    3,035369813e-01
       87350000   -3,229348361e-01    3,026210368e-01
       87425000   -3,193692267e-01    3,030148745e-01
       87500000   -3,157908916e-01    3,036540151e-01
       87575000   -3,111937344e-01    3,034564257e-01
       87650000   -3,059375286e-01    3,031744361e-01
       87725000   -3,026523292e-01    3,039597273e-01
       87800000   -2,981441319e-01    3,035165966e-01
       87875000   -2,949258983e-01    3,033883572e-01
       87950000   -2,893888354e-01    3,031249344e-01
       88025000   -2,860511243e-01    3,022641838e-01
       88100000   -2,818936408e-01    3,017318249e-01
       88175000   -2,784819305e-01    3,032762110e-01
       88250000   -2,743780911e-01    3,016192913e-01
       88325000   -2,692262232e-01    3,012491465e-01
       88400000   -2,648727000e-01    3,004088104e-01
       88475000   -2,616955042e-01    2,996138632e-01
       88550000   -2,585468888e-01    2,994274199e-01
       88625000   -2,549835443e-01    2,964096367e-01
       88700000   -2,506175935e-01    2,968034148e-01
       88775000   -2,466746569e-01    2,944492400e-01
       88850000   -2,446770519e-01    2,934945226e-01
       88925000   -2,407229394e-01    2,907149792e-01
       89000000   -2,357662469e-01    2,893950641e-01
       89075000   -2,320684493e-01    2,882207334e-01
       89150000   -2,298372984e-01    2,860529721e-01
       89225000   -2,277463078e-01    2,846084237e-01
       89300000   -2,256715894e-01    2,828817070e-01
       89375000   -2,231897414e-01    2,805809379e-01
       89450000   -2,211865783e-01    2,781277001e-01
       89525000   -2,194314450e-01    2,745827436e-01
       89600000   -2,183626890e-01    2,725637257e-01
       89675000   -2,177306414e-01    2,706903219e-01
       89750000   -2,163889557e-01    2,680651546e-01
       89825000   -2,166730911e-01    2,668312490e-01
       89900000   -2,165699899e-01    2,647581697e-01
       89975000   -2,160450816e-01    2,635481656e-01
       90050000   -2,165363282e-01    2,617958188e-01
       90125000   -2,162642777e-01    2,607204020e-01
       90200000   -2,163994908e-01    2,594976127e-01
       90275000   -2,182838172e-01    2,589971423e-01
       90350000   -2,200855315e-01    2,583568692e-01
       90425000   -2,198214382e-01    2,592024207e-01
       90500000   -2,207406759e-01    2,589100599e-01
       90575000   -2,231278121e-01    2,597302496e-01
       90650000   -2,237218916e-01    2,611307502e-01
       90725000   -2,250114232e-01    2,630407810e-01
       90800000   -2,266154736e-01    2,651857734e-01
       90875000   -2,279974222e-01    2,661120296e-01
       90950000   -2,285352051e-01    2,684309185e-01
       91025000   -2,290035039e-01    2,715421915e-01
       91100000   -2,298299223e-01    2,741752565e-01
       91175000   -2,289058119e-01    2,773913443e-01
       91250000   -2,290288359e-01    2,813878953e-01
       91325000   -2,290070504e-01    2,847619951e-01
       91400000   -2,281492203e-01    2,898120284e-01
       91475000   -2,280274034e-01    2,941803634e-01
       91550000   -2,277389616e-01    2,979702353e-01
       91625000   -2,272866815e-01    3,017989695e-01
       91700000   -2,243731767e-01    3,062272072e-01
       91775000   -2,224460244e-01    3,092385828e-01
       91850000   -2,207939774e-01    3,146341741e-01
       91925000   -2,174408287e-01    3,184891045e-01
