! NanoVNA-App
! Date: 2025-08-02 16:12:48
! Start: 65MHz Stop: 95MHz Points: 401
! S-Parameter data: F S11
# Hz S RI R 50
!     Frequency           S11_Real           S11_Imag
       65000000   -5,885956287e-01   -5,828806758e-01
       65075000   -5,898277760e-01   -5,835530162e-01
       65150000   -5,922089219e-01   -5,797712803e-01
       65225000   -5,928275585e-01   -5,764918327e-01
       65300000   -5,938655734e-01   -5,723832846e-01
       65375000   -5,946435332e-01   -5,668983459e-01
       65450000   -5,955787301e-01   -5,640398264e-01
       65525000   -5,964626074e-01   -5,599362254e-01
       65600000   -5,966916084e-01   -5,545087457e-01
       65675000   -5,977191925e-01   -5,517054796e-01
       65750000   -5,990589857e-01   -5,473290682e-01
       65825000   -5,992956758e-01   -5,456760526e-01
       65900000   -6,006767154e-01   -5,412437320e-01
       65975000   -6,000020504e-01   -5,377680659e-01
       66050000   -6,014927030e-01   -5,336455107e-01
       66125000   -6,007093787e-01   -5,285742283e-01
       66200000   -6,022568345e-01   -5,269516110e-01
       66275000   -6,019510627e-01   -5,232949853e-01
       66350000   -6,031265855e-01   -5,191766620e-01
       66425000   -6,030811071e-01   -5,159395337e-01
       66500000   -6,045334339e-01   -5,126742721e-01
       66575000   -6,030024886e-01   -5,085486174e-01
       66650000   -6,042526960e-01   -5,057364106e-01
       66725000   -6,038635373e-01   -5,011843443e-01
       66800000   -6,041939855e-01   -4,984529316e-01
       66875000   -6,045659184e-01   -4,944411516e-01
       66950000   -6,043016315e-01   -4,917315245e-01
       67025000   -6,047186852e-01   -4,879642725e-01
       67100000   -6,052462459e-01   -4,834397137e-01
       67175000   -6,054186225e-01   -4,810251594e-01
       67250000   -6,056303382e-01   -4,777881503e-01
       67325000   -6,062582731e-01   -4,742546082e-01
       67400000   -6,053981781e-01   -4,700501263e-01
       67475000   -6,053324342e-01   -4,669941068e-01
       67550000   -6,052507162e-01   -4,627660811e-01
       67625000   -6,036775708e-01   -4,597290158e-01
       67700000   -6,049065590e-01   -4,560418725e-01
       67775000   -6,034147739e-01   -4,514805079e-01
       67850000   -6,031352282e-01   -4,502047598e-01
       67925000   -6,037624478e-01   -4,448489547e-01
       68000000   -6,016047001e-01   -4,424593151e-01
       68075000   -6,015983820e-01   -4,397184253e-01
       68150000   -5,993056297e-01   -4,366831183e-01
       68225000   -5,989726782e-01   -4,336374104e-01
       68300000   -5,986720920e-01   -4,290040433e-01
       68375000   -5,976626873e-01   -4,269881845e-01
       68450000   -5,992219448e-01   -4,246120751e-01
       68525000   -5,965746641e-01   -4,217503071e-01
       68600000   -5,972904563e-01   -4,188172817e-01
       68675000   -5,949394703e-01   -4,157099128e-01
       68750000   -5,950859189e-01   -4,146448970e-01
       68825000   -5,929616094e-01   -4,101564884e-01
       68900000   -5,926544666e-01   -4,082163274e-01
       68975000   -5,916000009e-01   -4,050270319e-01
       69050000   -5,913043022e-01   -4,035004079e-01
       69125000   -5,904278159e-01   -4,000193179e-01
       69200000   -5,888588428e-01   -3,983998299e-01
       69275000   -5,885119438e-01   -3,941929042e-01
       69350000   -5,874141455e-01   -3,942776322e-01
       69425000   -5,865311027e-01   -3,907126188e-01
       69500000   -5,861598849e-01   -3,896313906e-01
       69575000   -5,853301287e-01   -3,853585720e-01
       69650000   -5,841819644e-01   -3,855153620e-01
       69725000   -5,841040015e-01   -3,816200197e-01
       69800000   -5,830307007e-01   -3,811966777e-01
       69875000   -5,828006864e-01   -3,789058030e-01
       69950000   -5,811713934e-01   -3,776371479e-01
       70025000   -5,813163519e-01   -3,758976460e-01
       70100000   -5,811297297e-01   -3,737209737e-01
       70175000   -5,796113014e-01   -3,705956638e-01
       70250000   -5,797603726e-01   -3,702113628e-01
       70325000   -5,808469653e-01   -3,677377999e-01
       70400000   -5,792829394e-01   -3,666379452e-01
       70475000   -5,792020559e-01   -3,656478822e-01
       70550000   -5,778375268e-01   -3,623648286e-01
       70625000   -5,774200559e-01   -3,611038029e-01
       70700000   -5,779671669e-01   -3,594534993e-01
       70775000   -5,766486526e-01   -3,570670485e-01
       70850000   -5,774275064e-01   -3,559308052e-01
       70925000   -5,773953795e-01   -3,517334461e-01
       71000000   -5,762771368e-01   -3,506161571e-01
       71075000   -5,770080686e-01   -3,500242829e-01
       71150000   -5,758408904e-01   -3,466852009e-01
       71225000   -5,748289824e-01   -3,452268839e-01
       71300000   -5,743185282e-01   -3,431432247e-01
       71375000   -5,742892027e-01   -3,409805000e-01
       71450000   -5,737836361e-01   -3,395506442e-01
       71525000   -5,741474628e-01   -3,387027681e-01
       71600000   -5,733968616e-01   -3,361531496e-01
       71675000   -5,736190081e-01   -3,331539035e-01
       71750000   -5,719223619e-01   -3,327818811e-01
       71825000   -5,728553534e-01   -3,302035034e-01
       71900000   -5,714778304e-01   -3,282708228e-01
       71975000   -5,701406002e-01   -3,268524408e-01
       72050000   -5,709856749e-01   -3,258889019e-01
       72125000   -5,689005852e-01   -3,218702376e-01
       72200000   -5,687986612e-01   -3,220212460e-01
       72275000   -5,689203739e-01   -3,182865977e-01
       72350000   -5,674366355e-01   -3,187427223e-01
       72425000   -5,686169267e-01   -3,155857921e-01
       72500000   -5,672097206e-01   -3,142427504e-01
       72575000   -5,675163269e-01   -3,141743839e-01
       72650000   -5,655010343e-01   -3,128083050e-01
       72725000   -5,655082464e-01   -3,104600310e-01
       72800000   -5,662518740e-01   -3,090519607e-01
       72875000   -5,644836426e-01   -3,083555400e-01
       72950000   -5,660403967e-01   -3,062527478e-01
       73025000   -5,653563142e-01   -3,046571016e-01
       73100000   -5,640950799e-01   -3,039059341e-01
       73175000   -5,640943050e-01   -3,027921617e-01
       73250000   -5,650028586e-01   -3,026770353e-01
       73325000   -5,646274090e-01   -3,003092408e-01
       73400000   -5,630396605e-01   -2,994599938e-01
       73475000   -5,644255877e-01   -2,981501520e-01
       73550000   -5,636392236e-01   -2,971338630e-01
       73625000   -5,635468364e-01   -2,953889072e-01
       73700000   -5,630528331e-01   -2,936732173e-01
       73775000   -5,639706850e-01   -2,929080129e-01
       73850000   -5,634227395e-01   -2,904968262e-01
       73925000   -5,633512735e-01   -2,904695272e-01
       74000000   -5,651062727e-01   -2,885609865e-01
       74075000   -5,631638765e-01   -2,874407470e-01
       74150000   -5,643120408e-01   -2,864151597e-01
       74225000   -5,647611022e-01   -2,844072580e-01
       74300000   -5,643326640e-01   -2,827314138e-01
       74375000   -5,646026134e-01   -2,820813954e-01
       74450000   -5,659229755e-01   -2,805357575e-01
       74525000   -5,642746091e-01   -2,798435986e-01
       74600000   -5,652894378e-01   -2,779002488e-01
       74675000   -5,657653809e-01   -2,758441567e-01
       74750000   -5,653705001e-01   -2,754234076e-01
       74825000   -5,670983791e-01   -2,732313573e-01
       74900000   -5,668100119e-01   -2,715378404e-01
       74975000   -5,674439073e-01   -2,720014453e-01
       75050000   -5,666202307e-01   -2,696384192e-01
       75125000   -5,676413178e-01   -2,672218680e-01
       75200000   -5,675356984e-01   -2,668680549e-01
       75275000   -5,688564181e-01   -2,654212713e-01
       75350000   -5,682348609e-01   -2,633042336e-01
       75425000   -5,690282583e-01   -2,620932758e-01
       75500000   -5,693895221e-01   -2,586674392e-01
       75575000   -5,692290068e-01   -2,586207986e-01
       75650000   -5,699763894e-01   -2,559769750e-01
       75725000   -5,703064203e-01   -2,560837865e-01
       75800000   -5,707570314e-01   -2,528581023e-01
       75875000   -5,707308650e-01   -2,526803315e-01
       75950000   -5,720704794e-01   -2,494899929e-01
       76025000   -5,719112158e-01   -2,487121522e-01
       76100000   -5,725960732e-01   -2,479448617e-01
       76175000   -5,733418465e-01   -2,460245639e-01
       76250000   -5,730497241e-01   -2,437691092e-01
       76325000   -5,743215680e-01   -2,422343493e-01
       76400000   -5,739710331e-01   -2,419990003e-01
       76475000   -5,753726363e-01   -2,411051244e-01
       76550000   -5,765825510e-01   -2,390234470e-01
       76625000   -5,765935779e-01   -2,370821089e-01
       76700000   -5,777773857e-01   -2,357014567e-01
       76775000   -5,779929757e-01   -2,333845198e-01
       76850000   -5,777006149e-01   -2,321937233e-01
       76925000   -5,787059069e-01   -2,306574583e-01
       77000000   -5,791479945e-01   -2,281361073e-01
       77075000   -5,800458789e-01   -2,261842191e-01
       77150000   -5,811523199e-01   -2,260831445e-01
       77225000   -5,813405514e-01   -2,233440727e-01
       77300000   -5,838038921e-01   -2,212173194e-01
       77375000   -5,844243169e-01   -2,199779898e-01
       77450000   -5,851696134e-01   -2,191614807e-01
       77525000   -5,870156884e-01   -2,156148404e-01
       77600000   -5,871856213e-01   -2,137044668e-01
       77675000   -5,878950953e-01   -2,122542858e-01
       77750000   -5,885580778e-01   -2,082515359e-01
       77825000   -5,901976228e-01   -2,072940022e-01
       77900000   -5,905007720e-01   -2,056510746e-01
       77975000   -5,920998454e-01   -2,014230043e-01
       78050000   -5,926647782e-01   -1,997449994e-01
       78125000   -5,939282775e-01   -1,983334869e-01
       78200000   -5,941146016e-01   -1,947080493e-01
       78275000   -5,954217315e-01   -1,922987998e-01
       78350000   -5,965879560e-01   -1,903766841e-01
       78425000   -5,974949598e-01   -1,877039671e-01
       78500000   -5,978416204e-01   -1,834372580e-01
       78575000   -5,991052985e-01   -1,811734587e-01
       78650000   -6,013992429e-01   -1,786402762e-01
       78725000   -6,006167531e-01   -1,753496379e-01
       78800000   -6,021479964e-01   -1,732733101e-01
       78875000   -6,033970714e-01   -1,696134657e-01
       78950000   -6,032547951e-01   -1,682106555e-01
       79025000   -6,041769981e-01   -1,637892723e-01
       79100000   -6,040318608e-01   -1,609523743e-01
       79175000   -6,054669023e-01   -1,585454494e-01
       79250000   -6,053394675e-01   -1,535600573e-01
       79325000   -6,063323617e-01   -1,506397724e-01
       79400000   -6,069656610e-01   -1,477726549e-01
       79475000   -6,064993143e-01   -1,448666006e-01
       79550000   -6,073036790e-01   -1,415443867e-01
       79625000   -6,068149805e-01   -1,371947527e-01
       79700000   -6,067438722e-01   -1,348280460e-01
       79775000   -6,082878709e-01   -1,309774518e-01
       79850000   -6,066774130e-01   -1,275082976e-01
       79925000   -6,073449254e-01   -1,251796782e-01
       80000000   -6,077783108e-01   -1,223226935e-01
       80075000   -6,071623564e-01   -1,166427433e-01
       80150000   -6,072856784e-01   -1,141341180e-01
       80225000   -6,074239612e-01   -1,102806777e-01
       80300000   -6,060928702e-01   -1,066556796e-01
       80375000   -6,061279774e-01   -1,032423005e-01
       80450000   -6,061572433e-01   -9,929797053e-02
       80525000   -6,048867106e-01   -9,635557234e-02
       80600000   -6,055101752e-01   -9,278896451e-02
       80675000   -6,040478349e-01   -8,995734155e-02
       80750000   -6,035291553e-01   -8,595979214e-02
       80825000   -6,029915214e-01   -8,146426827e-02
       80900000   -6,016051769e-01   -7,859931886e-02
       80975000   -6,017456651e-01   -7,548797131e-02
       81050000   -6,013339758e-01   -7,159739733e-02
       81125000   -5,995563269e-01   -6,855943799e-02
       81200000   -5,988339186e-01   -6,467754394e-02
       81275000   -5,980135202e-01   -6,194327772e-02
       81350000   -5,971629620e-01   -5,862913653e-02
       81425000   -5,949183106e-01   -5,583302677e-02
       81500000   -5,945342779e-01   -5,214929581e-02
       81575000   -5,924267769e-01   -4,986818880e-02
       81650000   -5,923017859e-01   -4,710100964e-02
       81725000   -5,911114216e-01   -4,347577691e-02
       81800000   -5,894020200e-01   -4,009045288e-02
       81875000   -5,879091620e-01   -3,794572502e-02
       81950000   -5,867419839e-01   -3,436383978e-02
       82025000   -5,850549340e-01   -3,263437003e-02
       82100000   -5,845057368e-01   -3,053857386e-02
       82175000   -5,826076865e-01   -2,735136449e-02
       82250000   -5,815165043e-01   -2,473116107e-02
       82325000   -5,799292326e-01   -2,242817543e-02
       82400000   -5,792994499e-01   -1,966901496e-02
       82475000   -5,780931115e-01   -1,656215638e-02
       82550000   -5,772816539e-01   -1,516923122e-02
       82625000   -5,764633417e-01   -1,106077433e-02
       82700000   -5,749173760e-01   -1,010499150e-02
       82775000   -5,738543272e-01   -7,058634423e-03
       82850000   -5,723091960e-01   -5,397602450e-03
       82925000   -5,727566481e-01   -2,028258517e-03
       83000000   -5,709770918e-01   -4,513543390e-04
       83075000   -5,707901120e-01    2,275210805e-03
       83150000   -5,686908364e-01    4,063164350e-03
       83225000   -5,687364936e-01    7,336753421e-03
       83300000   -5,671958923e-01    9,416850284e-03
       83375000   -5,674692988e-01    1,206321176e-02
       83450000   -5,663187504e-01    1,553989202e-02
       83525000   -5,652859807e-01    1,720886678e-02
       83600000   -5,640839934e-01    2,035530657e-02
       83675000   -5,635478497e-01    2,187663317e-02
       83750000   -5,629610419e-01    2,509559505e-02
       83825000   -5,619089603e-01    2,818622440e-02
       83900000   -5,619328618e-01    3,048161604e-02
       83975000   -5,612330437e-01    3,383328393e-02
       84050000   -5,599760413e-01    3,499839082e-02
       84125000   -5,593354106e-01    3,911506385e-02
       84200000   -5,572704077e-01    4,192119837e-02
       84275000   -5,579576492e-01    4,460195452e-02
       84350000   -5,574867129e-01    4,833157733e-02
       84425000   -5,557369590e-01    4,994150251e-02
       84500000   -5,555990934e-01    5,320315436e-02
       84575000   -5,540667772e-01    5,608823523e-02
       84650000   -5,551950932e-01    5,893201381e-02
       84725000   -5,540147424e-01    6,157207489e-02
       84800000   -5,530983210e-01    6,411646307e-02
       84875000   -5,521729589e-01    6,801699102e-02
       84950000   -5,502049923e-01    7,097119838e-02
       85025000   -5,493723154e-01    7,351832837e-02
       85100000   -5,491478443e-01    7,739058137e-02
       85175000   -5,482872128e-01    8,020552248e-02
       85250000   -5,481479764e-01    8,400879800e-02
       85325000   -5,465067625e-01    8,689419180e-02
       85400000   -5,450941324e-01    8,932603151e-02
       85475000   -5,450075269e-01    9,403412789e-02
       85550000   -5,439738035e-01    9,667842090e-02
       85625000   -5,419901609e-01    1,006871238e-01
       85700000   -5,420126319e-01    1,041770875e-01
       85775000   -5,406519175e-01    1,074865162e-01
       85850000   -5,395413041e-01    1,119336039e-01
       85925000   -5,366774797e-01    1,146402359e-01
       86000000   -5,360469818e-01    1,183508039e-01
       86075000   -5,340589285e-01    1,226429418e-01
       86150000   -5,331436396e-01    1,248475239e-01
       86225000   -5,315142870e-01    1,302122772e-01
       86300000   -5,295968056e-01    1,330718994e-01
       86375000   -5,277802944e-01    1,377660632e-01
       86450000   -5,249156356e-01    1,407012939e-01
       86525000   -5,247270465e-01    1,455647647e-01
       86600000   -5,221609473e-01    1,496043354e-01
       86675000   -5,194378495e-01    1,526106298e-01
       86750000   -5,181803703e-01    1,571954340e-01
       86825000   -5,157150030e-01    1,612417996e-01
       86900000   -5,137798786e-01    1,651266813e-01
       86975000   -5,119332075e-01    1,688210666e-01
       87050000   -5,081769824e-01    1,717028171e-01
       87125000   -5,067867041e-01    1,767193228e-01
       87200000   -5,039262772e-01    1,802072823e-01
       87275000   -5,018728971e-01    1,825661659e-01
       87350000   -4,991385937e-01    1,884029955e-01
       87425000   -4,962202013e-01    1,916089207e-01
       87500000   -4,956057668e-01    1,952589452e-01
       87575000   -4,922134578e-01    1,989346147e-01
       87650000   -4,891025126e-01    2,020149827e-01
       87725000   -4,843901098e-01    2,046425939e-01
       87800000   -4,823854864e-01    2,078672945e-01
       87875000   -4,788179994e-01    2,127487063e-01
       87950000   -4,764768481e-01    2,157149315e-01
       88025000   -4,736096561e-01    2,211986631e-01
       88100000   -4,708213210e-01    2,237287909e-01
       88175000   -4,665781558e-01    2,262045145e-01
       88250000   -4,631208777e-01    2,297194451e-01
       88325000   -4,620330036e-01    2,344931215e-01
       88400000   -4,574581981e-01    2,374651581e-01
       88475000   -4,557838738e-01    2,403152734e-01
       88550000   -4,513398409e-01    2,433189005e-01
       88625000   -4,467672706e-01    2,471909523e-01
       88700000   -4,440486431e-01    2,496023327e-01
       88775000   -4,415062964e-01    2,544879913e-01
       88850000   -4,366250336e-01    2,567770481e-01
       88925000   -4,326057136e-01    2,613595426e-01
       89000000   -4,293165803e-01    2,649886906e-01
       89075000   -4,259978235e-01    2,678181231e-01
       89150000   -4,229936600e-01    2,718013525e-01
       89225000   -4,204548597e-01    2,744578123e-01
       89300000   -4,162772298e-01    2,779124379e-01
       89375000   -4,112249315e-01    2,809405029e-01
       89450000   -4,076142609e-01    2,843748331e-01
       89525000   -4,019348919e-01    2,884846628e-01
       89600000   -3,976952732e-01    2,912055254e-01
       89675000   -3,940866590e-01    2,940695286e-01
       89750000   -3,894979358e-01    2,978983819e-01
       89825000   -3,856513202e-01    3,000580668e-01
       89900000   -3,804660141e-01    3,028342426e-01
       89975000   -3,754726648e-01    3,065034747e-01
       90050000   -3,700822294e-01    3,097375035e-01
       90125000   -3,646464944e-01    3,148718476e-01
       90200000   -3,602305353e-01    3,169016838e-01
       90275000   -3,557268083e-01    3,188177645e-01
       90350000   -3,457425237e-01    3,252025545e-01
       90425000   -3,435895145e-01    3,226000667e-01
       90500000   -3,392233253e-01    3,287204206e-01
       90575000   -3,352237940e-01    3,305256069e-01
       90650000   -3,292436004e-01    3,338357806e-01
       90725000   -3,246198893e-01    3,360951245e-01
       90800000   -3,185237646e-01    3,384372890e-01
       90875000   -3,122768998e-01    3,400606215e-01
       90950000   -3,059447408e-01    3,433835208e-01
       91025000   -2,996274233e-01    3,448585570e-01
       91100000   -2,931562364e-01    3,475058973e-01
       91175000   -2,870841324e-01    3,502502143e-01
       91250000   -2,805442214e-01    3,519486189e-01
       91325000   -2,736769021e-01    3,536037207e-01
       91400000   -2,686920166e-01    3,554405868e-01
       91475000   -2,614137530e-01    3,560488820e-01
       91550000   -2,559088469e-01    3,574105799e-01
       91625000   -2,499076575e-01    3,580529690e-01
       91700000   -2,426491678e-01    3,603000045e-01
       91775000   -2,359019518e-01    3,611181974e-01
       91850000   -2,291478068e-01    3,620921373e-01
       91925000   -2,215385884e-01    3,619533777e-01
