! NanoVNA-App
! Date: 2025-08-09 13:51:33
! Start: 65MHz Stop: 95MHz Points: 401
! S-Parameter data: F S11
# Hz S RI R 50
!     Frequency           S11_Real           S11_Imag
       65000000    7,628929615e-01    5,812983029e-03
       65075000    7,684492469e-01    5,408321042e-03
       65150000    7,663840055e-01    2,741561271e-03
       65225000    7,668750286e-01   -5,135939573e-04
       65300000    7,650888562e-01   -4,915155470e-03
       65375000    7,648124695e-01   -6,818260998e-03
       65450000    7,638047338e-01   -9,612173773e-03
       65525000    7,620033026e-01   -1,392280590e-02
       65600000    7,621687651e-01   -1,590093784e-02
       65675000    7,606981993e-01   -1,887013949e-02
       65750000    7,603925467e-01   -2,204188518e-02
       65825000    7,580319047e-01   -2,759689651e-02
       65900000    7,588223219e-01   -2,871994488e-02
       65975000    7,567266226e-01   -3,297418728e-02
       66050000    7,559204102e-01   -3,596528247e-02
       66125000    7,547281384e-01   -3,735053539e-02
       66200000    7,539368868e-01   -4,208219796e-02
       66275000    7,526021600e-01   -4,402813315e-02
       66350000    7,516188025e-01   -4,630896449e-02
       66425000    7,516306639e-01   -5,151000246e-02
       66500000    7,510008216e-01   -5,293004587e-02
       66575000    7,493065596e-01   -5,706983432e-02
       66650000    7,473550439e-01   -6,066652760e-02
       66725000    7,478883862e-01   -6,153514236e-02
       66800000    7,465438843e-01   -6,506045908e-02
       66875000    7,452708483e-01   -6,783661246e-02
       66950000    7,448359132e-01   -7,031204551e-02
       67025000    7,430158854e-01   -7,435143739e-02
       67100000    7,433289886e-01   -7,693623006e-02
       67175000    7,416341901e-01   -8,183778077e-02
       67250000    7,413218617e-01   -8,363457769e-02
       67325000    7,412679195e-01   -8,661990613e-02
       67400000    7,395116091e-01   -8,997607231e-02
       67475000    7,381914258e-01   -9,173732996e-02
       67550000    7,381546497e-01   -9,562250227e-02
       67625000    7,368721366e-01   -9,922987968e-02
       67700000    7,362638116e-01   -1,017589718e-01
       67775000    7,342940569e-01   -1,057616696e-01
       67850000    7,357802987e-01   -1,086377203e-01
       67925000    7,336158156e-01   -1,108681187e-01
       68000000    7,329343557e-01   -1,150816306e-01
       68075000    7,296680212e-01   -1,171433777e-01
       68150000    7,294822931e-01   -1,197256073e-01
       68225000    7,274996638e-01   -1,243583411e-01
       68300000    7,277702689e-01   -1,267025620e-01
       68375000    7,251340747e-01   -1,304742992e-01
       68450000    7,268070579e-01   -1,317832917e-01
       68525000    7,243544459e-01   -1,365535110e-01
       68600000    7,231935263e-01   -1,379494965e-01
       68675000    7,199242711e-01   -1,413790435e-01
       68750000    7,190866470e-01   -1,437001526e-01
       68825000    7,170819044e-01   -1,476873308e-01
       68900000    7,147043347e-01   -1,513683051e-01
       68975000    7,143623829e-01   -1,544476897e-01
       69050000    7,127116323e-01   -1,580056995e-01
       69125000    7,104332447e-01   -1,605847627e-01
       69200000    7,091402411e-01   -1,636978537e-01
       69275000    7,081299424e-01   -1,656239927e-01
       69350000    7,071369290e-01   -1,691224426e-01
       69425000    7,062288523e-01   -1,705164909e-01
       69500000    7,038756609e-01   -1,738955230e-01
       69575000    7,019287348e-01   -1,758515090e-01
       69650000    7,000353336e-01   -1,791019887e-01
       69725000    6,978577971e-01   -1,799799353e-01
       69800000    6,969192028e-01   -1,823792607e-01
       69875000    6,951997876e-01   -1,845927984e-01
       69950000    6,922119260e-01   -1,872107536e-01
       70025000    6,913952827e-01   -1,893563569e-01
       70100000    6,871588230e-01   -1,929021627e-01
       70175000    6,888434291e-01   -1,945552230e-01
       70250000    6,869151592e-01   -1,954367906e-01
       70325000    6,842883229e-01   -1,967343241e-01
       70400000    6,844379902e-01   -1,987284124e-01
       70475000    6,790951490e-01   -2,026250064e-01
       70550000    6,806513667e-01   -2,042143792e-01
       70625000    6,797328591e-01   -2,055637389e-01
       70700000    6,770632267e-01   -2,083891928e-01
       70775000    6,758357286e-01   -2,102108002e-01
       70850000    6,735967398e-01   -2,131841332e-01
       70925000    6,737221479e-01   -2,129319012e-01
       71000000    6,720353961e-01   -2,155082077e-01
       71075000    6,688082218e-01   -2,189592719e-01
       71150000    6,687193513e-01   -2,192761004e-01
       71225000    6,694670320e-01   -2,230591476e-01
       71300000    6,679675579e-01   -2,256239653e-01
       71375000    6,662917733e-01   -2,262001634e-01
       71450000    6,621673107e-01   -2,296895087e-01
       71525000    6,612417698e-01   -2,313778996e-01
       71600000    6,610511541e-01   -2,344731092e-01
       71675000    6,559712887e-01   -2,355094552e-01
       71750000    6,558656693e-01   -2,369820327e-01
       71825000    6,529723406e-01   -2,393656373e-01
       71900000    6,512082815e-01   -2,414553910e-01
       71975000    6,495820880e-01   -2,427252233e-01
       72050000    6,498463154e-01   -2,447478920e-01
       72125000    6,461400390e-01   -2,450069338e-01
       72200000    6,450015306e-01   -2,473910451e-01
       72275000    6,413679719e-01   -2,479632199e-01
       72350000    6,415150762e-01   -2,485167682e-01
       72425000    6,371924281e-01   -2,513104379e-01
       72500000    6,373426914e-01   -2,509768605e-01
       72575000    6,354133487e-01   -2,541529834e-01
       72650000    6,358166933e-01   -2,544144094e-01
       72725000    6,324390769e-01   -2,560165226e-01
       72800000    6,310918927e-01   -2,574419081e-01
       72875000    6,305411458e-01   -2,591637373e-01
       72950000    6,290450096e-01   -2,610582113e-01
       73025000    6,270020604e-01   -2,613877654e-01
       73100000    6,259220839e-01   -2,602927387e-01
       73175000    6,268900037e-01   -2,636017799e-01
       73250000    6,272556782e-01   -2,637738585e-01
       73325000    6,260871887e-01   -2,662870586e-01
       73400000    6,250532866e-01   -2,658879459e-01
       73475000    6,249850988e-01   -2,678515017e-01
       73550000    6,208270192e-01   -2,676683068e-01
       73625000    6,191837788e-01   -2,692946196e-01
       73700000    6,184982061e-01   -2,712785602e-01
       73775000    6,175274849e-01   -2,725918591e-01
       73850000    6,177201867e-01   -2,754866183e-01
       73925000    6,196389198e-01   -2,750740945e-01
       74000000    6,188064218e-01   -2,759500742e-01
       74075000    6,137926579e-01   -2,763185799e-01
       74150000    6,142590046e-01   -2,806962132e-01
       74225000    6,127867103e-01   -2,823700905e-01
       74300000    6,127551794e-01   -2,834893167e-01
       74375000    6,130263209e-01   -2,835577726e-01
       74450000    6,084867120e-01   -2,843244672e-01
       74525000    6,090734601e-01   -2,854962647e-01
       74600000    6,079150438e-01   -2,872569263e-01
       74675000    6,091486216e-01   -2,910600603e-01
       74750000    6,069677472e-01   -2,914813161e-01
       74825000    6,067190766e-01   -2,918280363e-01
       74900000    6,069229245e-01   -2,917510867e-01
       74975000    6,031332016e-01   -2,937906682e-01
       75050000    6,009633541e-01   -2,966605723e-01
       75125000    6,012213826e-01   -2,975905538e-01
       75200000    5,989699960e-01   -2,999972701e-01
       75275000    6,000295877e-01   -3,005570471e-01
       75350000    5,978132486e-01   -3,028474748e-01
       75425000    6,021869183e-01   -3,020307124e-01
       75500000    5,997305512e-01   -3,043811321e-01
       75575000    5,974288583e-01   -3,047294021e-01
       75650000    5,970952511e-01   -3,068992794e-01
       75725000    5,964354873e-01   -3,067953587e-01
       75800000    5,964679718e-01   -3,078401685e-01
       75875000    5,948290825e-01   -3,087233901e-01
       75950000    5,936450362e-01   -3,102482259e-01
       76025000    5,931996703e-01   -3,139608800e-01
       76100000    5,923321843e-01   -3,134382367e-01
       76175000    5,923094153e-01   -3,147875369e-01
       76250000    5,888680220e-01   -3,147169650e-01
       76325000    5,892145038e-01   -3,162994981e-01
       76400000    5,883134604e-01   -3,168776035e-01
       76475000    5,886884928e-01   -3,207143545e-01
       76550000    5,849415064e-01   -3,206492960e-01
       76625000    5,836445093e-01   -3,221555352e-01
       76700000    5,837463140e-01   -3,242256939e-01
       76775000    5,849220753e-01   -3,229201734e-01
       76850000    5,832219720e-01   -3,260796070e-01
       76925000    5,846977830e-01   -3,259249032e-01
       77000000    5,821175575e-01   -3,272692561e-01
       77075000    5,820725560e-01   -3,305272162e-01
       77150000    5,795182586e-01   -3,322985470e-01
       77225000    5,791052580e-01   -3,296768069e-01
       77300000    5,786010027e-01   -3,330439925e-01
       77375000    5,780766010e-01   -3,347851932e-01
       77450000    5,777409673e-01   -3,365446329e-01
       77525000    5,759892464e-01   -3,373913765e-01
       77600000    5,767521262e-01   -3,389788568e-01
       77675000    5,781452656e-01   -3,377300799e-01
       77750000    5,756021738e-01   -3,372673988e-01
       77825000    5,744655132e-01   -3,414660096e-01
       77900000    5,744313598e-01   -3,380938768e-01
       77975000    5,726017356e-01   -3,402470350e-01
       78050000    5,724764466e-01   -3,435117602e-01
       78125000    5,738142133e-01   -3,410747349e-01
       78200000    5,714910626e-01   -3,423044384e-01
       78275000    5,744556785e-01   -3,441873789e-01
       78350000    5,729709864e-01   -3,431539536e-01
       78425000    5,745462775e-01   -3,438690007e-01
       78500000    5,730071664e-01   -3,457431793e-01
       78575000    5,715640187e-01   -3,500495553e-01
       78650000    5,734598637e-01   -3,507452607e-01
       78725000    5,752792358e-01   -3,499121666e-01
       78800000    5,720022321e-01   -3,534778953e-01
       78875000    5,736501217e-01   -3,551180065e-01
       78950000    5,704693198e-01   -3,575157225e-01
       79025000    5,737649202e-01   -3,580282032e-01
       79100000    5,752403736e-01   -3,593388200e-01
       79175000    5,741636753e-01   -3,582029641e-01
       79250000    5,740765333e-01   -3,600085974e-01
       79325000    5,719866753e-01   -3,646284938e-01
       79400000    5,729867816e-01   -3,655068278e-01
       79475000    5,752497911e-01   -3,666289151e-01
       79550000    5,722815394e-01   -3,656411171e-01
       79625000    5,729278922e-01   -3,680016696e-01
       79700000    5,736386180e-01   -3,731728494e-01
       79775000    5,748443007e-01   -3,726343513e-01
       79850000    5,722839236e-01   -3,727829754e-01
       79925000    5,752923489e-01   -3,781627417e-01
       80000000    5,743899345e-01   -3,782907426e-01
       80075000    5,711014271e-01   -3,758184910e-01
       80150000    5,711796284e-01   -3,824334741e-01
       80225000    5,740748644e-01   -3,806602955e-01
       80300000    5,749148726e-01   -3,828015327e-01
       80375000    5,725869536e-01   -3,836592138e-01
       80450000    5,721412897e-01   -3,895728290e-01
       80525000    5,732531548e-01   -3,914197087e-01
       80600000    5,734689832e-01   -3,927755654e-01
       80675000    5,752979517e-01   -3,956189156e-01
       80750000    5,748172998e-01   -3,941076994e-01
       80825000    5,724295378e-01   -3,979411423e-01
       80900000    5,718138218e-01   -4,005197883e-01
       80975000    5,737571120e-01   -3,995386064e-01
       81050000    5,723039508e-01   -4,039089978e-01
       81125000    5,714023113e-01   -4,063432217e-01
       81200000    5,738047957e-01   -4,078778327e-01
       81275000    5,723534822e-01   -4,111564457e-01
       81350000    5,721329451e-01   -4,138734937e-01
       81425000    5,755002499e-01   -4,139885306e-01
       81500000    5,737239122e-01   -4,155389369e-01
       81575000    5,741409659e-01   -4,184872210e-01
       81650000    5,730928779e-01   -4,241774976e-01
       81725000    5,710245967e-01   -4,241794646e-01
       81800000    5,721895099e-01   -4,269109964e-01
       81875000    5,715166330e-01   -4,307981730e-01
       81950000    5,730862021e-01   -4,318433106e-01
       82025000    5,747322440e-01   -4,346936643e-01
       82100000    5,736091733e-01   -4,347700477e-01
       82175000    5,725566745e-01   -4,377346039e-01
       82250000    5,716192126e-01   -4,394384623e-01
       82325000    5,676525831e-01   -4,435731471e-01
       82400000    5,671299696e-01   -4,452500045e-01
       82475000    5,693150163e-01   -4,502982795e-01
       82550000    5,678419471e-01   -4,534453750e-01
       82625000    5,701247454e-01   -4,550417364e-01
       82700000    5,685645938e-01   -4,591428339e-01
       82775000    5,687147379e-01   -4,597469568e-01
       82850000    5,673050880e-01   -4,635104835e-01
       82925000    5,673195720e-01   -4,646105766e-01
       83000000    5,676363111e-01   -4,677284956e-01
       83075000    5,671451688e-01   -4,692896605e-01
       83150000    5,653946996e-01   -4,728107750e-01
       83225000    5,651050210e-01   -4,736222625e-01
       83300000    5,620951653e-01   -4,765691161e-01
       83375000    5,614564419e-01   -4,785187542e-01
       83450000    5,612430573e-01   -4,845145345e-01
       83525000    5,587461591e-01   -4,892924428e-01
       83600000    5,587319732e-01   -4,913182855e-01
       83675000    5,560620427e-01   -4,898060262e-01
       83750000    5,549929142e-01   -4,926937819e-01
       83825000    5,550336838e-01   -4,989248812e-01
       83900000    5,526547432e-01   -5,025666952e-01
       83975000    5,551452041e-01   -5,028592348e-01
       84050000    5,526792407e-01   -5,045820475e-01
       84125000    5,523610711e-01   -5,058465004e-01
       84200000    5,488463044e-01   -5,120844841e-01
       84275000    5,498815179e-01   -5,152781606e-01
       84350000    5,479109883e-01   -5,167444944e-01
       84425000    5,464214683e-01   -5,182853341e-01
       84500000    5,463774204e-01   -5,194536448e-01
       84575000    5,417999625e-01   -5,252020955e-01
       84650000    5,408128500e-01   -5,296962261e-01
       84725000    5,394331813e-01   -5,278956294e-01
       84800000    5,382716656e-01   -5,308806300e-01
       84875000    5,376386642e-01   -5,330262780e-01
       84950000    5,346419811e-01   -5,401273370e-01
       85025000    5,308067203e-01   -5,391570330e-01
       85100000    5,312575698e-01   -5,464255214e-01
       85175000    5,308132768e-01   -5,446518064e-01
       85250000    5,288722515e-01   -5,486930013e-01
       85325000    5,221923590e-01   -5,494398475e-01
       85400000    5,237435699e-01   -5,548312068e-01
       85475000    5,192755461e-01   -5,581607819e-01
       85550000    5,166172385e-01   -5,575551987e-01
       85625000    5,193226933e-01   -5,601527095e-01
       85700000    5,153372884e-01   -5,622774959e-01
       85775000    5,106895566e-01   -5,683215261e-01
       85850000    5,108665228e-01   -5,654089451e-01
       85925000    5,105501413e-01   -5,714268684e-01
       86000000    5,074430704e-01   -5,750783682e-01
       86075000    5,052232146e-01   -5,737659931e-01
       86150000    4,995982647e-01   -5,769015551e-01
       86225000    4,988078773e-01   -5,772667527e-01
       86300000    4,975692332e-01   -5,839763880e-01
       86375000    4,932368100e-01   -5,864351988e-01
       86450000    4,922530651e-01   -5,866137743e-01
       86525000    4,892597795e-01   -5,856872797e-01
       86600000    4,865922034e-01   -5,919830203e-01
       86675000    4,853785336e-01   -5,915999413e-01
       86750000    4,825346768e-01   -5,942016840e-01
       86825000    4,786736071e-01   -5,970129967e-01
       86900000    4,751856327e-01   -5,942052603e-01
       86975000    4,744282365e-01   -5,960526466e-01
       87050000    4,744116962e-01   -6,002753377e-01
       87125000    4,691962600e-01   -5,982031822e-01
       87200000    4,667785764e-01   -5,995888114e-01
       87275000    4,653228223e-01   -6,051737666e-01
       87350000    4,635814726e-01   -6,030269861e-01
       87425000    4,606380165e-01   -6,032801270e-01
       87500000    4,504795074e-01   -6,044405699e-01
       87575000    4,544608891e-01   -6,057126522e-01
       87650000    4,519828856e-01   -6,089103818e-01
       87725000    4,506013989e-01   -6,150930524e-01
       87800000    4,505299926e-01   -6,152051091e-01
       87875000    4,476847649e-01   -6,151462197e-01
       87950000    4,416278601e-01   -6,159889102e-01
       88025000    4,411520064e-01   -6,130911708e-01
       88100000    4,387136102e-01   -6,169046164e-01
       88175000    4,385978281e-01   -6,208670139e-01
       88250000    4,352501929e-01   -6,191986203e-01
       88325000    4,328367412e-01   -6,215517521e-01
       88400000    4,283295870e-01   -6,224683523e-01
       88475000    4,286775291e-01   -6,234461665e-01
       88550000    4,243352413e-01   -6,262633204e-01
       88625000    4,239470363e-01   -6,220701933e-01
       88700000    4,234494865e-01   -6,275895238e-01
       88775000    4,182774425e-01   -6,261804700e-01
       88850000    4,194679260e-01   -6,299552917e-01
       88925000    4,153705835e-01   -6,264088750e-01
       89000000    4,111601412e-01   -6,270782351e-01
       89075000    4,071147144e-01   -6,295532584e-01
       89150000    4,062817097e-01   -6,305626631e-01
       89225000    4,052218497e-01   -6,341115236e-01
       89300000    4,046319723e-01   -6,333382726e-01
       89375000    4,014255106e-01   -6,342928410e-01
       89450000    4,012959301e-01   -6,333876252e-01
       89525000    3,960795701e-01   -6,306360364e-01
       89600000    3,926962912e-01   -6,293877363e-01
       89675000    3,937890232e-01   -6,290572882e-01
       89750000    3,905195296e-01   -6,301987171e-01
       89825000    3,918573856e-01   -6,312533021e-01
       89900000    3,902354240e-01   -6,297848821e-01
       89975000    3,878264427e-01   -6,308653951e-01
       90050000    3,853622079e-01   -6,273452640e-01
       90125000    3,826882541e-01   -6,306593418e-01
       90200000    3,803948760e-01   -6,314088106e-01
       90275000    3,830334246e-01   -6,269019842e-01
       90350000    3,812230825e-01   -6,275966763e-01
       90425000    3,787134886e-01   -6,313332319e-01
       90500000    3,802228570e-01   -6,313275695e-01
       90575000    3,809161186e-01   -6,286523938e-01
       90650000    3,771086037e-01   -6,306122541e-01
       90725000    3,823823929e-01   -6,297528744e-01
       90800000    3,813904524e-01   -6,301212311e-01
       90875000    3,793219030e-01   -6,279000044e-01
       90950000    3,777744472e-01   -6,310333014e-01
       91025000    3,785384297e-01   -6,313080788e-01
       91100000    3,789725602e-01   -6,332595944e-01
       91175000    3,780988753e-01   -6,366367936e-01
       91250000    3,803479373e-01   -6,371742487e-01
       91325000    3,772686422e-01   -6,388818026e-01
       91400000    3,828748465e-01   -6,390089989e-01
       91475000    3,831949830e-01   -6,417947412e-01
       91550000    3,810883462e-01   -6,398509145e-01
       91625000    3,805752993e-01   -6,427211165e-01
       91700000    3,794513047e-01   -6,432574987e-01
       91775000    3,780259192e-01   -6,465914249e-01
       91850000    3,770013750e-01   -6,486965418e-01
       91925000    3,786002994e-01   -6,529182792e-01
