! NanoVNA-App
! Date: 2025-08-09 13:39:53
! Start: 65MHz Stop: 95MHz Points: 401
! S-Parameter data: F S11
# Hz S RI R 50
!     Frequency           S11_Real           S11_Imag
       65000000   -3,842371702e-01   -8,379318714e-01
       65075000   -3,830720484e-01   -8,502139449e-01
       65150000   -3,857320249e-01   -8,473778367e-01
       65225000   -3,900886178e-01   -8,462957740e-01
       65300000   -3,901014626e-01   -8,437612653e-01
       65375000   -3,923375905e-01   -8,457450271e-01
       65450000   -3,936566412e-01   -8,416348100e-01
       65525000   -3,948945701e-01   -8,432201147e-01
       65600000   -3,974768817e-01   -8,413423300e-01
       65675000   -4,008385539e-01   -8,368353248e-01
       65750000   -4,016488791e-01   -8,370043635e-01
       65825000   -4,070271254e-01   -8,363597393e-01
       65900000   -4,066116810e-01   -8,360249996e-01
       65975000   -4,100357592e-01   -8,356816769e-01
       66050000   -4,106847942e-01   -8,320340514e-01
       66125000   -4,129015803e-01   -8,295936584e-01
       66200000   -4,167379439e-01   -8,306810856e-01
       66275000   -4,170898497e-01   -8,257489800e-01
       66350000   -4,196794331e-01   -8,261877894e-01
       66425000   -4,222400486e-01   -8,266119361e-01
       66500000   -4,229095280e-01   -8,242026567e-01
       66575000   -4,260143936e-01   -8,239524961e-01
       66650000   -4,263124168e-01   -8,206802607e-01
       66725000   -4,292244315e-01   -8,197090626e-01
       66800000   -4,322949350e-01   -8,160513639e-01
       66875000   -4,328384101e-01   -8,163643479e-01
       66950000   -4,362906218e-01   -8,143678904e-01
       67025000   -4,384764731e-01   -8,155220151e-01
       67100000   -4,394070208e-01   -8,131641746e-01
       67175000   -4,402517974e-01   -8,125205040e-01
       67250000   -4,438470900e-01   -8,080771565e-01
       67325000   -4,445238411e-01   -8,073515892e-01
       67400000   -4,458881915e-01   -8,080133796e-01
       67475000   -4,511500597e-01   -8,048332930e-01
       67550000   -4,502711892e-01   -8,024469018e-01
       67625000   -4,527675807e-01   -8,014636040e-01
       67700000   -4,546864629e-01   -7,991854548e-01
       67775000   -4,566794336e-01   -8,012660742e-01
       67850000   -4,585894048e-01   -7,992596030e-01
       67925000   -4,592615068e-01   -7,969012260e-01
       68000000   -4,615358412e-01   -7,952745557e-01
       68075000   -4,667520821e-01   -7,902656794e-01
       68150000   -4,666198194e-01   -7,904384136e-01
       68225000   -4,699882269e-01   -7,930170298e-01
       68300000   -4,700300097e-01   -7,885527015e-01
       68375000   -4,726994634e-01   -7,878935337e-01
       68450000   -4,746695757e-01   -7,843861580e-01
       68525000   -4,748971760e-01   -7,857345939e-01
       68600000   -4,784276783e-01   -7,800558805e-01
       68675000   -4,802392125e-01   -7,797157764e-01
       68750000   -4,835475981e-01   -7,791130543e-01
       68825000   -4,833240509e-01   -7,794476748e-01
       68900000   -4,862548411e-01   -7,787430882e-01
       68975000   -4,865849614e-01   -7,758980393e-01
       69050000   -4,900704026e-01   -7,736408710e-01
       69125000   -4,895401299e-01   -7,727472186e-01
       69200000   -4,923385084e-01   -7,723890543e-01
       69275000   -4,926738143e-01   -7,687877417e-01
       69350000   -4,953541756e-01   -7,687693834e-01
       69425000   -4,968070090e-01   -7,656300664e-01
       69500000   -4,992825985e-01   -7,631490827e-01
       69575000   -5,010210872e-01   -7,610919476e-01
       69650000   -5,025380850e-01   -7,600657940e-01
       69725000   -5,059718490e-01   -7,573614717e-01
       69800000   -5,062927008e-01   -7,565478683e-01
       69875000   -5,104114413e-01   -7,548323274e-01
       69950000   -5,100630522e-01   -7,544077039e-01
       70025000   -5,131749511e-01   -7,524526715e-01
       70100000   -5,136628151e-01   -7,510181665e-01
       70175000   -5,158278942e-01   -7,472729087e-01
       70250000   -5,179087520e-01   -7,469251156e-01
       70325000   -5,216857195e-01   -7,456727028e-01
       70400000   -5,214132071e-01   -7,461178303e-01
       70475000   -5,228576064e-01   -7,447245121e-01
       70550000   -5,251904726e-01   -7,389758825e-01
       70625000   -5,264777541e-01   -7,386763692e-01
       70700000   -5,276749730e-01   -7,385745049e-01
       70775000   -5,289033651e-01   -7,366541624e-01
       70850000   -5,309914947e-01   -7,367264032e-01
       70925000   -5,351725221e-01   -7,330658436e-01
       71000000   -5,349366069e-01   -7,330789566e-01
       71075000   -5,364834666e-01   -7,297611237e-01
       71150000   -5,399671197e-01   -7,303962708e-01
       71225000   -5,411677361e-01   -7,259995937e-01
       71300000   -5,415759087e-01   -7,260833383e-01
       71375000   -5,456171036e-01   -7,247003913e-01
       71450000   -5,444995761e-01   -7,189425826e-01
       71525000   -5,456801057e-01   -7,205673456e-01
       71600000   -5,486636162e-01   -7,179495692e-01
       71675000   -5,497286916e-01   -7,181486487e-01
       71750000   -5,500993729e-01   -7,154501677e-01
       71825000   -5,533447862e-01   -7,145354152e-01
       71900000   -5,540758371e-01   -7,105508447e-01
       71975000   -5,553100109e-01   -7,089287639e-01
       72050000   -5,594425797e-01   -7,071824670e-01
       72125000   -5,613812208e-01   -7,075982690e-01
       72200000   -5,612290502e-01   -7,062007785e-01
       72275000   -5,621775985e-01   -7,042293549e-01
       72350000   -5,632627010e-01   -7,021118999e-01
       72425000   -5,655674338e-01   -6,994430423e-01
       72500000   -5,707607269e-01   -6,970134377e-01
       72575000   -5,679000616e-01   -6,973286271e-01
       72650000   -5,729638934e-01   -6,937567592e-01
       72725000   -5,714318156e-01   -6,893942952e-01
       72800000   -5,725466013e-01   -6,908664703e-01
       72875000   -5,749919415e-01   -6,872755289e-01
       72950000   -5,760689378e-01   -6,868812442e-01
       73025000   -5,766829252e-01   -6,871629953e-01
       73100000   -5,805842280e-01   -6,869799495e-01
       73175000   -5,822234154e-01   -6,793710589e-01
       73250000   -5,839088559e-01   -6,818044186e-01
       73325000   -5,846829414e-01   -6,778970361e-01
       73400000   -5,885716677e-01   -6,773774624e-01
       73475000   -5,885412097e-01   -6,768546700e-01
       73550000   -5,901845098e-01   -6,768510938e-01
       73625000   -5,899183750e-01   -6,739832759e-01
       73700000   -5,918047428e-01   -6,717002392e-01
       73775000   -5,944404602e-01   -6,675007343e-01
       73850000   -5,951076150e-01   -6,667528152e-01
       73925000   -5,991125107e-01   -6,677916050e-01
       74000000   -5,989730358e-01   -6,654573083e-01
       74075000   -6,001582146e-01   -6,632219553e-01
       74150000   -6,041187644e-01   -6,582519412e-01
       74225000   -6,044199467e-01   -6,558218002e-01
       74300000   -6,047517657e-01   -6,584408283e-01
       74375000   -6,085270643e-01   -6,551387906e-01
       74450000   -6,069868207e-01   -6,537373066e-01
       74525000   -6,088319421e-01   -6,537711024e-01
       74600000   -6,097605824e-01   -6,487838030e-01
       74675000   -6,121897101e-01   -6,480017304e-01
       74750000   -6,155110598e-01   -6,440728903e-01
       74825000   -6,151192188e-01   -6,459746957e-01
       74900000   -6,177860498e-01   -6,445139647e-01
       74975000   -6,183364987e-01   -6,406952143e-01
       75050000   -6,191649437e-01   -6,384403110e-01
       75125000   -6,211398840e-01   -6,358098984e-01
       75200000   -6,219207048e-01   -6,348893642e-01
       75275000   -6,247738004e-01   -6,317280531e-01
       75350000   -6,255633831e-01   -6,301526427e-01
       75425000   -6,289184093e-01   -6,294800043e-01
       75500000   -6,281658411e-01   -6,300611496e-01
       75575000   -6,315175891e-01   -6,301249862e-01
       75650000   -6,311003566e-01   -6,258440018e-01
       75725000   -6,334587932e-01   -6,241673827e-01
       75800000   -6,336656213e-01   -6,204349399e-01
       75875000   -6,363291144e-01   -6,209825873e-01
       75950000   -6,363123059e-01   -6,178706288e-01
       76025000   -6,382662058e-01   -6,182724237e-01
       76100000   -6,415677071e-01   -6,147611141e-01
       76175000   -6,404488087e-01   -6,122142673e-01
       76250000   -6,426380277e-01   -6,112827659e-01
       76325000   -6,434983015e-01   -6,074687243e-01
       76400000   -6,452081800e-01   -6,081157327e-01
       76475000   -6,489478946e-01   -6,080416441e-01
       76550000   -6,497816443e-01   -6,013677716e-01
       76625000   -6,494596601e-01   -5,997761488e-01
       76700000   -6,530948877e-01   -5,968073010e-01
       76775000   -6,522304416e-01   -5,980627537e-01
       76850000   -6,545733213e-01   -5,963454247e-01
       76925000   -6,559143662e-01   -5,966300368e-01
       77000000   -6,561663151e-01   -5,939320326e-01
       77075000   -6,578217745e-01   -5,907805562e-01
       77150000   -6,599894762e-01   -5,878502727e-01
       77225000   -6,600321531e-01   -5,864570141e-01
       77300000   -6,639745831e-01   -5,825513005e-01
       77375000   -6,642512083e-01   -5,844831467e-01
       77450000   -6,674700379e-01   -5,821278095e-01
       77525000   -6,683275700e-01   -5,802260041e-01
       77600000   -6,681764126e-01   -5,789329410e-01
       77675000   -6,697326303e-01   -5,771219134e-01
       77750000   -6,698443890e-01   -5,718562603e-01
       77825000   -6,719769835e-01   -5,730226636e-01
       77900000   -6,725377440e-01   -5,718231201e-01
       77975000   -6,755020618e-01   -5,653803349e-01
       78050000   -6,752812862e-01   -5,654674172e-01
       78125000   -6,762561798e-01   -5,640413165e-01
       78200000   -6,792346835e-01   -5,601602197e-01
       78275000   -6,798330545e-01   -5,617508292e-01
       78350000   -6,804434061e-01   -5,595588088e-01
       78425000   -6,821818948e-01   -5,576082468e-01
       78500000   -6,840250492e-01   -5,512552261e-01
       78575000   -6,857737303e-01   -5,528653264e-01
       78650000   -6,887361407e-01   -5,535606146e-01
       78725000   -6,889195442e-01   -5,471776724e-01
       78800000   -6,896933317e-01   -5,473973751e-01
       78875000   -6,926888227e-01   -5,458671451e-01
       78950000   -6,922184229e-01   -5,435909629e-01
       79025000   -6,931632161e-01   -5,428575277e-01
       79100000   -6,934315562e-01   -5,390891433e-01
       79175000   -6,963630915e-01   -5,378451347e-01
       79250000   -6,992195249e-01   -5,347630978e-01
       79325000   -6,980583668e-01   -5,353195071e-01
       79400000   -7,013587356e-01   -5,334737897e-01
       79475000   -7,009636760e-01   -5,278691053e-01
       79550000   -7,028446794e-01   -5,255586505e-01
       79625000   -7,061567307e-01   -5,247506499e-01
       79700000   -7,052499056e-01   -5,251846910e-01
       79775000   -7,065104842e-01   -5,231447816e-01
       79850000   -7,100387812e-01   -5,197861195e-01
       79925000   -7,086864710e-01   -5,170874596e-01
       80000000   -7,116369605e-01   -5,117937326e-01
       80075000   -7,150436640e-01   -5,140727758e-01
       80150000   -7,132802010e-01   -5,133057833e-01
       80225000   -7,145028710e-01   -5,094823837e-01
       80300000   -7,182766795e-01   -5,081213713e-01
       80375000   -7,182590365e-01   -5,068908334e-01
       80450000   -7,190241218e-01   -5,036844611e-01
       80525000   -7,190423012e-01   -5,001530647e-01
       80600000   -7,211630940e-01   -5,013074279e-01
       80675000   -7,228467464e-01   -4,967101812e-01
       80750000   -7,252006531e-01   -4,963191748e-01
       80825000   -7,261557579e-01   -4,957557321e-01
       80900000   -7,259845734e-01   -4,908656478e-01
       80975000   -7,283501625e-01   -4,898377061e-01
       81050000   -7,297749519e-01   -4,879772961e-01
       81125000   -7,297810316e-01   -4,847277403e-01
       81200000   -7,321311235e-01   -4,849789441e-01
       81275000   -7,323175669e-01   -4,801001847e-01
       81350000   -7,336109281e-01   -4,774243534e-01
       81425000   -7,377026081e-01   -4,776501358e-01
       81500000   -7,377138138e-01   -4,752589464e-01
       81575000   -7,399233580e-01   -4,731670916e-01
       81650000   -7,397258878e-01   -4,690155685e-01
       81725000   -7,403541207e-01   -4,687854648e-01
       81800000   -7,416696548e-01   -4,669341445e-01
       81875000   -7,440264821e-01   -4,611727595e-01
       81950000   -7,448895574e-01   -4,589184225e-01
       82025000   -7,472256422e-01   -4,567933083e-01
       82100000   -7,474411130e-01   -4,579947591e-01
       82175000   -7,503100038e-01   -4,564044774e-01
       82250000   -7,486543059e-01   -4,542613924e-01
       82325000   -7,504531741e-01   -4,485891163e-01
       82400000   -7,513777614e-01   -4,450881481e-01
       82475000   -7,523905039e-01   -4,438703954e-01
       82550000   -7,549600601e-01   -4,407097101e-01
       82625000   -7,558043599e-01   -4,406709373e-01
       82700000   -7,577354312e-01   -4,350815415e-01
       82775000   -7,577557564e-01   -4,342531264e-01
       82850000   -7,612143159e-01   -4,319093823e-01
       82925000   -7,604482770e-01   -4,317979217e-01
       83000000   -7,639439702e-01   -4,302937090e-01
       83075000   -7,626284957e-01   -4,271091819e-01
       83150000   -7,655099034e-01   -4,248775244e-01
       83225000   -7,643564939e-01   -4,230144024e-01
       83300000   -7,670259476e-01   -4,183755219e-01
       83375000   -7,656371593e-01   -4,161872864e-01
       83450000   -7,683117986e-01   -4,141248167e-01
       83525000   -7,707488537e-01   -4,106656015e-01
       83600000   -7,704271078e-01   -4,094620049e-01
       83675000   -7,719383836e-01   -4,085654914e-01
       83750000   -7,715612650e-01   -4,039926231e-01
       83825000   -7,730598450e-01   -4,001803398e-01
       83900000   -7,760264874e-01   -3,975321949e-01
       83975000   -7,752676606e-01   -3,981554806e-01
       84050000   -7,768715620e-01   -3,951236308e-01
       84125000   -7,766926289e-01   -3,930574059e-01
       84200000   -7,784336209e-01   -3,885556161e-01
       84275000   -7,815645933e-01   -3,877196312e-01
       84350000   -7,792641521e-01   -3,831609488e-01
       84425000   -7,818652987e-01   -3,822550774e-01
       84500000   -7,815811038e-01   -3,788915575e-01
       84575000   -7,832808495e-01   -3,764733076e-01
       84650000   -7,858237028e-01   -3,738334477e-01
       84725000   -7,846960425e-01   -3,710519969e-01
       84800000   -7,858480215e-01   -3,684435785e-01
       84875000   -7,860341072e-01   -3,648011684e-01
       84950000   -7,882250547e-01   -3,632426262e-01
       85025000   -7,884988189e-01   -3,598192334e-01
       85100000   -7,907302380e-01   -3,580577374e-01
       85175000   -7,892732620e-01   -3,552595675e-01
       85250000   -7,910830975e-01   -3,507752717e-01
       85325000   -7,912545800e-01   -3,477860987e-01
       85400000   -7,915018201e-01   -3,447039127e-01
       85475000   -7,950702906e-01   -3,436019719e-01
       85550000   -7,933145761e-01   -3,391843736e-01
       85625000   -7,935834527e-01   -3,395667076e-01
       85700000   -7,955978513e-01   -3,362670243e-01
       85775000   -7,966514826e-01   -3,313217759e-01
       85850000   -7,954894304e-01   -3,290905654e-01
       85925000   -7,960363030e-01   -3,295003176e-01
       86000000   -7,979776263e-01   -3,256386518e-01
       86075000   -7,963055372e-01   -3,219424486e-01
       86150000   -7,979754210e-01   -3,193586767e-01
       86225000   -7,987595201e-01   -3,173191249e-01
       86300000   -7,999948859e-01   -3,145207167e-01
       86375000   -8,011816740e-01   -3,106151521e-01
       86450000   -7,991555929e-01   -3,082929850e-01
       86525000   -8,005809188e-01   -3,068130612e-01
       86600000   -8,022261262e-01   -3,041692972e-01
       86675000   -8,001441956e-01   -3,017770648e-01
       86750000   -8,013266921e-01   -2,972291410e-01
       86825000   -8,025444150e-01   -2,961169183e-01
       86900000   -8,019270897e-01   -2,906678915e-01
       86975000   -8,027701974e-01   -2,893862724e-01
       87050000   -8,017322421e-01   -2,886292040e-01
       87125000   -8,025854230e-01   -2,849845886e-01
       87200000   -8,023594618e-01   -2,803454101e-01
       87275000   -8,033171892e-01   -2,792029977e-01
       87350000   -8,031513691e-01   -2,781600952e-01
       87425000   -8,037989140e-01   -2,740872502e-01
       87500000   -8,040210605e-01   -2,736206651e-01
       87575000   -8,039770722e-01   -2,684317231e-01
       87650000   -8,029090166e-01   -2,652533650e-01
       87725000   -8,040981293e-01   -2,648124397e-01
       87800000   -8,031820059e-01   -2,624684572e-01
       87875000   -8,048263788e-01   -2,599475682e-01
       87950000   -8,056285977e-01   -2,559444904e-01
       88025000   -8,048607707e-01   -2,537248135e-01
       88100000   -8,045077920e-01   -2,514619529e-01
       88175000   -8,043972850e-01   -2,492250055e-01
       88250000   -8,036921620e-01   -2,471036464e-01
       88325000   -8,047059178e-01   -2,457852364e-01
       88400000   -8,056381345e-01   -2,421665192e-01
       88475000   -8,036369681e-01   -2,389890105e-01
       88550000   -8,057293892e-01   -2,375965714e-01
       88625000   -8,048987389e-01   -2,338260710e-01
       88700000   -8,039965034e-01   -2,323264331e-01
       88775000   -8,043591976e-01   -2,312156558e-01
       88850000   -8,044182062e-01   -2,276102901e-01
       88925000   -8,049200773e-01   -2,246888131e-01
       89000000   -8,039488792e-01   -2,230716199e-01
       89075000   -8,042988181e-01   -2,198535353e-01
       89150000   -8,021365404e-01   -2,189062089e-01
       89225000   -8,042538762e-01   -2,164635956e-01
       89300000   -8,030815721e-01   -2,147709876e-01
       89375000   -8,031619191e-01   -2,129818648e-01
       89450000   -8,025092483e-01   -2,103327513e-01
       89525000   -8,016441464e-01   -2,094532400e-01
       89600000   -8,017864823e-01   -2,062698007e-01
       89675000   -8,024490476e-01   -2,035673559e-01
       89750000   -8,020539284e-01   -2,032823414e-01
       89825000   -8,015551567e-01   -2,022613138e-01
       89900000   -8,015238643e-01   -1,990732104e-01
       89975000   -8,007062078e-01   -1,982354969e-01
       90050000   -8,018427491e-01   -1,955825090e-01
       90125000   -8,005824089e-01   -1,960680634e-01
       90200000   -8,014803529e-01   -1,932706088e-01
       90275000   -8,017020226e-01   -1,912211478e-01
       90350000   -8,013892770e-01   -1,912773252e-01
       90425000   -8,027824163e-01   -1,893381327e-01
       90500000   -8,012155294e-01   -1,880992949e-01
       90575000   -8,029990792e-01   -1,870520860e-01
       90650000   -8,025709391e-01   -1,843356043e-01
       90725000   -8,040751219e-01   -1,824018806e-01
       90800000   -8,048973680e-01   -1,826307327e-01
       90875000   -8,070979714e-01   -1,819249243e-01
       90950000   -8,059168458e-01   -1,801297814e-01
       91025000   -8,071045876e-01   -1,770640910e-01
       91100000   -8,079180717e-01   -1,781041622e-01
       91175000   -8,091216683e-01   -1,729543507e-01
       91250000   -8,092544675e-01   -1,728871465e-01
       91325000   -8,122879267e-01   -1,698163152e-01
       91400000   -8,116909862e-01   -1,658979654e-01
       91475000   -8,134000897e-01   -1,665008664e-01
       91550000   -8,141060472e-01   -1,609421521e-01
       91625000   -8,160601258e-01   -1,646988392e-01
       91700000   -8,170403838e-01   -1,587541401e-01
       91775000   -8,167010546e-01   -1,587108374e-01
       91850000   -8,186157346e-01   -1,550767124e-01
       91925000   -8,182178140e-01   -1,521923542e-01
