! NanoVNA-App
! Date: 2025-08-09 13:38:47
! Start: 65MHz Stop: 95MHz Points: 401
! S-Parameter data: F S11
# Hz S RI R 50
!     Frequency           S11_Real           S11_Imag
       65000000   -6,775197387e-01    5,169575661e-02
       65075000   -6,826056838e-01    4,935291782e-02
       65150000   -6,799326539e-01    5,282380059e-02
       65225000   -6,771823168e-01    5,651342869e-02
       65300000   -6,736504436e-01    6,109683216e-02
       65375000   -6,703346372e-01    6,471715868e-02
       65450000   -6,671856642e-01    6,878943741e-02
       65525000   -6,643134356e-01    7,143330574e-02
       65600000   -6,609407663e-01    7,551529258e-02
       65675000   -6,564115286e-01    8,027063310e-02
       65750000   -6,538513303e-01    8,310452849e-02
       65825000   -6,506776810e-01    8,695785701e-02
       65900000   -6,483383179e-01    9,008007497e-02
       65975000   -6,427780986e-01    9,400113672e-02
       66050000   -6,406143308e-01    9,702908248e-02
       66125000   -6,366184950e-01    1,005846262e-01
       66200000   -6,340749860e-01    1,040301025e-01
       66275000   -6,308091283e-01    1,080102473e-01
       66350000   -6,256156564e-01    1,114843264e-01
       66425000   -6,221769452e-01    1,151613221e-01
       66500000   -6,193307638e-01    1,181303859e-01
       66575000   -6,151999831e-01    1,214309856e-01
       66650000   -6,129550934e-01    1,236721799e-01
       66725000   -6,089733839e-01    1,280897856e-01
       66800000   -6,059093475e-01    1,311222166e-01
       66875000   -6,024706364e-01    1,338207126e-01
       66950000   -5,982623696e-01    1,378461123e-01
       67025000   -5,948728323e-01    1,398256719e-01
       67100000   -5,907721519e-01    1,438657343e-01
       67175000   -5,877768993e-01    1,468371004e-01
       67250000   -5,841081738e-01    1,502501667e-01
       67325000   -5,813953280e-01    1,538475603e-01
       67400000   -5,782077312e-01    1,561143398e-01
       67475000   -5,722353458e-01    1,602936685e-01
       67550000   -5,700225234e-01    1,627118737e-01
       67625000   -5,661304593e-01    1,648139060e-01
       67700000   -5,615130663e-01    1,676513255e-01
       67775000   -5,577152967e-01    1,708281487e-01
       67850000   -5,538154244e-01    1,746590286e-01
       67925000   -5,498002172e-01    1,776342541e-01
       68000000   -5,463429093e-01    1,798354387e-01
       68075000   -5,416492224e-01    1,826745272e-01
       68150000   -5,380799770e-01    1,846379638e-01
       68225000   -5,330327749e-01    1,890980601e-01
       68300000   -5,295338631e-01    1,903972477e-01
       68375000   -5,239908099e-01    1,936492771e-01
       68450000   -5,208725929e-01    1,951038539e-01
       68525000   -5,164917111e-01    1,973086894e-01
       68600000   -5,137523413e-01    1,990600079e-01
       68675000   -5,076196790e-01    2,020660490e-01
       68750000   -5,031701326e-01    2,035535872e-01
       68825000   -4,988061190e-01    2,055713683e-01
       68900000   -4,944149852e-01    2,076921910e-01
       68975000   -4,900944829e-01    2,087356001e-01
       69050000   -4,861768186e-01    2,112749815e-01
       69125000   -4,805949926e-01    2,126699239e-01
       69200000   -4,761706889e-01    2,133132368e-01
       69275000   -4,709122479e-01    2,155697197e-01
       69350000   -4,668442011e-01    2,162881643e-01
       69425000   -4,628555775e-01    2,170254439e-01
       69500000   -4,591903687e-01    2,184926271e-01
       69575000   -4,547086358e-01    2,189007401e-01
       69650000   -4,508476853e-01    2,192406058e-01
       69725000   -4,455265403e-01    2,198063582e-01
       69800000   -4,408332109e-01    2,208921462e-01
       69875000   -4,378437698e-01    2,218310833e-01
       69950000   -4,345079362e-01    2,220807970e-01
       70025000   -4,314660728e-01    2,223565876e-01
       70100000   -4,271384776e-01    2,218198329e-01
       70175000   -4,207235873e-01    2,233003378e-01
       70250000   -4,205981791e-01    2,229439318e-01
       70325000   -4,157191217e-01    2,224771380e-01
       70400000   -4,132198989e-01    2,237212956e-01
       70475000   -4,094285667e-01    2,228930593e-01
       70550000   -4,061139822e-01    2,227803171e-01
       70625000   -4,044921994e-01    2,223916799e-01
       70700000   -4,007656872e-01    2,234360427e-01
       70775000   -3,972164989e-01    2,231839448e-01
       70850000   -3,952367604e-01    2,230845243e-01
       70925000   -3,927030563e-01    2,239454389e-01
       71000000   -3,916519880e-01    2,236206830e-01
       71075000   -3,877331913e-01    2,247282267e-01
       71150000   -3,847407401e-01    2,246200293e-01
       71225000   -3,826608956e-01    2,250832617e-01
       71300000   -3,799018562e-01    2,254561186e-01
       71375000   -3,786807358e-01    2,260633260e-01
       71450000   -3,755636513e-01    2,267704755e-01
       71525000   -3,733926713e-01    2,267829925e-01
       71600000   -3,704760969e-01    2,273265421e-01
       71675000   -3,690871894e-01    2,276807725e-01
       71750000   -3,662221730e-01    2,283769250e-01
       71825000   -3,635492027e-01    2,294014692e-01
       71900000   -3,614588380e-01    2,299622893e-01
       71975000   -3,591971695e-01    2,297129035e-01
       72050000   -3,566505015e-01    2,299401909e-01
       72125000   -3,534375727e-01    2,314918041e-01
       72200000   -3,516500592e-01    2,317591608e-01
       72275000   -3,494141400e-01    2,321721166e-01
       72350000   -3,464512229e-01    2,327710986e-01
       72425000   -3,450718522e-01    2,325974405e-01
       72500000   -3,421427310e-01    2,326868027e-01
       72575000   -3,399896920e-01    2,341129929e-01
       72650000   -3,377288282e-01    2,349882126e-01
       72725000   -3,357626796e-01    2,348086685e-01
       72800000   -3,334789276e-01    2,359848917e-01
       72875000   -3,313357532e-01    2,366002649e-01
       72950000   -3,295668960e-01    2,364848703e-01
       73025000   -3,269170225e-01    2,373621315e-01
       73100000   -3,256710172e-01    2,388341278e-01
       73175000   -3,221929371e-01    2,399533540e-01
       73250000   -3,212240934e-01    2,399483472e-01
       73325000   -3,198258281e-01    2,407613099e-01
       73400000   -3,175718188e-01    2,416889518e-01
       73475000   -3,146623969e-01    2,420477569e-01
       73550000   -3,125817776e-01    2,426635623e-01
       73625000   -3,102542758e-01    2,435550094e-01
       73700000   -3,084999919e-01    2,435510308e-01
       73775000   -3,059193194e-01    2,446131408e-01
       73850000   -3,033840656e-01    2,456649095e-01
       73925000   -3,022434711e-01    2,472540736e-01
       74000000   -2,996191084e-01    2,473949492e-01
       74075000   -2,973920703e-01    2,480610758e-01
       74150000   -2,957431376e-01    2,493339926e-01
       74225000   -2,935965657e-01    2,500198185e-01
       74300000   -2,907466888e-01    2,509898245e-01
       74375000   -2,896187305e-01    2,507393956e-01
       74450000   -2,866852283e-01    2,518043518e-01
       74525000   -2,823206484e-01    2,525260746e-01
       74600000   -2,805450261e-01    2,533467114e-01
       74675000   -2,804972231e-01    2,547351718e-01
       74750000   -2,772725224e-01    2,546013892e-01
       74825000   -2,754016221e-01    2,548502088e-01
       74900000   -2,731970251e-01    2,560964525e-01
       74975000   -2,701455355e-01    2,564747930e-01
       75050000   -2,682452500e-01    2,575597167e-01
       75125000   -2,664594054e-01    2,580380440e-01
       75200000   -2,646613717e-01    2,577815056e-01
       75275000   -2,619365156e-01    2,586459517e-01
       75350000   -2,600137293e-01    2,601109445e-01
       75425000   -2,586257756e-01    2,591594160e-01
       75500000   -2,548859715e-01    2,599667311e-01
       75575000   -2,531709671e-01    2,606610954e-01
       75650000   -2,511919141e-01    2,609613240e-01
       75725000   -2,487122715e-01    2,613554299e-01
       75800000   -2,476441264e-01    2,617765069e-01
       75875000   -2,452269942e-01    2,624441385e-01
       75950000   -2,430471033e-01    2,622556686e-01
       76025000   -2,404658645e-01    2,632460296e-01
       76100000   -2,391085178e-01    2,630397677e-01
       76175000   -2,378410101e-01    2,639704049e-01
       76250000   -2,352441102e-01    2,649879456e-01
       76325000   -2,343831211e-01    2,653723061e-01
       76400000   -2,318489105e-01    2,656695545e-01
       76475000   -2,288941294e-01    2,663447261e-01
       76550000   -2,288621813e-01    2,665718794e-01
       76625000   -2,271689326e-01    2,669946849e-01
       76700000   -2,245203555e-01    2,672418058e-01
       76775000   -2,231627107e-01    2,681973279e-01
       76850000   -2,213264406e-01    2,682289183e-01
       76925000   -2,193315029e-01    2,689676285e-01
       77000000   -2,171103060e-01    2,696760893e-01
       77075000   -2,150114030e-01    2,691875100e-01
       77150000   -2,134012431e-01    2,687601149e-01
       77225000   -2,134078294e-01    2,696527839e-01
       77300000   -2,113139629e-01    2,705095112e-01
       77375000   -2,092798203e-01    2,711907327e-01
       77450000   -2,080527544e-01    2,714678049e-01
       77525000   -2,066985816e-01    2,721197605e-01
       77600000   -2,057241946e-01    2,731347978e-01
       77675000   -2,045144886e-01    2,732617557e-01
       77750000   -2,037804574e-01    2,734517157e-01
       77825000   -2,028049529e-01    2,742932439e-01
       77900000   -2,020930499e-01    2,739827037e-01
       77975000   -1,995788068e-01    2,754837871e-01
       78050000   -1,998691559e-01    2,768786252e-01
       78125000   -1,996772140e-01    2,771401405e-01
       78200000   -1,994156539e-01    2,789612114e-01
       78275000   -1,991828084e-01    2,802810967e-01
       78350000   -1,979314685e-01    2,833725810e-01
       78425000   -1,964492500e-01    2,862071097e-01
       78500000   -1,955691129e-01    2,887204289e-01
       78575000   -1,948018819e-01    2,912563682e-01
       78650000   -1,930909902e-01    2,935546339e-01
       78725000   -1,894423664e-01    2,953945100e-01
       78800000   -1,873825938e-01    2,965967357e-01
       78875000   -1,862068623e-01    2,980795503e-01
       78950000   -1,842701882e-01    2,994454205e-01
       79025000   -1,813141555e-01    3,010360301e-01
       79100000   -1,793939471e-01    3,031376302e-01
       79175000   -1,787391007e-01    3,053976297e-01
       79250000   -1,771395952e-01    3,077575862e-01
       79325000   -1,738004833e-01    3,085251153e-01
       79400000   -1,719796509e-01    3,103788793e-01
       79475000   -1,697071195e-01    3,138572276e-01
       79550000   -1,687330157e-01    3,152706027e-01
       79625000   -1,666414440e-01    3,177846372e-01
       79700000   -1,634133011e-01    3,190226555e-01
       79775000   -1,610837579e-01    3,209992051e-01
       79850000   -1,592135578e-01    3,236166239e-01
       79925000   -1,558571607e-01    3,254016042e-01
       80000000   -1,555806100e-01    3,288872540e-01
       80075000   -1,532915086e-01    3,292174935e-01
       80150000   -1,491799504e-01    3,316715658e-01
       80225000   -1,480613500e-01    3,343597054e-01
       80300000   -1,457004547e-01    3,362149894e-01
       80375000   -1,423908770e-01    3,378622830e-01
       80450000   -1,380120665e-01    3,417824805e-01
       80525000   -1,354888678e-01    3,437836468e-01
       80600000   -1,333632469e-01    3,462372422e-01
       80675000   -1,307790130e-01    3,489871025e-01
       80750000   -1,275974065e-01    3,503120244e-01
       80825000   -1,235450134e-01    3,533505201e-01
       80900000   -1,198310927e-01    3,553462029e-01
       80975000   -1,169962361e-01    3,567641079e-01
       81050000   -1,134636775e-01    3,592450321e-01
       81125000   -1,089184284e-01    3,622194231e-01
       81200000   -1,049686223e-01    3,638351858e-01
       81275000   -1,022938043e-01    3,660986125e-01
       81350000   -9,861001372e-02    3,686289191e-01
       81425000   -9,381949902e-02    3,696050942e-01
       81500000   -8,967706561e-02    3,715900779e-01
       81575000   -8,679021895e-02    3,740196824e-01
       81650000   -8,425098658e-02    3,756784201e-01
       81725000   -7,920224220e-02    3,783884943e-01
       81800000   -7,543704659e-02    3,795600533e-01
       81875000   -7,020030916e-02    3,801947534e-01
       81950000   -6,593958288e-02    3,821797967e-01
       82025000   -6,168092042e-02    3,841450512e-01
       82100000   -5,643935129e-02    3,865355551e-01
       82175000   -5,248181522e-02    3,876911104e-01
       82250000   -4,738617316e-02    3,894099295e-01
       82325000   -4,540340602e-02    3,916625977e-01
       82400000   -4,016866907e-02    3,926917315e-01
       82475000   -3,482660279e-02    3,931871653e-01
       82550000   -2,993362024e-02    3,943030536e-01
       82625000   -2,444195934e-02    3,953500092e-01
       82700000   -1,920145564e-02    3,972050250e-01
       82775000   -1,459186897e-02    3,978740573e-01
       82850000   -9,222825989e-03    3,995160460e-01
       82925000   -4,183724523e-03    3,994463682e-01
       83000000    1,195440651e-03    4,017872512e-01
       83075000    6,362447981e-03    4,025752842e-01
       83150000    1,181368716e-02    4,031790793e-01
       83225000    1,702416874e-02    4,043080211e-01
       83300000    2,216872573e-02    4,048704803e-01
       83375000    2,734177187e-02    4,058239460e-01
       83450000    3,275422379e-02    4,049480557e-01
       83525000    3,815960512e-02    4,053745866e-01
       83600000    4,371198639e-02    4,049555957e-01
       83675000    4,919630289e-02    4,062458277e-01
       83750000    5,495278910e-02    4,066909254e-01
       83825000    6,079829857e-02    4,053803682e-01
       83900000    6,603074074e-02    4,048331678e-01
       83975000    7,322756946e-02    4,055188894e-01
       84050000    7,903944701e-02    4,047685266e-01
       84125000    8,258505911e-02    4,049219191e-01
       84200000    9,054584801e-02    4,017758071e-01
       84275000    9,577994049e-02    4,035341740e-01
       84350000    1,015073881e-01    4,030684829e-01
       84425000    1,053482294e-01    4,024661481e-01
       84500000    1,113615334e-01    4,004564881e-01
       84575000    1,185596213e-01    3,971413374e-01
       84650000    1,251629740e-01    3,972558677e-01
       84725000    1,288798004e-01    3,966906369e-01
       84800000    1,341947168e-01    3,939815760e-01
       84875000    1,404272914e-01    3,930789828e-01
       84950000    1,490670592e-01    3,900015056e-01
       85025000    1,533821672e-01    3,873728514e-01
       85100000    1,588624418e-01    3,867785037e-01
       85175000    1,631480157e-01    3,848464191e-01
       85250000    1,693436056e-01    3,815625906e-01
       85325000    1,763654053e-01    3,784639835e-01
       85400000    1,818846017e-01    3,762816191e-01
       85475000    1,865665913e-01    3,737351000e-01
       85550000    1,926680207e-01    3,698538840e-01
       85625000    1,963550597e-01    3,671730459e-01
       85700000    2,020110935e-01    3,621600866e-01
       85775000    2,077663541e-01    3,611275554e-01
       85850000    2,120663673e-01    3,566039801e-01
       85925000    2,164711803e-01    3,544440567e-01
       86000000    2,212760448e-01    3,493372500e-01
       86075000    2,266634256e-01    3,459674418e-01
       86150000    2,320825011e-01    3,428353965e-01
       86225000    2,361501157e-01    3,380222917e-01
       86300000    2,388265878e-01    3,351774812e-01
       86375000    2,430961579e-01    3,312529027e-01
       86450000    2,470904589e-01    3,257192373e-01
       86525000    2,516181767e-01    3,230862319e-01
       86600000    2,546136677e-01    3,169707358e-01
       86675000    2,587739527e-01    3,130687773e-01
       86750000    2,625788748e-01    3,092091382e-01
       86825000    2,659200728e-01    3,046008348e-01
       86900000    2,685325742e-01    3,010787368e-01
       86975000    2,713440061e-01    2,970504463e-01
       87050000    2,750440240e-01    2,908477485e-01
       87125000    2,772083282e-01    2,883045673e-01
       87200000    2,799557447e-01    2,835382819e-01
       87275000    2,827125192e-01    2,785572708e-01
       87350000    2,849847674e-01    2,756577730e-01
       87425000    2,867827415e-01    2,716693580e-01
       87500000    2,897324562e-01    2,673625648e-01
       87575000    2,904934287e-01    2,626704872e-01
       87650000    2,929348350e-01    2,591432631e-01
       87725000    2,957533598e-01    2,548798621e-01
       87800000    2,977316082e-01    2,512419224e-01
       87875000    2,994080484e-01    2,477747798e-01
       87950000    3,007116020e-01    2,429712713e-01
       88025000    3,022566438e-01    2,398573160e-01
       88100000    3,041802943e-01    2,350218594e-01
       88175000    3,067898452e-01    2,308384925e-01
       88250000    3,076511919e-01    2,280730754e-01
       88325000    3,090363145e-01    2,239227742e-01
       88400000    3,105981350e-01    2,192978412e-01
       88475000    3,121395409e-01    2,148941308e-01
       88550000    3,130676150e-01    2,117833644e-01
       88625000    3,137139678e-01    2,087246031e-01
       88700000    3,156488240e-01    2,042806298e-01
       88775000    3,154512048e-01    1,991230100e-01
       88850000    3,173027337e-01    1,950776577e-01
       88925000    3,164387941e-01    1,919739693e-01
       89000000    3,164454997e-01    1,874440908e-01
       89075000    3,172986209e-01    1,833893657e-01
       89150000    3,167014718e-01    1,786116809e-01
       89225000    3,171649873e-01    1,756033897e-01
       89300000    3,164053857e-01    1,730986983e-01
       89375000    3,154580593e-01    1,683409661e-01
       89450000    3,142772317e-01    1,658430398e-01
       89525000    3,137290478e-01    1,619115323e-01
       89600000    3,120278120e-01    1,596723795e-01
       89675000    3,099102974e-01    1,580715328e-01
       89750000    3,087141812e-01    1,552288532e-01
       89825000    3,075333536e-01    1,535369605e-01
       89900000    3,057454526e-01    1,527276337e-01
       89975000    3,041589558e-01    1,507705003e-01
       90050000    3,024120033e-01    1,503608227e-01
       90125000    3,006929457e-01    1,488701999e-01
       90200000    2,992646396e-01    1,485394984e-01
       90275000    2,976617515e-01    1,494066566e-01
       90350000    2,959303558e-01    1,491071135e-01
       90425000    2,955689132e-01    1,496668309e-01
       90500000    2,959895432e-01    1,507278830e-01
       90575000    2,945151031e-01    1,526069492e-01
       90650000    2,947557569e-01    1,538399160e-01
       90725000    2,951824963e-01    1,560738981e-01
       90800000    2,953901589e-01    1,575269997e-01
       90875000    2,961402833e-01    1,595810056e-01
       90950000    2,972488105e-01    1,609661877e-01
       91025000    2,983491719e-01    1,634739935e-01
       91100000    3,007299602e-01    1,646708250e-01
       91175000    3,027545810e-01    1,667661071e-01
       91250000    3,059773445e-01    1,687436104e-01
       91325000    3,082673848e-01    1,707927287e-01
       91400000    3,113895357e-01    1,732589304e-01
       91475000    3,145472705e-01    1,747199297e-01
       91550000    3,182829320e-01    1,767399907e-01
       91625000    3,219429553e-01    1,771636158e-01
       91700000    3,261761665e-01    1,778992116e-01
       91775000    3,312524855e-01    1,789573580e-01
       91850000    3,352774382e-01    1,791234612e-01
       91925000    3,407859802e-01    1,799031943e-01
