! NanoVNA-App
! Date: 2025-08-02 15:44:36
! Start: 65MHz Stop: 95MHz Points: 401
! S-Parameter data: F S11
# Hz S RI R 50
!     Frequency           S11_Real           S11_Imag
       65000000    8,498305082e-02    2,684354484e-01
       65075000    8,897317946e-02    2,651012838e-01
       65150000    9,706842154e-02    2,600077391e-01
       65225000    1,013157740e-01    2,559875250e-01
       65300000    1,069475561e-01    2,512061894e-01
       65375000    1,126493216e-01    2,455127686e-01
       65450000    1,184466109e-01    2,395444661e-01
       65525000    1,221488118e-01    2,348468453e-01
       65600000    1,271015406e-01    2,296687067e-01
       65675000    1,327807456e-01    2,228832543e-01
       65750000    1,375076324e-01    2,180217355e-01
       65825000    1,415626407e-01    2,117389143e-01
       65900000    1,454450637e-01    2,070615888e-01
       65975000    1,490925103e-01    1,999436021e-01
       66050000    1,520284712e-01    1,948001385e-01
       66125000    1,537654549e-01    1,889863759e-01
       66200000    1,587226391e-01    1,845689267e-01
       66275000    1,603408009e-01    1,790199131e-01
       66350000    1,634362787e-01    1,741917729e-01
       66425000    1,661231071e-01    1,689216942e-01
       66500000    1,686840951e-01    1,651298851e-01
       66575000    1,711793989e-01    1,591450274e-01
       66650000    1,727396697e-01    1,541785002e-01
       66725000    1,746850759e-01    1,507607549e-01
       66800000    1,781184226e-01    1,448197514e-01
       66875000    1,792999208e-01    1,405935436e-01
       66950000    1,822072119e-01    1,367307007e-01
       67025000    1,857078224e-01    1,321257055e-01
       67100000    1,878685206e-01    1,269859672e-01
       67175000    1,900986880e-01    1,221010834e-01
       67250000    1,933654100e-01    1,164643317e-01
       67325000    1,961547285e-01    1,119961515e-01
       67400000    1,989983022e-01    1,072399616e-01
       67475000    2,006534338e-01    1,004641280e-01
       67550000    2,027254105e-01    9,619159251e-02
       67625000    2,035426050e-01    9,039852768e-02
       67700000    2,061677873e-01    8,542630076e-02
       67775000    2,069857866e-01    7,920725644e-02
       67850000    2,084141970e-01    7,370570302e-02
       67925000    2,088483125e-01    6,807087362e-02
       68000000    2,099446803e-01    6,322292984e-02
       68075000    2,100460231e-01    5,685909837e-02
       68150000    2,103217244e-01    5,048867315e-02
       68225000    2,106018811e-01    4,729950801e-02
       68300000    2,111424804e-01    4,103678465e-02
       68375000    2,105929404e-01    3,699601442e-02
       68450000    2,104814798e-01    3,084983118e-02
       68525000    2,126049995e-01    2,730070241e-02
       68600000    2,099435478e-01    2,073165402e-02
       68675000    2,108377069e-01    1,707088575e-02
       68750000    2,092922032e-01    1,200475730e-02
       68825000    2,091392726e-01    6,160052959e-03
       68900000    2,076202780e-01    2,224599943e-03
       68975000    2,071459591e-01   -2,809202299e-03
       69050000    2,052920908e-01   -7,585634943e-03
       69125000    2,037547380e-01   -1,108173281e-02
       69200000    2,028013915e-01   -1,526075229e-02
       69275000    2,007324100e-01   -1,824080572e-02
       69350000    1,992153674e-01   -2,196788229e-02
       69425000    1,985628158e-01   -2,623365447e-02
       69500000    1,973915994e-01   -2,832292579e-02
       69575000    1,950657815e-01   -3,371285647e-02
       69650000    1,935809702e-01   -3,574522957e-02
       69725000    1,924285740e-01   -3,711434826e-02
       69800000    1,905769706e-01   -4,164860398e-02
       69875000    1,879355609e-01   -4,275446758e-02
       69950000    1,866939217e-01   -4,628853127e-02
       70025000    1,851958930e-01   -4,847894609e-02
       70100000    1,844837368e-01   -4,981033131e-02
       70175000    1,829110235e-01   -5,293700099e-02
       70250000    1,814889908e-01   -5,605014041e-02
       70325000    1,802477241e-01   -5,627746508e-02
       70400000    1,804815531e-01   -5,879426748e-02
       70475000    1,772805899e-01   -6,090347469e-02
       70550000    1,770408601e-01   -6,325493008e-02
       70625000    1,771603525e-01   -6,320153922e-02
       70700000    1,750764996e-01   -6,630521268e-02
       70775000    1,733468324e-01   -6,874607503e-02
       70850000    1,721440703e-01   -6,983994693e-02
       70925000    1,715621501e-01   -7,202634960e-02
       71000000    1,731918901e-01   -7,420631498e-02
       71075000    1,695513576e-01   -7,520402968e-02
       71150000    1,699947715e-01   -7,818047702e-02
       71225000    1,682170928e-01   -8,026415110e-02
       71300000    1,685194820e-01   -8,046304435e-02
       71375000    1,667323411e-01   -8,390205353e-02
       71450000    1,667050272e-01   -8,442551643e-02
       71525000    1,659725457e-01   -8,605610579e-02
       71600000    1,630658060e-01   -9,037852287e-02
       71675000    1,624472290e-01   -9,001740068e-02
       71750000    1,622843742e-01   -9,143510461e-02
       71825000    1,616879255e-01   -9,421469271e-02
       71900000    1,590737402e-01   -9,412255883e-02
       71975000    1,594463140e-01   -9,694530070e-02
       72050000    1,576518714e-01   -1,002024412e-01
       72125000    1,559609324e-01   -1,001249999e-01
       72200000    1,563826501e-01   -1,044205502e-01
       72275000    1,538915336e-01   -1,032376364e-01
       72350000    1,526414156e-01   -1,041728482e-01
       72425000    1,512919217e-01   -1,082757860e-01
       72500000    1,513608843e-01   -1,065716818e-01
       72575000    1,487334073e-01   -1,121365204e-01
       72650000    1,455118060e-01   -1,092760265e-01
       72725000    1,451819688e-01   -1,142908186e-01
       72800000    1,444711685e-01   -1,141273305e-01
       72875000    1,420367211e-01   -1,147155464e-01
       72950000    1,409191340e-01   -1,149587706e-01
       73025000    1,394013911e-01   -1,172171310e-01
       73100000    1,363149434e-01   -1,153063551e-01
       73175000    1,367618144e-01   -1,169250906e-01
       73250000    1,361635774e-01   -1,181832030e-01
       73325000    1,333712786e-01   -1,164327636e-01
       73400000    1,336377114e-01   -1,191923842e-01
       73475000    1,306747943e-01   -1,178517044e-01
       73550000    1,303344071e-01   -1,179181933e-01
       73625000    1,286522448e-01   -1,195505336e-01
       73700000    1,263865083e-01   -1,210177317e-01
       73775000    1,261849403e-01   -1,195074543e-01
       73850000    1,242960840e-01   -1,219018623e-01
       73925000    1,252536923e-01   -1,204651222e-01
       74000000    1,223821566e-01   -1,194509044e-01
       74075000    1,217078343e-01   -1,200392768e-01
       74150000    1,211163625e-01   -1,225991994e-01
       74225000    1,202150434e-01   -1,195492297e-01
       74300000    1,189906597e-01   -1,222141832e-01
       74375000    1,185277775e-01   -1,201590672e-01
       74450000    1,178363636e-01   -1,195724756e-01
       74525000    1,162515730e-01   -1,195653006e-01
       74600000    1,141772941e-01   -1,203848869e-01
       74675000    1,160374731e-01   -1,203535050e-01
       74750000    1,138440743e-01   -1,210193112e-01
       74825000    1,146583706e-01   -1,195808798e-01
       74900000    1,127157807e-01   -1,185747087e-01
       74975000    1,130790934e-01   -1,186219379e-01
       75050000    1,113156974e-01   -1,195600331e-01
       75125000    1,103571728e-01   -1,186870635e-01
       75200000    1,124212593e-01   -1,179930344e-01
       75275000    1,090235561e-01   -1,186082289e-01
       75350000    1,100149080e-01   -1,172450036e-01
       75425000    1,115525737e-01   -1,173722520e-01
       75500000    1,096690223e-01   -1,171131879e-01
       75575000    1,091311425e-01   -1,158869639e-01
       75650000    1,108801588e-01   -1,184950173e-01
       75725000    1,083185673e-01   -1,173439622e-01
       75800000    1,080885977e-01   -1,150688976e-01
       75875000    1,085068285e-01   -1,178108081e-01
       75950000    1,079413295e-01   -1,143780127e-01
       76025000    1,061094776e-01   -1,151277348e-01
       76100000    1,072530821e-01   -1,142130792e-01
       76175000    1,058385894e-01   -1,143748388e-01
       76250000    1,064784154e-01   -1,120146587e-01
       76325000    1,063353345e-01   -1,119656116e-01
       76400000    1,068751663e-01   -1,115933508e-01
       76475000    1,038223803e-01   -1,126652882e-01
       76550000    1,049104333e-01   -1,096493080e-01
       76625000    1,044145674e-01   -1,080436036e-01
       76700000    1,062701494e-01   -1,074815020e-01
       76775000    1,059927866e-01   -1,083663851e-01
       76850000    1,040087640e-01   -1,058703959e-01
       76925000    1,058213636e-01   -1,073169559e-01
       77000000    1,047071144e-01   -1,046469808e-01
       77075000    1,054518893e-01   -1,039295569e-01
       77150000    1,046339646e-01   -1,026536450e-01
       77225000    1,042560413e-01   -1,010032147e-01
       77300000    1,055957302e-01   -9,969481081e-02
       77375000    1,050651819e-01   -9,887443483e-02
       77450000    1,061215550e-01   -9,711699188e-02
       77525000    1,062844619e-01   -9,652279317e-02
       77600000    1,084216312e-01   -9,432649612e-02
       77675000    1,089855283e-01   -9,518656135e-02
       77750000    1,099281311e-01   -9,175671637e-02
       77825000    1,106367707e-01   -9,092383832e-02
       77900000    1,116395593e-01   -8,819111437e-02
       77975000    1,128444597e-01   -8,704166859e-02
       78050000    1,134590358e-01   -8,706004173e-02
       78125000    1,167619526e-01   -8,470745385e-02
       78200000    1,157049909e-01   -8,405504376e-02
       78275000    1,196504831e-01   -8,180851489e-02
       78350000    1,220313683e-01   -8,093567193e-02
       78425000    1,205501109e-01   -7,940827310e-02
       78500000    1,249727011e-01   -7,781679183e-02
       78575000    1,266863644e-01   -7,921917737e-02
       78650000    1,278508157e-01   -7,658489794e-02
       78725000    1,305707991e-01   -7,582058012e-02
       78800000    1,342767328e-01   -7,465240359e-02
       78875000    1,350850463e-01   -7,624267787e-02
       78950000    1,386133283e-01   -7,385714352e-02
       79025000    1,415952295e-01   -7,282399386e-02
       79100000    1,441362351e-01   -7,316307724e-02
       79175000    1,454240531e-01   -7,276904583e-02
       79250000    1,494046748e-01   -7,254545391e-02
       79325000    1,519145519e-01   -7,169173658e-02
       79400000    1,557372808e-01   -7,387819141e-02
       79475000    1,569211781e-01   -7,202303410e-02
       79550000    1,604860574e-01   -7,225228846e-02
       79625000    1,632147729e-01   -7,255434990e-02
       79700000    1,663270742e-01   -7,479529083e-02
       79775000    1,693041921e-01   -7,413983345e-02
       79850000    1,720088273e-01   -7,479038835e-02
       79925000    1,740406752e-01   -7,510904223e-02
       80000000    1,770040095e-01   -7,501420379e-02
       80075000    1,783355176e-01   -7,726639509e-02
       80150000    1,822263002e-01   -7,796140015e-02
       80225000    1,848493963e-01   -7,887736708e-02
       80300000    1,883752644e-01   -8,042073250e-02
       80375000    1,890641898e-01   -8,156867325e-02
       80450000    1,928385049e-01   -8,197440207e-02
       80525000    1,952145994e-01   -8,474893123e-02
       80600000    1,972891390e-01   -8,524239808e-02
       80675000    2,009534836e-01   -8,640684187e-02
       80750000    2,016554326e-01   -9,130381048e-02
       80825000    2,046303749e-01   -8,997540921e-02
       80900000    2,081647813e-01   -9,087549150e-02
       80975000    2,106410563e-01   -9,469741583e-02
       81050000    2,134438604e-01   -9,778464586e-02
       81125000    2,148438990e-01   -9,797115624e-02
       81200000    2,163235247e-01   -1,001011953e-01
       81275000    2,183468193e-01   -1,043624431e-01
       81350000    2,207707912e-01   -1,043247059e-01
       81425000    2,224128693e-01   -1,078048870e-01
       81500000    2,237908989e-01   -1,094992384e-01
       81575000    2,240469009e-01   -1,123981550e-01
       81650000    2,262637764e-01   -1,144005060e-01
       81725000    2,279822230e-01   -1,165725216e-01
       81800000    2,289077491e-01   -1,186356321e-01
       81875000    2,299223393e-01   -1,221773103e-01
       81950000    2,304255813e-01   -1,229079664e-01
       82025000    2,323221862e-01   -1,263527721e-01
       82100000    2,321865261e-01   -1,280314475e-01
       82175000    2,313286662e-01   -1,302788109e-01
       82250000    2,330162227e-01   -1,321664155e-01
       82325000    2,327272594e-01   -1,343170255e-01
       82400000    2,333649397e-01   -1,349810511e-01
       82475000    2,349285632e-01   -1,371024549e-01
       82550000    2,339448482e-01   -1,395160854e-01
       82625000    2,363524139e-01   -1,402677000e-01
       82700000    2,368426472e-01   -1,416993439e-01
       82775000    2,362364233e-01   -1,441171765e-01
       82850000    2,385166138e-01   -1,438589692e-01
       82925000    2,364613116e-01   -1,475374550e-01
       83000000    2,383966595e-01   -1,462993175e-01
       83075000    2,408242077e-01   -1,486484408e-01
       83150000    2,403551340e-01   -1,475178301e-01
       83225000    2,423270047e-01   -1,512463540e-01
       83300000    2,427489609e-01   -1,513699591e-01
       83375000    2,431757152e-01   -1,515268981e-01
       83450000    2,444594055e-01   -1,534499675e-01
       83525000    2,449772805e-01   -1,541324854e-01
       83600000    2,455567867e-01   -1,548910439e-01
       83675000    2,475605905e-01   -1,561527401e-01
       83750000    2,500786483e-01   -1,589094698e-01
       83825000    2,494511455e-01   -1,581060886e-01
       83900000    2,510409355e-01   -1,592973024e-01
       83975000    2,544172704e-01   -1,604160070e-01
       84050000    2,533560693e-01   -1,634226888e-01
       84125000    2,558819652e-01   -1,637353897e-01
       84200000    2,580268681e-01   -1,637796462e-01
       84275000    2,592946589e-01   -1,654035151e-01
       84350000    2,573692501e-01   -1,683065146e-01
       84425000    2,615337372e-01   -1,686323881e-01
       84500000    2,641757429e-01   -1,703482121e-01
       84575000    2,637017071e-01   -1,722775698e-01
       84650000    2,665085196e-01   -1,718364805e-01
       84725000    2,685539722e-01   -1,742487550e-01
       84800000    2,694968581e-01   -1,766960919e-01
       84875000    2,706124187e-01   -1,766158938e-01
       84950000    2,731281519e-01   -1,786516905e-01
       85025000    2,755759060e-01   -1,800619215e-01
       85100000    2,766414285e-01   -1,811264902e-01
       85175000    2,773118913e-01   -1,846408844e-01
       85250000    2,801318467e-01   -1,839817613e-01
       85325000    2,827084661e-01   -1,862048805e-01
       85400000    2,836476862e-01   -1,872480363e-01
       85475000    2,833190858e-01   -1,896976829e-01
       85550000    2,849339843e-01   -1,897905022e-01
       85625000    2,886886597e-01   -1,926120520e-01
       85700000    2,903170884e-01   -1,948712170e-01
       85775000    2,935841680e-01   -1,965346485e-01
       85850000    2,958526313e-01   -1,997662485e-01
       85925000    2,953588665e-01   -2,024941891e-01
       86000000    2,979212701e-01   -2,028631866e-01
       86075000    3,015462458e-01   -2,056109011e-01
       86150000    3,025211394e-01   -2,100335956e-01
       86225000    3,032389581e-01   -2,114589512e-01
       86300000    3,075576127e-01   -2,128565162e-01
       86375000    3,096886277e-01   -2,156497091e-01
       86450000    3,097316027e-01   -2,170623243e-01
       86525000    3,131308854e-01   -2,206253260e-01
       86600000    3,143187761e-01   -2,226345986e-01
       86675000    3,177535236e-01   -2,262137085e-01
       86750000    3,164309263e-01   -2,297659069e-01
       86825000    3,190976679e-01   -2,317435890e-01
       86900000    3,224460483e-01   -2,370806187e-01
       86975000    3,235320449e-01   -2,414065301e-01
       87050000    3,234826326e-01   -2,413681298e-01
       87125000    3,268164396e-01   -2,447984219e-01
       87200000    3,287319243e-01   -2,480973005e-01
       87275000    3,311409354e-01   -2,525875866e-01
       87350000    3,299037814e-01   -2,582027316e-01
       87425000    3,323204517e-01   -2,591704428e-01
       87500000    3,350869715e-01   -2,574205995e-01
       87575000    3,333632350e-01   -2,684513927e-01
       87650000    3,350636959e-01   -2,683877051e-01
       87725000    3,347667754e-01   -2,716906369e-01
       87800000    3,389173448e-01   -2,756687999e-01
       87875000    3,351426125e-01   -2,805937529e-01
       87950000    3,399841785e-01   -2,831776440e-01
       88025000    3,410089314e-01   -2,889133394e-01
       88100000    3,424736857e-01   -2,897877395e-01
       88175000    3,415946960e-01   -2,937389910e-01
       88250000    3,411668539e-01   -2,964583337e-01
       88325000    3,474320769e-01   -3,015015423e-01
       88400000    3,448997736e-01   -3,043380976e-01
       88475000    3,469883800e-01   -3,081962466e-01
       88550000    3,456972539e-01   -3,104738593e-01
       88625000    3,462593853e-01   -3,192077577e-01
       88700000    3,450990021e-01   -3,187210560e-01
       88775000    3,495560884e-01   -3,221616447e-01
       88850000    3,488712609e-01   -3,261978328e-01
       88925000    3,503267765e-01   -3,312877119e-01
       89000000    3,507608473e-01   -3,376177549e-01
       89075000    3,508053124e-01   -3,374032974e-01
       89150000    3,524891436e-01   -3,433977962e-01
       89225000    3,516121209e-01   -3,447438776e-01
       89300000    3,491155505e-01   -3,491729200e-01
       89375000    3,516669869e-01   -3,540852070e-01
       89450000    3,507091999e-01   -3,581367135e-01
       89525000    3,550876081e-01   -3,634839356e-01
       89600000    3,536556363e-01   -3,647614717e-01
       89675000    3,545546532e-01   -3,720376790e-01
       89750000    3,543129861e-01   -3,780423701e-01
       89825000    3,520022333e-01   -3,808766305e-01
       89900000    3,519731164e-01   -3,876726925e-01
       89975000    3,540272713e-01   -3,887843788e-01
       90050000    3,529933691e-01   -3,946439326e-01
       90125000    3,540364206e-01   -3,961499631e-01
       90200000    3,509071767e-01   -4,004377127e-01
       90275000    3,535922170e-01   -4,065957367e-01
       90350000    3,526298106e-01   -4,131953418e-01
       90425000    3,505666852e-01   -4,151497781e-01
       90500000    3,477728069e-01   -4,181457162e-01
       90575000    3,509860635e-01   -4,263699353e-01
       90650000    3,504763544e-01   -4,293742776e-01
       90725000    3,488191664e-01   -4,347684085e-01
       90800000    3,484930098e-01   -4,426520169e-01
       90875000    3,479290605e-01   -4,428317547e-01
       90950000    3,476538658e-01   -4,497582614e-01
       91025000    3,453900218e-01   -4,556394219e-01
       91100000    3,435095251e-01   -4,585287571e-01
       91175000    3,421724737e-01   -4,604556859e-01
       91250000    3,385090530e-01   -4,652418792e-01
       91325000    3,362007141e-01   -4,703827798e-01
       91400000    3,349272907e-01   -4,771353602e-01
       91475000    3,307521641e-01   -4,859142601e-01
       91550000    3,324958980e-01   -4,876841307e-01
       91625000    3,294731379e-01   -4,910807014e-01
       91700000    3,282672465e-01   -4,994929135e-01
       91775000    3,260389268e-01   -4,974859357e-01
       91850000    3,241251707e-01   -5,046477318e-01
       91925000    3,203525245e-01   -5,073098540e-01
