! NanoVNA-App
! Date: 2025-08-09 13:11:52
! Start: 65MHz Stop: 95MHz Points: 401
! S-Parameter data: F S11
# Hz S RI R 50
!     Frequency           S11_Real           S11_Imag
       65000000    3,589383364e-01    2,050251514e-01
       65075000    3,602660894e-01    2,041879743e-01
       65150000    3,605677485e-01    1,997568756e-01
       65225000    3,606757820e-01    1,956224144e-01
       65300000    3,614206612e-01    1,904769540e-01
       65375000    3,616887927e-01    1,862158924e-01
       65450000    3,626889884e-01    1,820133179e-01
       65525000    3,628304899e-01    1,775618494e-01
       65600000    3,630509377e-01    1,733836085e-01
       65675000    3,642174900e-01    1,694658846e-01
       65750000    3,639363945e-01    1,647771895e-01
       65825000    3,643243909e-01    1,609972864e-01
       65900000    3,642144203e-01    1,564671546e-01
       65975000    3,646866083e-01    1,525648981e-01
       66050000    3,654468358e-01    1,479742974e-01
       66125000    3,654429317e-01    1,446465850e-01
       66200000    3,661259413e-01    1,413536072e-01
       66275000    3,672832847e-01    1,371680498e-01
       66350000    3,664472997e-01    1,326546222e-01
       66425000    3,676137030e-01    1,296515167e-01
       66500000    3,673691154e-01    1,247428134e-01
       66575000    3,673889935e-01    1,220185235e-01
       66650000    3,680146933e-01    1,172292605e-01
       66725000    3,680207729e-01    1,145285666e-01
       66800000    3,697135448e-01    1,115227044e-01
       66875000    3,689223528e-01    1,076920033e-01
       66950000    3,699994683e-01    1,043774858e-01
       67025000    3,709828854e-01    1,013272479e-01
       67100000    3,712285161e-01    9,642950445e-02
       67175000    3,715438843e-01    9,373772144e-02
       67250000    3,736961186e-01    8,951515704e-02
       67325000    3,741777539e-01    8,546270430e-02
       67400000    3,742827177e-01    8,281521499e-02
       67475000    3,752133548e-01    7,871405035e-02
       67550000    3,756239116e-01    7,341457903e-02
       67625000    3,757840097e-01    7,147020102e-02
       67700000    3,763711751e-01    6,669389457e-02
       67775000    3,763896227e-01    6,329561025e-02
       67850000    3,772775829e-01    6,002770364e-02
       67925000    3,774248064e-01    5,551023036e-02
       68000000    3,782588542e-01    5,257369578e-02
       68075000    3,793751895e-01    4,897030443e-02
       68150000    3,791804910e-01    4,477886856e-02
       68225000    3,798261285e-01    4,041451216e-02
       68300000    3,795358539e-01    3,565894812e-02
       68375000    3,807155192e-01    3,241196647e-02
       68450000    3,801212609e-01    2,851440012e-02
       68525000    3,797827661e-01    2,415652759e-02
       68600000    3,803069890e-01    1,976369321e-02
       68675000    3,792857528e-01    1,687608659e-02
       68750000    3,797362149e-01    1,266423613e-02
       68825000    3,784192502e-01    6,601092871e-03
       68900000    3,789427578e-01    4,176799208e-03
       68975000    3,777912557e-01   -9,174545994e-04
       69050000    3,777774274e-01   -4,248375539e-03
       69125000    3,765916228e-01   -9,067484178e-03
       69200000    3,755349815e-01   -1,112176664e-02
       69275000    3,742899597e-01   -1,741954312e-02
       69350000    3,735467196e-01   -1,920910925e-02
       69425000    3,724355102e-01   -2,408651821e-02
       69500000    3,706761003e-01   -2,634610608e-02
       69575000    3,694737852e-01   -3,121079691e-02
       69650000    3,683580458e-01   -3,318805620e-02
       69725000    3,664367795e-01   -3,821942955e-02
       69800000    3,649590313e-01   -4,030925781e-02
       69875000    3,641811907e-01   -4,318003729e-02
       69950000    3,603509665e-01   -4,803323001e-02
       70025000    3,602428734e-01   -4,854487255e-02
       70100000    3,586289883e-01   -5,136265233e-02
       70175000    3,562744558e-01   -5,587106571e-02
       70250000    3,553925455e-01   -5,673070252e-02
       70325000    3,537688255e-01   -5,992493033e-02
       70400000    3,509235084e-01   -6,182733551e-02
       70475000    3,499490023e-01   -6,412715465e-02
       70550000    3,480605185e-01   -6,712156534e-02
       70625000    3,455918729e-01   -6,835505366e-02
       70700000    3,442818224e-01   -7,060118765e-02
       70775000    3,421238363e-01   -7,293660194e-02
       70850000    3,411632776e-01   -7,391206920e-02
       70925000    3,399958313e-01   -7,504906505e-02
       71000000    3,376739323e-01   -7,656635344e-02
       71075000    3,371629417e-01   -7,861902565e-02
       71150000    3,357024789e-01   -7,918172330e-02
       71225000    3,352340460e-01   -8,220589161e-02
       71300000    3,329370916e-01   -8,281171322e-02
       71375000    3,324846923e-01   -8,424726129e-02
       71450000    3,300360739e-01   -8,579821885e-02
       71525000    3,289234340e-01   -8,751811832e-02
       71600000    3,281821907e-01   -8,793734759e-02
       71675000    3,278620541e-01   -8,934792131e-02
       71750000    3,258703649e-01   -9,172824770e-02
       71825000    3,258521259e-01   -9,166622162e-02
       71900000    3,242528439e-01   -9,407285601e-02
       71975000    3,228225112e-01   -9,495285898e-02
       72050000    3,226947486e-01   -9,540474415e-02
       72125000    3,219321668e-01   -9,683694690e-02
       72200000    3,210296631e-01   -9,733336419e-02
       72275000    3,198608458e-01   -9,963953495e-02
       72350000    3,185089231e-01   -1,005545482e-01
       72425000    3,181042075e-01   -1,013704389e-01
       72500000    3,163666725e-01   -1,032734066e-01
       72575000    3,165100813e-01   -1,033387929e-01
       72650000    3,170595467e-01   -1,056201756e-01
       72725000    3,141780198e-01   -1,060473397e-01
       72800000    3,143661022e-01   -1,071093455e-01
       72875000    3,132959008e-01   -1,090485901e-01
       72950000    3,130658567e-01   -1,094106510e-01
       73025000    3,119980097e-01   -1,101078987e-01
       73100000    3,121147454e-01   -1,103118211e-01
       73175000    3,112393916e-01   -1,121409237e-01
       73250000    3,110299110e-01   -1,120126098e-01
       73325000    3,105937541e-01   -1,137425900e-01
       73400000    3,100781441e-01   -1,154316142e-01
       73475000    3,094349802e-01   -1,155241728e-01
       73550000    3,096609414e-01   -1,161208600e-01
       73625000    3,084574342e-01   -1,165496707e-01
       73700000    3,080724180e-01   -1,175759435e-01
       73775000    3,072866797e-01   -1,184773892e-01
       73850000    3,083773255e-01   -1,201852113e-01
       73925000    3,070995212e-01   -1,221779138e-01
       74000000    3,071208894e-01   -1,220610291e-01
       74075000    3,073795140e-01   -1,224223450e-01
       74150000    3,059500754e-01   -1,236835867e-01
       74225000    3,049793839e-01   -1,249214560e-01
       74300000    3,059418797e-01   -1,249267459e-01
       74375000    3,048410714e-01   -1,274130195e-01
       74450000    3,053379953e-01   -1,271606982e-01
       74525000    3,054341972e-01   -1,287095249e-01
       74600000    3,042851090e-01   -1,288176477e-01
       74675000    3,041533530e-01   -1,305659860e-01
       74750000    3,027292490e-01   -1,315739900e-01
       74825000    3,039050102e-01   -1,324853301e-01
       74900000    3,028928041e-01   -1,346722245e-01
       74975000    3,031384647e-01   -1,338887215e-01
       75050000    3,032559156e-01   -1,351328939e-01
       75125000    3,009274304e-01   -1,359706521e-01
       75200000    3,020368516e-01   -1,374185532e-01
       75275000    3,007947206e-01   -1,383952647e-01
       75350000    3,014752269e-01   -1,387564838e-01
       75425000    3,003820181e-01   -1,414448321e-01
       75500000    3,004693687e-01   -1,418272108e-01
       75575000    3,001621068e-01   -1,430508941e-01
       75650000    2,997901738e-01   -1,431241035e-01
       75725000    2,999351323e-01   -1,449320465e-01
       75800000    2,998352349e-01   -1,446950436e-01
       75875000    2,989770770e-01   -1,466831714e-01
       75950000    2,984359264e-01   -1,461292356e-01
       76025000    2,988601923e-01   -1,469893008e-01
       76100000    2,970578372e-01   -1,486356407e-01
       76175000    2,976663113e-01   -1,485621929e-01
       76250000    2,976743281e-01   -1,504053026e-01
       76325000    2,962453961e-01   -1,488709450e-01
       76400000    2,963455617e-01   -1,507383436e-01
       76475000    2,950015962e-01   -1,523428112e-01
       76550000    2,944993079e-01   -1,508114487e-01
       76625000    2,947631478e-01   -1,520874202e-01
       76700000    2,932102382e-01   -1,527464241e-01
       76775000    2,940114439e-01   -1,524418890e-01
       76850000    2,934603989e-01   -1,533065587e-01
       76925000    2,931582034e-01   -1,554695815e-01
       77000000    2,926487327e-01   -1,553181410e-01
       77075000    2,920771241e-01   -1,561565250e-01
       77150000    2,909945548e-01   -1,562115550e-01
       77225000    2,920404971e-01   -1,564414650e-01
       77300000    2,892448902e-01   -1,553657651e-01
       77375000    2,903563082e-01   -1,565011144e-01
       77450000    2,885505557e-01   -1,581206024e-01
       77525000    2,878054380e-01   -1,574510783e-01
       77600000    2,881587446e-01   -1,570712477e-01
       77675000    2,878755331e-01   -1,585063934e-01
       77750000    2,881483734e-01   -1,565729529e-01
       77825000    2,872710824e-01   -1,564794034e-01
       77900000    2,874685824e-01   -1,583602577e-01
       77975000    2,859523892e-01   -1,542372257e-01
       78050000    2,856488526e-01   -1,543153375e-01
       78125000    2,859655917e-01   -1,554611474e-01
       78200000    2,861469984e-01   -1,511215419e-01
       78275000    2,870887518e-01   -1,509125382e-01
       78350000    2,887650430e-01   -1,499439925e-01
       78425000    2,904595137e-01   -1,491810381e-01
       78500000    2,920821607e-01   -1,482775360e-01
       78575000    2,935780287e-01   -1,474564970e-01
       78650000    2,944300175e-01   -1,483628303e-01
       78725000    2,967778742e-01   -1,490250677e-01
       78800000    2,971433103e-01   -1,485963017e-01
       78875000    2,977186143e-01   -1,486701667e-01
       78950000    2,993288636e-01   -1,488435715e-01
       79025000    2,989175618e-01   -1,503532529e-01
       79100000    3,013190627e-01   -1,496086717e-01
       79175000    3,035021126e-01   -1,498765051e-01
       79250000    3,036500514e-01   -1,486042589e-01
       79325000    3,049378693e-01   -1,494060904e-01
       79400000    3,056145608e-01   -1,494419128e-01
       79475000    3,080272079e-01   -1,505935788e-01
       79550000    3,098120391e-01   -1,507505327e-01
       79625000    3,115737736e-01   -1,496049911e-01
       79700000    3,123278916e-01   -1,504429281e-01
       79775000    3,127992153e-01   -1,516928524e-01
       79850000    3,159677386e-01   -1,509345621e-01
       79925000    3,169617653e-01   -1,516933590e-01
       80000000    3,178290427e-01   -1,528931558e-01
       80075000    3,217204511e-01   -1,510763168e-01
       80150000    3,219744563e-01   -1,516176164e-01
       80225000    3,255915642e-01   -1,539021134e-01
       80300000    3,274914920e-01   -1,538437605e-01
       80375000    3,302243054e-01   -1,539543569e-01
       80450000    3,298825920e-01   -1,548717320e-01
       80525000    3,328226805e-01   -1,553455591e-01
       80600000    3,337050080e-01   -1,561065316e-01
       80675000    3,377510011e-01   -1,573872268e-01
       80750000    3,406319916e-01   -1,594171673e-01
       80825000    3,412995934e-01   -1,586167812e-01
       80900000    3,445186019e-01   -1,597544104e-01
       80975000    3,474424183e-01   -1,628137827e-01
       81050000    3,485156298e-01   -1,617618799e-01
       81125000    3,516688645e-01   -1,641409248e-01
       81200000    3,529061675e-01   -1,654400378e-01
       81275000    3,556627929e-01   -1,674463898e-01
       81350000    3,573532701e-01   -1,686587185e-01
       81425000    3,609568179e-01   -1,709214449e-01
       81500000    3,632320762e-01   -1,734570563e-01
       81575000    3,651018739e-01   -1,745843440e-01
       81650000    3,670934141e-01   -1,764266640e-01
       81725000    3,701122403e-01   -1,778360754e-01
       81800000    3,706851900e-01   -1,796232462e-01
       81875000    3,733669817e-01   -1,828402579e-01
       81950000    3,747907281e-01   -1,859960407e-01
       82025000    3,780528605e-01   -1,872371584e-01
       82100000    3,806123435e-01   -1,905951053e-01
       82175000    3,831436336e-01   -1,916783750e-01
       82250000    3,850240707e-01   -1,945942044e-01
       82325000    3,862525225e-01   -1,950167567e-01
       82400000    3,889735043e-01   -1,985831559e-01
       82475000    3,897635341e-01   -2,010751665e-01
       82550000    3,932934701e-01   -2,036375552e-01
       82625000    3,934946060e-01   -2,071901411e-01
       82700000    3,967469037e-01   -2,092154622e-01
       82775000    3,967213333e-01   -2,137783915e-01
       82850000    3,999565840e-01   -2,159718722e-01
       82925000    4,010982513e-01   -2,192808688e-01
       83000000    4,046978652e-01   -2,222420424e-01
       83075000    4,046324790e-01   -2,260370106e-01
       83150000    4,078676999e-01   -2,284310609e-01
       83225000    4,085396826e-01   -2,331301123e-01
       83300000    4,110106528e-01   -2,357152700e-01
       83375000    4,128308594e-01   -2,400331348e-01
       83450000    4,133863449e-01   -2,407168597e-01
       83525000    4,159431159e-01   -2,449475229e-01
       83600000    4,162658751e-01   -2,485242337e-01
       83675000    4,189980328e-01   -2,525035143e-01
       83750000    4,206019044e-01   -2,568093538e-01
       83825000    4,198432565e-01   -2,593932152e-01
       83900000    4,224959016e-01   -2,633699179e-01
       83975000    4,214277267e-01   -2,691049278e-01
       84050000    4,236313403e-01   -2,728004158e-01
       84125000    4,233396351e-01   -2,776541710e-01
       84200000    4,252111316e-01   -2,782057822e-01
       84275000    4,256224930e-01   -2,836452723e-01
       84350000    4,254480302e-01   -2,878057659e-01
       84425000    4,271065295e-01   -2,916707098e-01
       84500000    4,271155596e-01   -2,970873713e-01
       84575000    4,288378656e-01   -2,988501191e-01
       84650000    4,288971722e-01   -3,036155701e-01
       84725000    4,281989336e-01   -3,099251986e-01
       84800000    4,298120737e-01   -3,131112456e-01
       84875000    4,287896752e-01   -3,186627328e-01
       84950000    4,285327792e-01   -3,198374808e-01
       85025000    4,302448630e-01   -3,256402016e-01
       85100000    4,295282662e-01   -3,289504647e-01
       85175000    4,275982976e-01   -3,344886303e-01
       85250000    4,290474951e-01   -3,389858007e-01
       85325000    4,289223850e-01   -3,433361948e-01
       85400000    4,280323982e-01   -3,461884856e-01
       85475000    4,274353087e-01   -3,509236574e-01
       85550000    4,265991151e-01   -3,568902016e-01
       85625000    4,230700731e-01   -3,599961102e-01
       85700000    4,241293073e-01   -3,650859594e-01
       85775000    4,227221012e-01   -3,673430383e-01
       85850000    4,203726649e-01   -3,738095760e-01
       85925000    4,178593159e-01   -3,755889237e-01
       86000000    4,185905755e-01   -3,799624443e-01
       86075000    4,154033065e-01   -3,844222724e-01
       86150000    4,166606665e-01   -3,876394629e-01
       86225000    4,143399000e-01   -3,921079934e-01
       86300000    4,132913649e-01   -3,950008154e-01
       86375000    4,105883539e-01   -3,988648057e-01
       86450000    4,077835381e-01   -4,012617171e-01
       86525000    4,071117640e-01   -4,068928659e-01
       86600000    4,050844908e-01   -4,089267850e-01
       86675000    4,005987346e-01   -4,125399292e-01
       86750000    4,005342126e-01   -4,159567654e-01
       86825000    3,976174891e-01   -4,185692966e-01
       86900000    3,957487345e-01   -4,250892103e-01
       86975000    3,938975930e-01   -4,282188416e-01
       87050000    3,905197084e-01   -4,283199310e-01
       87125000    3,892423511e-01   -4,338804185e-01
       87200000    3,854340315e-01   -4,369630516e-01
       87275000    3,848463893e-01   -4,368831217e-01
       87350000    3,817705512e-01   -4,413652420e-01
       87425000    3,778512776e-01   -4,448854625e-01
       87500000    3,778564632e-01   -4,487232268e-01
       87575000    3,741788566e-01   -4,506979883e-01
       87650000    3,730084300e-01   -4,504007399e-01
       87725000    3,709424138e-01   -4,523490667e-01
       87800000    3,680647314e-01   -4,535601735e-01
       87875000    3,650510609e-01   -4,563904405e-01
       87950000    3,634849489e-01   -4,614078403e-01
       88025000    3,591525555e-01   -4,630117714e-01
       88100000    3,591304719e-01   -4,644455016e-01
       88175000    3,563971817e-01   -4,653940499e-01
       88250000    3,530838490e-01   -4,665296078e-01
       88325000    3,536477089e-01   -4,707102478e-01
       88400000    3,491696119e-01   -4,744605422e-01
       88475000    3,475609124e-01   -4,746597409e-01
       88550000    3,449035585e-01   -4,775965512e-01
       88625000    3,395420015e-01   -4,779083133e-01
       88700000    3,392710090e-01   -4,793325365e-01
       88775000    3,366687596e-01   -4,821123481e-01
       88850000    3,337170184e-01   -4,830312431e-01
       88925000    3,288591504e-01   -4,849036336e-01
       89000000    3,276533484e-01   -4,860718548e-01
       89075000    3,243137300e-01   -4,900645614e-01
       89150000    3,228082359e-01   -4,889372289e-01
       89225000    3,200421631e-01   -4,911785722e-01
       89300000    3,177882135e-01   -4,895172119e-01
       89375000    3,147847056e-01   -4,911302626e-01
       89450000    3,118107021e-01   -4,906009436e-01
       89525000    3,084090352e-01   -4,928689003e-01
       89600000    3,036046028e-01   -4,937919676e-01
       89675000    3,015534580e-01   -4,917929471e-01
       89750000    3,009737134e-01   -4,922647774e-01
       89825000    3,004197180e-01   -4,910711944e-01
       89900000    2,953637838e-01   -4,897106588e-01
       89975000    2,949675024e-01   -4,902105033e-01
       90050000    2,914122641e-01   -4,898231626e-01
       90125000    2,918307781e-01   -4,904685616e-01
       90200000    2,905608416e-01   -4,901255071e-01
       90275000    2,870588303e-01   -4,872709811e-01
       90350000    2,877623737e-01   -4,870325923e-01
       90425000    2,878769040e-01   -4,879919887e-01
       90500000    2,887612283e-01   -4,859575033e-01
       90575000    2,893399596e-01   -4,844751656e-01
       90650000    2,874167860e-01   -4,863728583e-01
       90725000    2,880644202e-01   -4,828657210e-01
       90800000    2,902275920e-01   -4,827522933e-01
       90875000    2,870638371e-01   -4,829540253e-01
       90950000    2,901648879e-01   -4,840849340e-01
       91025000    2,896949649e-01   -4,843028784e-01
       91100000    2,924859226e-01   -4,840827882e-01
       91175000    2,928862572e-01   -4,857823253e-01
       91250000    2,956357598e-01   -4,850897193e-01
       91325000    2,972545326e-01   -4,877626598e-01
       91400000    2,982308567e-01   -4,866052866e-01
       91475000    3,003508151e-01   -4,879730940e-01
       91550000    2,994176745e-01   -4,894480407e-01
       91625000    3,019333780e-01   -4,911387265e-01
       91700000    3,010623753e-01   -4,934678972e-01
       91775000    3,037404120e-01   -4,967060983e-01
       91850000    3,043740690e-01   -4,989849031e-01
       91925000    3,068619370e-01   -5,015442371e-01
