! NanoVNA-App
! Date: 2025-08-09 13:28:03
! Start: 65MHz Stop: 95MHz Points: 401
! S-Parameter data: F S11
# Hz S RI R 50
!     Frequency           S11_Real           S11_Imag
       65000000   -5,073533058e-01    2,209233195e-01
       65075000   -5,030687451e-01    2,209456414e-01
       65150000   -4,978014827e-01    2,241609991e-01
       65225000   -4,944662452e-01    2,247814685e-01
       65300000   -4,887438118e-01    2,259173244e-01
       65375000   -4,834296703e-01    2,269685864e-01
       65450000   -4,772437215e-01    2,314714193e-01
       65525000   -4,733183980e-01    2,306908369e-01
       65600000   -4,673578441e-01    2,322742045e-01
       65675000   -4,638347030e-01    2,343527377e-01
       65750000   -4,593728781e-01    2,352620512e-01
       65825000   -4,562538564e-01    2,370867282e-01
       65900000   -4,510615170e-01    2,387678027e-01
       65975000   -4,464011490e-01    2,395574152e-01
       66050000   -4,414940178e-01    2,409032583e-01
       66125000   -4,351955950e-01    2,433345467e-01
       66200000   -4,329585731e-01    2,451173216e-01
       66275000   -4,259483516e-01    2,454150170e-01
       66350000   -4,221976101e-01    2,481531501e-01
       66425000   -4,180501103e-01    2,481291294e-01
       66500000   -4,146851599e-01    2,488433570e-01
       66575000   -4,093651474e-01    2,499902844e-01
       66650000   -4,046448469e-01    2,504051626e-01
       66725000   -3,989283741e-01    2,524064779e-01
       66800000   -3,935974538e-01    2,538707852e-01
       66875000   -3,899313211e-01    2,550496757e-01
       66950000   -3,858190179e-01    2,560227811e-01
       67025000   -3,815795481e-01    2,583939433e-01
       67100000   -3,778684139e-01    2,585486472e-01
       67175000   -3,734876812e-01    2,586246729e-01
       67250000   -3,684512079e-01    2,604817450e-01
       67325000   -3,638609648e-01    2,607921064e-01
       67400000   -3,586771786e-01    2,613069117e-01
       67475000   -3,531381190e-01    2,632479072e-01
       67550000   -3,510910273e-01    2,643405795e-01
       67625000   -3,452343643e-01    2,641449273e-01
       67700000   -3,403969407e-01    2,652187943e-01
       67775000   -3,358260989e-01    2,674352527e-01
       67850000   -3,330899179e-01    2,669575214e-01
       67925000   -3,275428116e-01    2,676841915e-01
       68000000   -3,231137395e-01    2,674416304e-01
       68075000   -3,157986999e-01    2,686705291e-01
       68150000   -3,108327985e-01    2,685870826e-01
       68225000   -3,067283928e-01    2,709571421e-01
       68300000   -3,013311625e-01    2,709922493e-01
       68375000   -2,976735234e-01    2,709904909e-01
       68450000   -2,924885452e-01    2,690514922e-01
       68525000   -2,871849239e-01    2,689201236e-01
       68600000   -2,829065621e-01    2,688016891e-01
       68675000   -2,758026421e-01    2,686505318e-01
       68750000   -2,727268338e-01    2,685101628e-01
       68825000   -2,672276199e-01    2,690823078e-01
       68900000   -2,625400126e-01    2,678621113e-01
       68975000   -2,580775619e-01    2,671636939e-01
       69050000   -2,535604239e-01    2,666263878e-01
       69125000   -2,493034154e-01    2,656382322e-01
       69200000   -2,446126789e-01    2,638326287e-01
       69275000   -2,409576029e-01    2,634113729e-01
       69350000   -2,369989902e-01    2,617395818e-01
       69425000   -2,328569591e-01    2,600195408e-01
       69500000   -2,291802317e-01    2,587764859e-01
       69575000   -2,250678837e-01    2,570904493e-01
       69650000   -2,212653607e-01    2,552310526e-01
       69725000   -2,181454003e-01    2,534127831e-01
       69800000   -2,149905860e-01    2,512608171e-01
       69875000   -2,114415616e-01    2,490906715e-01
       69950000   -2,051974386e-01    2,482702583e-01
       70025000   -2,051529884e-01    2,454717755e-01
       70100000   -2,005557269e-01    2,438621968e-01
       70175000   -1,977260113e-01    2,436510324e-01
       70250000   -1,965644360e-01    2,399476022e-01
       70325000   -1,928559691e-01    2,376587391e-01
       70400000   -1,897138953e-01    2,364327013e-01
       70475000   -1,869259030e-01    2,349897772e-01
       70550000   -1,853543222e-01    2,344298959e-01
       70625000   -1,844203472e-01    2,314414233e-01
       70700000   -1,805243939e-01    2,301345319e-01
       70775000   -1,782852858e-01    2,288288623e-01
       70850000   -1,764195561e-01    2,273694426e-01
       70925000   -1,759474277e-01    2,265733182e-01
       71000000   -1,741520017e-01    2,242192924e-01
       71075000   -1,704625487e-01    2,244337350e-01
       71150000   -1,705766022e-01    2,232536823e-01
       71225000   -1,680736095e-01    2,228682041e-01
       71300000   -1,661706567e-01    2,219452411e-01
       71375000   -1,650121659e-01    2,207439989e-01
       71450000   -1,613930762e-01    2,196612805e-01
       71525000   -1,603731811e-01    2,186861038e-01
       71600000   -1,589351296e-01    2,193023115e-01
       71675000   -1,558721662e-01    2,169378549e-01
       71750000   -1,540373415e-01    2,162324935e-01
       71825000   -1,525536329e-01    2,154465914e-01
       71900000   -1,500650495e-01    2,144091725e-01
       71975000   -1,498421282e-01    2,133962214e-01
       72050000   -1,485839486e-01    2,143790871e-01
       72125000   -1,467306316e-01    2,120931596e-01
       72200000   -1,452387124e-01    2,114032954e-01
       72275000   -1,426148266e-01    2,111911029e-01
       72350000   -1,413887292e-01    2,101189643e-01
       72425000   -1,397703290e-01    2,099692672e-01
       72500000   -1,388702244e-01    2,086069733e-01
       72575000   -1,367241889e-01    2,083536386e-01
       72650000   -1,352575570e-01    2,096579224e-01
       72725000   -1,328132153e-01    2,071399093e-01
       72800000   -1,315059960e-01    2,062782645e-01
       72875000   -1,293298751e-01    2,060754895e-01
       72950000   -1,287319660e-01    2,061215043e-01
       73025000   -1,272768527e-01    2,049441040e-01
       73100000   -1,261193901e-01    2,049730867e-01
       73175000   -1,219184920e-01    2,042160183e-01
       73250000   -1,240755916e-01    2,052851617e-01
       73325000   -1,215176284e-01    2,046805769e-01
       73400000   -1,201561764e-01    2,049361467e-01
       73475000   -1,188252792e-01    2,046671063e-01
       73550000   -1,181026250e-01    2,039587200e-01
       73625000   -1,162623614e-01    2,031117231e-01
       73700000   -1,151091158e-01    2,032777965e-01
       73775000   -1,122801304e-01    2,024482042e-01
       73850000   -1,109512001e-01    2,025760710e-01
       73925000   -1,093527451e-01    2,033243626e-01
       74000000   -1,075810567e-01    2,028883100e-01
       74075000   -1,061572284e-01    2,028236538e-01
       74150000   -1,040694714e-01    2,017407715e-01
       74225000   -1,032336727e-01    2,013998479e-01
       74300000   -1,012268737e-01    2,013308406e-01
       74375000   -9,912822396e-02    2,013774514e-01
       74450000   -9,873707592e-02    2,016018927e-01
       74525000   -9,689524770e-02    2,015844136e-01
       74600000   -9,552576393e-02    2,012886852e-01
       74675000   -9,353513271e-02    2,007583380e-01
       74750000   -9,118701518e-02    1,999273151e-01
       74825000   -8,997491002e-02    1,998939365e-01
       74900000   -8,773391694e-02    2,010879070e-01
       74975000   -8,804710954e-02    2,001565099e-01
       75050000   -8,581867814e-02    1,991165280e-01
       75125000   -8,436265588e-02    1,994934529e-01
       75200000   -8,338923007e-02    1,992650926e-01
       75275000   -8,116875589e-02    1,976729780e-01
       75350000   -7,894749194e-02    1,977065653e-01
       75425000   -7,718134671e-02    1,989695877e-01
       75500000   -7,552853972e-02    1,972180456e-01
       75575000   -7,420398295e-02    1,975269169e-01
       75650000   -7,224091142e-02    1,982125938e-01
       75725000   -7,147897780e-02    1,967428029e-01
       75800000   -6,990514696e-02    1,963451207e-01
       75875000   -6,830151379e-02    1,967968494e-01
       75950000   -6,739355624e-02    1,962723881e-01
       76025000   -6,639238447e-02    1,951339692e-01
       76100000   -6,369715929e-02    1,953736544e-01
       76175000   -6,375290453e-02    1,946535707e-01
       76250000   -6,247625872e-02    1,946539581e-01
       76325000   -6,101482362e-02    1,955166310e-01
       76400000   -6,015496701e-02    1,951464713e-01
       76475000   -5,949177593e-02    1,939750165e-01
       76550000   -5,871600285e-02    1,943063438e-01
       76625000   -5,750717968e-02    1,946105659e-01
       76700000   -5,673563480e-02    1,938465387e-01
       76775000   -5,459621176e-02    1,939488947e-01
       76850000   -5,462686718e-02    1,941573769e-01
       76925000   -5,236133188e-02    1,934799254e-01
       77000000   -5,115059763e-02    1,934487820e-01
       77075000   -5,074856803e-02    1,927992702e-01
       77150000   -5,122247711e-02    1,937636882e-01
       77225000   -4,928619415e-02    1,940433532e-01
       77300000   -4,885080829e-02    1,937810630e-01
       77375000   -4,814491048e-02    1,942977756e-01
       77450000   -4,723156244e-02    1,931216568e-01
       77525000   -4,592289403e-02    1,935599595e-01
       77600000   -4,587745667e-02    1,942995340e-01
       77675000   -4,455392808e-02    1,931324750e-01
       77750000   -4,390402511e-02    1,945940703e-01
       77825000   -4,428357631e-02    1,955111027e-01
       77900000   -4,225503653e-02    1,954554021e-01
       77975000   -4,288651794e-02    1,965792477e-01
       78050000   -4,330578819e-02    1,978567392e-01
       78125000   -4,202000052e-02    1,984464228e-01
       78200000   -4,154482856e-02    2,005247474e-01
       78275000   -4,228964075e-02    2,018179446e-01
       78350000   -4,104939848e-02    2,053844035e-01
       78425000   -3,926616907e-02    2,067046463e-01
       78500000   -3,734328225e-02    2,094677985e-01
       78575000   -3,699816763e-02    2,120229602e-01
       78650000   -3,447894752e-02    2,122662514e-01
       78725000   -3,102535754e-02    2,134379596e-01
       78800000   -3,025154397e-02    2,152334154e-01
       78875000   -2,892350778e-02    2,156121582e-01
       78950000   -2,669332735e-02    2,173674703e-01
       79025000   -2,473532781e-02    2,177516222e-01
       79100000   -2,326784283e-02    2,195345908e-01
       79175000   -2,051950246e-02    2,218896002e-01
       79250000   -1,874997467e-02    2,233619243e-01
       79325000   -1,754430495e-02    2,238910496e-01
       79400000   -1,553521678e-02    2,265400290e-01
       79475000   -1,285620499e-02    2,266513556e-01
       79550000   -1,029606443e-02    2,291305512e-01
       79625000   -8,574682288e-03    2,303800285e-01
       79700000   -6,973050535e-03    2,317787707e-01
       79775000   -4,485723097e-03    2,329824716e-01
       79850000   -1,627518679e-03    2,350527495e-01
       79925000    8,964075823e-05    2,362682670e-01
       80000000    4,249116406e-03    2,372581512e-01
       80075000    5,983326584e-03    2,405985594e-01
       80150000    7,146390155e-03    2,413695455e-01
       80225000    1,248605549e-02    2,427143306e-01
       80300000    1,478781644e-02    2,448119372e-01
       80375000    1,719974540e-02    2,471403927e-01
       80450000    1,934443973e-02    2,480016500e-01
       80525000    2,294089273e-02    2,495863140e-01
       80600000    2,510127984e-02    2,510453761e-01
       80675000    2,939367667e-02    2,519412637e-01
       80750000    3,387770429e-02    2,540101409e-01
       80825000    3,571326286e-02    2,558073699e-01
       80900000    3,995140642e-02    2,574214041e-01
       80975000    4,429938644e-02    2,579989433e-01
       81050000    4,725502431e-02    2,600979507e-01
       81125000    5,146822706e-02    2,608614862e-01
       81200000    5,470990390e-02    2,616473138e-01
       81275000    5,890773982e-02    2,631019950e-01
       81350000    6,219386309e-02    2,636867762e-01
       81425000    6,693454087e-02    2,641181350e-01
       81500000    7,079400122e-02    2,652786672e-01
       81575000    7,489158213e-02    2,656397820e-01
       81650000    7,732426375e-02    2,672742009e-01
       81725000    8,377766609e-02    2,679386139e-01
       81800000    8,697433025e-02    2,689853013e-01
       81875000    9,099338204e-02    2,687146068e-01
       81950000    9,491757303e-02    2,688161731e-01
       82025000    9,979935735e-02    2,697093189e-01
       82100000    1,046282873e-01    2,695170939e-01
       82175000    1,087475717e-01    2,702792287e-01
       82250000    1,131088063e-01    2,703694403e-01
       82325000    1,186253801e-01    2,714530528e-01
       82400000    1,231467128e-01    2,717182934e-01
       82475000    1,270810962e-01    2,716621757e-01
       82550000    1,319872439e-01    2,713938951e-01
       82625000    1,360914260e-01    2,708006799e-01
       82700000    1,409532577e-01    2,710684836e-01
       82775000    1,455984712e-01    2,700104415e-01
       82850000    1,503858566e-01    2,703883350e-01
       82925000    1,558797956e-01    2,698574066e-01
       83000000    1,606646329e-01    2,697216868e-01
       83075000    1,650325358e-01    2,681623101e-01
       83150000    1,711472124e-01    2,678239048e-01
       83225000    1,757002324e-01    2,660230100e-01
       83300000    1,809081286e-01    2,664451897e-01
       83375000    1,869677752e-01    2,649290562e-01
       83450000    1,915971488e-01    2,649195194e-01
       83525000    1,968905181e-01    2,637524307e-01
       83600000    2,022144645e-01    2,619142234e-01
       83675000    2,071541399e-01    2,593275011e-01
       83750000    2,126563191e-01    2,574307621e-01
       83825000    2,179714143e-01    2,563161254e-01
       83900000    2,224622220e-01    2,551565468e-01
       83975000    2,269600630e-01    2,522661686e-01
       84050000    2,319960743e-01    2,502237856e-01
       84125000    2,365625352e-01    2,474844903e-01
       84200000    2,423584014e-01    2,460245490e-01
       84275000    2,471922785e-01    2,433831841e-01
       84350000    2,515694201e-01    2,406783849e-01
       84425000    2,567165494e-01    2,382798046e-01
       84500000    2,613846958e-01    2,354656309e-01
       84575000    2,675803900e-01    2,323836833e-01
       84650000    2,719150484e-01    2,303837389e-01
       84725000    2,765067220e-01    2,268727273e-01
       84800000    2,810327411e-01    2,236928344e-01
       84875000    2,865710258e-01    2,194744647e-01
       84950000    2,912862599e-01    2,167759389e-01
       85025000    2,957508862e-01    2,127302885e-01
       85100000    3,002955914e-01    2,094891071e-01
       85175000    3,035925329e-01    2,048992962e-01
       85250000    3,078729212e-01    2,016878724e-01
       85325000    3,126551211e-01    1,971888989e-01
       85400000    3,173637986e-01    1,929145753e-01
       85475000    3,213245571e-01    1,892073154e-01
       85550000    3,246766925e-01    1,840649992e-01
       85625000    3,283768892e-01    1,796441078e-01
       85700000    3,324402571e-01    1,754621863e-01
       85775000    3,359506130e-01    1,709922552e-01
       85850000    3,387773037e-01    1,658177227e-01
       85925000    3,420400620e-01    1,612860262e-01
       86000000    3,454323113e-01    1,574932039e-01
       86075000    3,477865756e-01    1,515782773e-01
       86150000    3,509385586e-01    1,470072120e-01
       86225000    3,532992303e-01    1,423169076e-01
       86300000    3,562039435e-01    1,369578242e-01
       86375000    3,584479094e-01    1,313790679e-01
       86450000    3,605351746e-01    1,271400601e-01
       86525000    3,622399867e-01    1,220394000e-01
       86600000    3,650637269e-01    1,166277900e-01
       86675000    3,667148054e-01    1,121122986e-01
       86750000    3,683610857e-01    1,079983041e-01
       86825000    3,691803217e-01    1,022311971e-01
       86900000    3,711530864e-01    9,688515961e-02
       86975000    3,723953366e-01    9,241291136e-02
       87050000    3,731190562e-01    8,744846284e-02
       87125000    3,747867048e-01    8,314751834e-02
       87200000    3,744678199e-01    7,775286585e-02
       87275000    3,753053248e-01    7,373602688e-02
       87350000    3,760699034e-01    6,870488822e-02
       87425000    3,768299520e-01    6,392973661e-02
       87500000    3,772110641e-01    5,841602758e-02
       87575000    3,773078024e-01    5,471750349e-02
       87650000    3,781276643e-01    5,150699243e-02
       87725000    3,791059256e-01    4,721876234e-02
       87800000    3,785948455e-01    4,346643016e-02
       87875000    3,796430826e-01    3,898669779e-02
       87950000    3,791973293e-01    3,450025618e-02
       88025000    3,788315654e-01    3,061841987e-02
       88100000    3,789205253e-01    2,718626708e-02
       88175000    3,800100684e-01    2,255041897e-02
       88250000    3,798575401e-01    1,988743618e-02
       88325000    3,794251680e-01    1,484964881e-02
       88400000    3,790826797e-01    9,495278820e-03
       88475000    3,785345852e-01    7,102241740e-03
       88550000    3,788709342e-01    2,340745647e-03
       88625000    3,774135411e-01   -9,319394594e-04
       88700000    3,775890768e-01   -4,047577735e-03
       88775000    3,771102428e-01   -8,000371978e-03
       88850000    3,768546283e-01   -1,203145273e-02
       88925000    3,743734658e-01   -1,633042656e-02
       89000000    3,736257553e-01   -1,968688145e-02
       89075000    3,720551729e-01   -2,426257730e-02
       89150000    3,714587390e-01   -2,651211806e-02
       89225000    3,693529665e-01   -2,968522161e-02
       89300000    3,678157628e-01   -3,157049045e-02
       89375000    3,653234243e-01   -3,572115302e-02
       89450000    3,627219200e-01   -3,701742738e-02
       89525000    3,623192012e-01   -4,047770053e-02
       89600000    3,587922454e-01   -4,308084771e-02
       89675000    3,562354147e-01   -4,389952123e-02
       89750000    3,554567993e-01   -4,598797113e-02
       89825000    3,528649807e-01   -4,690884054e-02
       89900000    3,499993682e-01   -4,774227738e-02
       89975000    3,483550847e-01   -4,870050773e-02
       90050000    3,453126848e-01   -4,908705130e-02
       90125000    3,447484970e-01   -4,880163446e-02
       90200000    3,432773054e-01   -4,883848876e-02
       90275000    3,407179713e-01   -4,759022966e-02
       90350000    3,402163386e-01   -4,742781445e-02
       90425000    3,389556408e-01   -4,743827507e-02
       90500000    3,392454088e-01   -4,513570666e-02
       90575000    3,390517533e-01   -4,449334368e-02
       90650000    3,378579915e-01   -4,283987731e-02
       90725000    3,387194574e-01   -4,119306058e-02
       90800000    3,399915695e-01   -4,002116621e-02
       90875000    3,400344849e-01   -3,758762404e-02
       90950000    3,422622383e-01   -3,662841022e-02
       91025000    3,426559865e-01   -3,487959504e-02
       91100000    3,454041779e-01   -3,403890878e-02
       91175000    3,469362557e-01   -3,322906792e-02
       91250000    3,501144946e-01   -3,199132532e-02
       91325000    3,527910113e-01   -3,043196909e-02
       91400000    3,563687503e-01   -2,935592458e-02
       91475000    3,596411049e-01   -2,953208797e-02
       91550000    3,631887436e-01   -2,820588090e-02
       91625000    3,665173352e-01   -2,908927016e-02
       91700000    3,696230352e-01   -2,866048738e-02
       91775000    3,752948642e-01   -2,906773984e-02
       91850000    3,780321777e-01   -2,923804708e-02
       91925000    3,830299973e-01   -3,027854674e-02
