! NanoVNA-App
! Date: 2025-08-09 12:47:47
! Start: 65MHz Stop: 95MHz Points: 401
! S-Parameter data: F S11
# Hz S RI R 50
!     Frequency           S11_Real           S11_Imag
       65000000    2,987020612e-01    1,345629394e-01
       65075000    2,989095151e-01    1,302495599e-01
       65150000    2,992179692e-01    1,266430318e-01
       65225000    2,990808189e-01    1,223976016e-01
       65300000    2,993943095e-01    1,187136248e-01
       65375000    2,998086810e-01    1,146826074e-01
       65450000    3,002648652e-01    1,110022217e-01
       65525000    2,997424304e-01    1,068233699e-01
       65600000    3,005432785e-01    1,027032435e-01
       65675000    3,010685146e-01    9,918645769e-02
       65750000    3,014875948e-01    9,552016109e-02
       65825000    3,012940884e-01    9,236134589e-02
       65900000    3,019931614e-01    8,836800605e-02
       65975000    3,023443520e-01    8,427018672e-02
       66050000    3,026581407e-01    8,070069551e-02
       66125000    3,033405244e-01    7,720714062e-02
       66200000    3,040438294e-01    7,417813689e-02
       66275000    3,041998446e-01    6,955399364e-02
       66350000    3,041661382e-01    6,659471989e-02
       66425000    3,051806688e-01    6,358160824e-02
       66500000    3,048995435e-01    5,923450738e-02
       66575000    3,055690229e-01    5,619883910e-02
       66650000    3,060210943e-01    5,202854797e-02
       66725000    3,058502376e-01    4,964130372e-02
       66800000    3,069094718e-01    4,592962936e-02
       66875000    3,061095476e-01    4,271697626e-02
       66950000    3,071686625e-01    3,944227472e-02
       67025000    3,081192672e-01    3,698230535e-02
       67100000    3,087518513e-01    3,335149586e-02
       67175000    3,092996776e-01    3,016150184e-02
       67250000    3,101145923e-01    2,570921183e-02
       67325000    3,100312054e-01    2,230905741e-02
       67400000    3,103191555e-01    1,918086782e-02
       67475000    3,114022315e-01    1,626466401e-02
       67550000    3,113405704e-01    1,188882906e-02
       67625000    3,125125170e-01    8,363690227e-03
       67700000    3,126938045e-01    5,329229403e-03
       67775000    3,127646148e-01    1,688857796e-03
       67850000    3,134270310e-01   -2,331353026e-03
       67925000    3,136017025e-01   -5,286869593e-03
       68000000    3,143972456e-01   -9,849890135e-03
       68075000    3,144458234e-01   -1,402745117e-02
       68150000    3,148986697e-01   -1,715216972e-02
       68225000    3,145562410e-01   -2,099862136e-02
       68300000    3,143475950e-01   -2,447834611e-02
       68375000    3,154155016e-01   -2,897519991e-02
       68450000    3,138476610e-01   -3,294362500e-02
       68525000    3,138660491e-01   -3,618969396e-02
       68600000    3,132523596e-01   -4,127208889e-02
       68675000    3,132525086e-01   -4,389254376e-02
       68750000    3,129944801e-01   -4,808986560e-02
       68825000    3,119479120e-01   -5,238195881e-02
       68900000    3,117287755e-01   -5,554525927e-02
       68975000    3,104548156e-01   -5,871460959e-02
       69050000    3,094055355e-01   -6,292283535e-02
       69125000    3,088606000e-01   -6,647991389e-02
       69200000    3,079009652e-01   -7,054023445e-02
       69275000    3,063384891e-01   -7,350075990e-02
       69350000    3,051243722e-01   -7,752408832e-02
       69425000    3,038154840e-01   -8,005694300e-02
       69500000    3,021943271e-01   -8,411398530e-02
       69575000    2,995428741e-01   -8,722709864e-02
       69650000    2,990034521e-01   -9,114907682e-02
       69725000    2,965660989e-01   -9,290466458e-02
       69800000    2,956830263e-01   -9,600675851e-02
       69875000    2,936909795e-01   -9,938465059e-02
       69950000    2,921232581e-01   -1,012030095e-01
       70025000    2,897219062e-01   -1,048437580e-01
       70100000    2,880279720e-01   -1,079715565e-01
       70175000    2,859615982e-01   -1,089074388e-01
       70250000    2,843452096e-01   -1,117610633e-01
       70325000    2,813222706e-01   -1,141805276e-01
       70400000    2,800774872e-01   -1,162492111e-01
       70475000    2,787159681e-01   -1,186253950e-01
       70550000    2,763870955e-01   -1,196063831e-01
       70625000    2,753593624e-01   -1,209241301e-01
       70700000    2,724979222e-01   -1,233422756e-01
       70775000    2,714347839e-01   -1,248685569e-01
       70850000    2,691963911e-01   -1,268784404e-01
       70925000    2,662280798e-01   -1,271204799e-01
       71000000    2,660210729e-01   -1,284370422e-01
       71075000    2,641352117e-01   -1,305224597e-01
       71150000    2,625207603e-01   -1,304011494e-01
       71225000    2,616209090e-01   -1,320931762e-01
       71300000    2,606985271e-01   -1,332664192e-01
       71375000    2,574646473e-01   -1,338036209e-01
       71450000    2,571619749e-01   -1,360497028e-01
       71525000    2,560378015e-01   -1,365119517e-01
       71600000    2,550572753e-01   -1,369320452e-01
       71675000    2,526219189e-01   -1,387879252e-01
       71750000    2,529530823e-01   -1,393243372e-01
       71825000    2,503833771e-01   -1,401050985e-01
       71900000    2,497672588e-01   -1,411903948e-01
       71975000    2,491417825e-01   -1,424431205e-01
       72050000    2,483376563e-01   -1,426325291e-01
       72125000    2,458402514e-01   -1,430247575e-01
       72200000    2,462317050e-01   -1,446815133e-01
       72275000    2,443358153e-01   -1,449272335e-01
       72350000    2,441259772e-01   -1,462400109e-01
       72425000    2,423005551e-01   -1,468603760e-01
       72500000    2,434366643e-01   -1,470340490e-01
       72575000    2,406724542e-01   -1,484170407e-01
       72650000    2,409349680e-01   -1,484968662e-01
       72725000    2,400451750e-01   -1,497952640e-01
       72800000    2,386716157e-01   -1,502454281e-01
       72875000    2,383971363e-01   -1,514306217e-01
       72950000    2,369977236e-01   -1,525997669e-01
       73025000    2,357314080e-01   -1,524671018e-01
       73100000    2,362236381e-01   -1,518749297e-01
       73175000    2,354418188e-01   -1,534820050e-01
       73250000    2,352476269e-01   -1,545470059e-01
       73325000    2,340945452e-01   -1,558030099e-01
       73400000    2,336699963e-01   -1,547891051e-01
       73475000    2,339331359e-01   -1,564590484e-01
       73550000    2,333257794e-01   -1,561250538e-01
       73625000    2,317188829e-01   -1,573576331e-01
       73700000    2,316527814e-01   -1,576461494e-01
       73775000    2,315938026e-01   -1,581739485e-01
       73850000    2,311362326e-01   -1,590739340e-01
       73925000    2,310078740e-01   -1,600254327e-01
       74000000    2,294843048e-01   -1,610215306e-01
       74075000    2,300314456e-01   -1,604067385e-01
       74150000    2,296639979e-01   -1,613063514e-01
       74225000    2,289385051e-01   -1,621671766e-01
       74300000    2,280115038e-01   -1,629019231e-01
       74375000    2,282015383e-01   -1,629150063e-01
       74450000    2,276764661e-01   -1,645894051e-01
       74525000    2,278509438e-01   -1,642071903e-01
       74600000    2,270160168e-01   -1,653248072e-01
       74675000    2,259844095e-01   -1,664341837e-01
       74750000    2,266541719e-01   -1,672374904e-01
       74825000    2,253622115e-01   -1,681032330e-01
       74900000    2,258794308e-01   -1,684484631e-01
       74975000    2,254340649e-01   -1,697635651e-01
       75050000    2,254240513e-01   -1,687829047e-01
       75125000    2,244003862e-01   -1,708050668e-01
       75200000    2,242344022e-01   -1,701580882e-01
       75275000    2,237933278e-01   -1,716487557e-01
       75350000    2,229107916e-01   -1,711619198e-01
       75425000    2,222723961e-01   -1,729484946e-01
       75500000    2,217853665e-01   -1,735765934e-01
       75575000    2,223867178e-01   -1,736532599e-01
       75650000    2,218576372e-01   -1,746599674e-01
       75725000    2,215788811e-01   -1,749627143e-01
       75800000    2,201321423e-01   -1,757724285e-01
       75875000    2,204116583e-01   -1,762039810e-01
       75950000    2,199400663e-01   -1,772413701e-01
       76025000    2,182635069e-01   -1,761212200e-01
       76100000    2,182961106e-01   -1,777350605e-01
       76175000    2,180331945e-01   -1,780565977e-01
       76250000    2,182999402e-01   -1,785528660e-01
       76325000    2,169525474e-01   -1,797994226e-01
       76400000    2,176564187e-01   -1,790761054e-01
       76475000    2,161862254e-01   -1,796855778e-01
       76550000    2,163850367e-01   -1,806405187e-01
       76625000    2,163545936e-01   -1,802764535e-01
       76700000    2,152100652e-01   -1,809939444e-01
       76775000    2,141244113e-01   -1,813062727e-01
       76850000    2,145285606e-01   -1,808255762e-01
       76925000    2,134560943e-01   -1,816677302e-01
       77000000    2,126149982e-01   -1,817704141e-01
       77075000    2,114096582e-01   -1,808970422e-01
       77150000    2,123534232e-01   -1,818799525e-01
       77225000    2,119158655e-01   -1,824925393e-01
       77300000    2,106302977e-01   -1,822561026e-01
       77375000    2,105713487e-01   -1,821067035e-01
       77450000    2,097489834e-01   -1,816936433e-01
       77525000    2,089088112e-01   -1,817943603e-01
       77600000    2,085130811e-01   -1,812424958e-01
       77675000    2,084263116e-01   -1,812024713e-01
       77750000    2,063474059e-01   -1,798653901e-01
       77825000    2,067143023e-01   -1,794627011e-01
       77900000    2,067376971e-01   -1,779151559e-01
       77975000    2,046765834e-01   -1,777913719e-01
       78050000    2,049102485e-01   -1,757825315e-01
       78125000    2,055170685e-01   -1,743590981e-01
       78200000    2,053463608e-01   -1,728248447e-01
       78275000    2,059929967e-01   -1,710027605e-01
       78350000    2,075165063e-01   -1,692163795e-01
       78425000    2,094898075e-01   -1,676005423e-01
       78500000    2,102319598e-01   -1,671110243e-01
       78575000    2,131961435e-01   -1,662528813e-01
       78650000    2,138237059e-01   -1,671088040e-01
       78725000    2,147896141e-01   -1,657671332e-01
       78800000    2,170479596e-01   -1,670147479e-01
       78875000    2,180517018e-01   -1,662543416e-01
       78950000    2,190385610e-01   -1,653584540e-01
       79025000    2,200945765e-01   -1,662402451e-01
       79100000    2,213005722e-01   -1,649017483e-01
       79175000    2,222232372e-01   -1,643161327e-01
       79250000    2,232020646e-01   -1,642594337e-01
       79325000    2,251503766e-01   -1,636644900e-01
       79400000    2,256305963e-01   -1,642807424e-01
       79475000    2,278044969e-01   -1,627355367e-01
       79550000    2,292679101e-01   -1,627129018e-01
       79625000    2,301809490e-01   -1,619300544e-01
       79700000    2,323044986e-01   -1,620571911e-01
       79775000    2,343411446e-01   -1,626830250e-01
       79850000    2,356727123e-01   -1,611824185e-01
       79925000    2,377975136e-01   -1,611945480e-01
       80000000    2,386396080e-01   -1,623628289e-01
       80075000    2,407420874e-01   -1,612004936e-01
       80150000    2,440685928e-01   -1,612365842e-01
       80225000    2,461586744e-01   -1,623211652e-01
       80300000    2,478803247e-01   -1,614190191e-01
       80375000    2,506557703e-01   -1,619068682e-01
       80450000    2,530376315e-01   -1,625844240e-01
       80525000    2,555789948e-01   -1,622787267e-01
       80600000    2,572448850e-01   -1,630507261e-01
       80675000    2,604391873e-01   -1,629849225e-01
       80750000    2,626135945e-01   -1,642010659e-01
       80825000    2,642071843e-01   -1,650325060e-01
       80900000    2,682453692e-01   -1,652622968e-01
       80975000    2,697410285e-01   -1,666130126e-01
       81050000    2,713817954e-01   -1,676100492e-01
       81125000    2,755572796e-01   -1,687844247e-01
       81200000    2,771910131e-01   -1,697511077e-01
       81275000    2,797567248e-01   -1,704667658e-01
       81350000    2,822560370e-01   -1,721872538e-01
       81425000    2,847306728e-01   -1,728860885e-01
       81500000    2,869344056e-01   -1,744810045e-01
       81575000    2,901973128e-01   -1,759466380e-01
       81650000    2,929891944e-01   -1,777461320e-01
       81725000    2,952726781e-01   -1,791880280e-01
       81800000    2,967400551e-01   -1,808798164e-01
       81875000    3,003308773e-01   -1,832287610e-01
       81950000    3,021993637e-01   -1,851078868e-01
       82025000    3,046809733e-01   -1,862306893e-01
       82100000    3,073453009e-01   -1,893917769e-01
       82175000    3,100271225e-01   -1,899268031e-01
       82250000    3,119782507e-01   -1,936031729e-01
       82325000    3,139673173e-01   -1,945129037e-01
       82400000    3,178016841e-01   -1,971551329e-01
       82475000    3,182465732e-01   -1,995418519e-01
       82550000    3,215496540e-01   -2,013303190e-01
       82625000    3,228734732e-01   -2,043270320e-01
       82700000    3,259969354e-01   -2,063717991e-01
       82775000    3,275516033e-01   -2,102093548e-01
       82850000    3,313195705e-01   -2,109958529e-01
       82925000    3,326190114e-01   -2,150353491e-01
       83000000    3,350821435e-01   -2,169354260e-01
       83075000    3,367494941e-01   -2,215663046e-01
       83150000    3,394536078e-01   -2,229540199e-01
       83225000    3,411122262e-01   -2,273709923e-01
       83300000    3,432873487e-01   -2,289102376e-01
       83375000    3,451440632e-01   -2,346134633e-01
       83450000    3,470905125e-01   -2,359629124e-01
       83525000    3,500709832e-01   -2,398107052e-01
       83600000    3,509874046e-01   -2,430821955e-01
       83675000    3,532935083e-01   -2,467458099e-01
       83750000    3,546132147e-01   -2,517745197e-01
       83825000    3,559705913e-01   -2,542301714e-01
       83900000    3,583874404e-01   -2,585144043e-01
       83975000    3,584420383e-01   -2,622265518e-01
       84050000    3,605493307e-01   -2,658140659e-01
       84125000    3,609729409e-01   -2,696752250e-01
       84200000    3,622020483e-01   -2,730011642e-01
       84275000    3,643735945e-01   -2,774475217e-01
       84350000    3,646069169e-01   -2,807235420e-01
       84425000    3,660600483e-01   -2,844856381e-01
       84500000    3,661757112e-01   -2,897035778e-01
       84575000    3,680509031e-01   -2,932304144e-01
       84650000    3,690968752e-01   -2,975373268e-01
       84725000    3,681852818e-01   -3,020448387e-01
       84800000    3,697959483e-01   -3,056805730e-01
       84875000    3,692979515e-01   -3,113265336e-01
       84950000    3,708616495e-01   -3,150207996e-01
       85025000    3,710419536e-01   -3,188087344e-01
       85100000    3,716850579e-01   -3,244892955e-01
       85175000    3,707427084e-01   -3,274141848e-01
       85250000    3,716162145e-01   -3,324777782e-01
       85325000    3,696490526e-01   -3,374483287e-01
       85400000    3,693606853e-01   -3,412394822e-01
       85475000    3,693465292e-01   -3,465595841e-01
       85550000    3,679412305e-01   -3,503500521e-01
       85625000    3,681160212e-01   -3,539528847e-01
       85700000    3,671812713e-01   -3,586500585e-01
       85775000    3,668933213e-01   -3,639574945e-01
       85850000    3,652951419e-01   -3,669332266e-01
       85925000    3,649060726e-01   -3,708060384e-01
       86000000    3,638958633e-01   -3,763793409e-01
       86075000    3,602897525e-01   -3,786519170e-01
       86150000    3,610036671e-01   -3,835887611e-01
       86225000    3,596789241e-01   -3,871393800e-01
       86300000    3,581006229e-01   -3,931442499e-01
       86375000    3,559904099e-01   -3,971787095e-01
       86450000    3,535310626e-01   -3,997338116e-01
       86525000    3,524065018e-01   -4,030345678e-01
       86600000    3,499635756e-01   -4,080545306e-01
       86675000    3,496116400e-01   -4,093981683e-01
       86750000    3,464940786e-01   -4,153428376e-01
       86825000    3,432473838e-01   -4,189309180e-01
       86900000    3,407034874e-01   -4,207556248e-01
       86975000    3,377906084e-01   -4,240372777e-01
       87050000    3,366049230e-01   -4,275352061e-01
       87125000    3,356644511e-01   -4,309039712e-01
       87200000    3,318941891e-01   -4,324142337e-01
       87275000    3,306332529e-01   -4,364416301e-01
       87350000    3,288470507e-01   -4,391484559e-01
       87425000    3,252937794e-01   -4,412604868e-01
       87500000    3,230507076e-01   -4,428812265e-01
       87575000    3,200244904e-01   -4,468448460e-01
       87650000    3,186593950e-01   -4,503630996e-01
       87725000    3,148657084e-01   -4,530812800e-01
       87800000    3,132027984e-01   -4,538125098e-01
       87875000    3,110280037e-01   -4,585728943e-01
       87950000    3,069785833e-01   -4,593481123e-01
       88025000    3,060543537e-01   -4,612784088e-01
       88100000    3,058219850e-01   -4,630336165e-01
       88175000    2,990555465e-01   -4,643468857e-01
       88250000    2,990563214e-01   -4,672263563e-01
       88325000    2,969743311e-01   -4,696301222e-01
       88400000    2,931009531e-01   -4,715791345e-01
       88475000    2,921617329e-01   -4,732012153e-01
       88550000    2,863686979e-01   -4,762305319e-01
       88625000    2,860591710e-01   -4,775926173e-01
       88700000    2,827670872e-01   -4,787848294e-01
       88775000    2,821262479e-01   -4,808325768e-01
       88850000    2,766468823e-01   -4,841685295e-01
       88925000    2,756139934e-01   -4,842096269e-01
       89000000    2,730626762e-01   -4,870221615e-01
       89075000    2,690528035e-01   -4,865925312e-01
       89150000    2,670342922e-01   -4,882213175e-01
       89225000    2,626352310e-01   -4,886654317e-01
       89300000    2,608058155e-01   -4,896015823e-01
       89375000    2,563510835e-01   -4,905646741e-01
       89450000    2,553744018e-01   -4,910233617e-01
       89525000    2,539612055e-01   -4,929700494e-01
       89600000    2,504785359e-01   -4,919422269e-01
       89675000    2,470673174e-01   -4,922118783e-01
       89750000    2,445401996e-01   -4,930661023e-01
       89825000    2,406530976e-01   -4,933207631e-01
       89900000    2,390889823e-01   -4,914158583e-01
       89975000    2,363045216e-01   -4,926114380e-01
       90050000    2,355248630e-01   -4,895124733e-01
       90125000    2,347159386e-01   -4,893877208e-01
       90200000    2,315927297e-01   -4,866942763e-01
       90275000    2,305732071e-01   -4,870549738e-01
       90350000    2,296420187e-01   -4,880354106e-01
       90425000    2,287207991e-01   -4,839203358e-01
       90500000    2,304981202e-01   -4,839200377e-01
       90575000    2,270853668e-01   -4,842146039e-01
       90650000    2,277864814e-01   -4,804591537e-01
       90725000    2,282973677e-01   -4,808548987e-01
       90800000    2,272023559e-01   -4,807842076e-01
       90875000    2,300106883e-01   -4,804834723e-01
       90950000    2,308573425e-01   -4,810984135e-01
       91025000    2,312360853e-01   -4,787242413e-01
       91100000    2,324249893e-01   -4,823082983e-01
       91175000    2,346433252e-01   -4,782839119e-01
       91250000    2,367131710e-01   -4,802134633e-01
       91325000    2,378315926e-01   -4,794308543e-01
       91400000    2,385371476e-01   -4,799939394e-01
       91475000    2,384286076e-01   -4,821438789e-01
       91550000    2,417106926e-01   -4,836651087e-01
       91625000    2,415967733e-01   -4,858362675e-01
       91700000    2,447163016e-01   -4,868787527e-01
       91775000    2,461637259e-01   -4,910223484e-01
       91850000    2,479021251e-01   -4,911316335e-01
       91925000    2,494155765e-01   -4,948176444e-01
