! NanoVNA-App
! Date: 2025-08-09 12:50:18
! Start: 65MHz Stop: 95MHz Points: 401
! S-Parameter data: F S11
# Hz S RI R 50
!     Frequency           S11_Real           S11_Imag
       65000000   -5,023444295e-01    3,675033897e-02
       65075000   -5,036616921e-01    3,531909361e-02
       65150000   -4,994314015e-01    3,664803132e-02
       65225000   -4,963305295e-01    3,850549087e-02
       65300000   -4,914866388e-01    4,072492197e-02
       65375000   -4,895520210e-01    4,303922504e-02
       65450000   -4,842811823e-01    4,519342631e-02
       65525000   -4,799546599e-01    4,682235047e-02
       65600000   -4,758636057e-01    4,869577661e-02
       65675000   -4,721633494e-01    5,099478737e-02
       65750000   -4,681411386e-01    5,159123614e-02
       65825000   -4,629007280e-01    5,335271358e-02
       65900000   -4,587399364e-01    5,521257594e-02
       65975000   -4,549854696e-01    5,669250339e-02
       66050000   -4,513930082e-01    5,825773999e-02
       66125000   -4,483068883e-01    5,880891159e-02
       66200000   -4,440820813e-01    6,023762003e-02
       66275000   -4,403531253e-01    6,330439448e-02
       66350000   -4,361189604e-01    6,418397278e-02
       66425000   -4,322057962e-01    6,511533260e-02
       66500000   -4,270755053e-01    6,605137140e-02
       66575000   -4,230880737e-01    6,775020808e-02
       66650000   -4,201441407e-01    6,829982996e-02
       66725000   -4,173884690e-01    7,023496926e-02
       66800000   -4,135763347e-01    7,099985331e-02
       66875000   -4,092378914e-01    7,201940566e-02
       66950000   -4,059117436e-01    7,343362272e-02
       67025000   -4,024862051e-01    7,455395907e-02
       67100000   -3,984117806e-01    7,544790208e-02
       67175000   -3,941194117e-01    7,619135827e-02
       67250000   -3,897282779e-01    7,818240672e-02
       67325000   -3,853234649e-01    7,907279581e-02
       67400000   -3,820981979e-01    7,914348692e-02
       67475000   -3,792710006e-01    8,107556403e-02
       67550000   -3,747059703e-01    8,078732342e-02
       67625000   -3,703241348e-01    8,171892166e-02
       67700000   -3,665154874e-01    8,251461387e-02
       67775000   -3,628956974e-01    8,300994337e-02
       67850000   -3,590245843e-01    8,418711275e-02
       67925000   -3,549619317e-01    8,434228599e-02
       68000000   -3,509245813e-01    8,544675261e-02
       68075000   -3,476724327e-01    8,636469394e-02
       68150000   -3,428435326e-01    8,640010655e-02
       68225000   -3,389736116e-01    8,695811033e-02
       68300000   -3,354200125e-01    8,688019216e-02
       68375000   -3,312535584e-01    8,717089146e-02
       68450000   -3,262442648e-01    8,750592172e-02
       68525000   -3,227021992e-01    8,640149981e-02
       68600000   -3,190671206e-01    8,635073155e-02
       68675000   -3,147110939e-01    8,703701198e-02
       68750000   -3,114700019e-01    8,621013165e-02
       68825000   -3,080053329e-01    8,492381126e-02
       68900000   -3,032934368e-01    8,515550196e-02
       68975000   -3,004306853e-01    8,408406377e-02
       69050000   -2,970649302e-01    8,332858235e-02
       69125000   -2,916173041e-01    8,228055388e-02
       69200000   -2,897962332e-01    8,164203167e-02
       69275000   -2,858994901e-01    8,033528179e-02
       69350000   -2,824991643e-01    7,905290276e-02
       69425000   -2,787936628e-01    7,797664404e-02
       69500000   -2,760885060e-01    7,663219422e-02
       69575000   -2,728116512e-01    7,501792163e-02
       69650000   -2,701849937e-01    7,367917895e-02
       69725000   -2,670138478e-01    7,198762894e-02
       69800000   -2,649291754e-01    6,978955120e-02
       69875000   -2,619435489e-01    6,864923239e-02
       69950000   -2,592754364e-01    6,822379678e-02
       70025000   -2,575891018e-01    6,607926637e-02
       70100000   -2,562790811e-01    6,554239243e-02
       70175000   -2,532543838e-01    6,343308091e-02
       70250000   -2,513479590e-01    6,152646244e-02
       70325000   -2,490338087e-01    6,026237831e-02
       70400000   -2,472979575e-01    5,822780728e-02
       70475000   -2,467405051e-01    5,762068182e-02
       70550000   -2,448752075e-01    5,566760153e-02
       70625000   -2,434224486e-01    5,405028909e-02
       70700000   -2,424098998e-01    5,334788188e-02
       70775000   -2,415510118e-01    5,183143169e-02
       70850000   -2,407957166e-01    5,145090818e-02
       70925000   -2,385682166e-01    5,007566139e-02
       71000000   -2,388880402e-01    4,865743592e-02
       71075000   -2,378378361e-01    4,865251482e-02
       71150000   -2,359082848e-01    4,757064581e-02
       71225000   -2,360092103e-01    4,632861912e-02
       71300000   -2,343489379e-01    4,690298811e-02
       71375000   -2,330956012e-01    4,523919150e-02
       71450000   -2,327074111e-01    4,552696273e-02
       71525000   -2,317380011e-01    4,376888648e-02
       71600000   -2,312226295e-01    4,453707114e-02
       71675000   -2,299807221e-01    4,410738125e-02
       71750000   -2,292329222e-01    4,300159961e-02
       71825000   -2,276023477e-01    4,324854910e-02
       71900000   -2,273122221e-01    4,267516732e-02
       71975000   -2,263544053e-01    4,185581580e-02
       72050000   -2,259257585e-01    4,189665616e-02
       72125000   -2,245656699e-01    4,175925627e-02
       72200000   -2,238502502e-01    4,104822874e-02
       72275000   -2,225728482e-01    4,084373638e-02
       72350000   -2,222435772e-01    4,046501219e-02
       72425000   -2,212353945e-01    4,065920040e-02
       72500000   -2,197025567e-01    4,065953195e-02
       72575000   -2,194955796e-01    4,063873738e-02
       72650000   -2,191767544e-01    4,052927718e-02
       72725000   -2,177695334e-01    4,072837532e-02
       72800000   -2,171275765e-01    4,006927460e-02
       72875000   -2,172104865e-01    4,092103988e-02
       72950000   -2,160700709e-01    4,044670612e-02
       73025000   -2,154788673e-01    3,968530148e-02
       73100000   -2,145876139e-01    4,015150666e-02
       73175000   -2,140995562e-01    4,084216803e-02
       73250000   -2,134561539e-01    4,180526733e-02
       73325000   -2,130826414e-01    4,110190272e-02
       73400000   -2,115517855e-01    4,154475406e-02
       73475000   -2,105996460e-01    4,234306514e-02
       73550000   -2,104553431e-01    4,139259458e-02
       73625000   -2,088143528e-01    4,230244085e-02
       73700000   -2,075937241e-01    4,322589189e-02
       73775000   -2,074786723e-01    4,325376078e-02
       73850000   -2,056617737e-01    4,328317195e-02
       73925000   -2,056543678e-01    4,397350922e-02
       74000000   -2,050075382e-01    4,434072599e-02
       74075000   -2,033364028e-01    4,449553788e-02
       74150000   -2,027322054e-01    4,531096295e-02
       74225000   -2,014155239e-01    4,456653446e-02
       74300000   -2,000879049e-01    4,520552978e-02
       74375000   -1,995028704e-01    4,560319334e-02
       74450000   -1,994094253e-01    4,646957293e-02
       74525000   -1,975441277e-01    4,626434296e-02
       74600000   -1,971756965e-01    4,652538523e-02
       74675000   -1,950941086e-01    4,678349569e-02
       74750000   -1,948087513e-01    4,732075334e-02
       74825000   -1,938774437e-01    4,763293639e-02
       74900000   -1,926830560e-01    4,700731114e-02
       74975000   -1,919790059e-01    4,721935838e-02
       75050000   -1,902627498e-01    4,757396132e-02
       75125000   -1,898601353e-01    4,808393493e-02
       75200000   -1,887822747e-01    4,840084538e-02
       75275000   -1,878094673e-01    4,869330674e-02
       75350000   -1,862293780e-01    4,931577295e-02
       75425000   -1,859116703e-01    4,909198359e-02
       75500000   -1,847697198e-01    4,972328618e-02
       75575000   -1,850361228e-01    4,935337231e-02
       75650000   -1,834588051e-01    5,045761913e-02
       75725000   -1,824943870e-01    4,968119040e-02
       75800000   -1,815449297e-01    5,125536770e-02
       75875000   -1,805847734e-01    5,105353519e-02
       75950000   -1,804504693e-01    5,123335496e-02
       76025000   -1,790584326e-01    5,118890852e-02
       76100000   -1,781689823e-01    5,180380121e-02
       76175000   -1,778475493e-01    5,186089873e-02
       76250000   -1,764869690e-01    5,167970061e-02
       76325000   -1,756015867e-01    5,247927457e-02
       76400000   -1,756685078e-01    5,259607360e-02
       76475000   -1,753179878e-01    5,203713104e-02
       76550000   -1,747605950e-01    5,376986042e-02
       76625000   -1,735749394e-01    5,316129327e-02
       76700000   -1,735153347e-01    5,348665640e-02
       76775000   -1,723028421e-01    5,442268029e-02
       76850000   -1,714922339e-01    5,369557813e-02
       76925000   -1,717141569e-01    5,350350589e-02
       77000000   -1,709863991e-01    5,475901067e-02
       77075000   -1,702169329e-01    5,475818738e-02
       77150000   -1,705686301e-01    5,529496074e-02
       77225000   -1,701523960e-01    5,521377921e-02
       77300000   -1,701988578e-01    5,618951097e-02
       77375000   -1,695778668e-01    5,617935956e-02
       77450000   -1,691851765e-01    5,668430775e-02
       77525000   -1,694555581e-01    5,783807859e-02
       77600000   -1,695874780e-01    5,880469456e-02
       77675000   -1,698362380e-01    5,876529217e-02
       77750000   -1,697244048e-01    6,015873700e-02
       77825000   -1,703594774e-01    6,118480116e-02
       77900000   -1,710014492e-01    6,137882173e-02
       77975000   -1,714917570e-01    6,357330829e-02
       78050000   -1,711209267e-01    6,374503672e-02
       78125000   -1,719942987e-01    6,588919461e-02
       78200000   -1,729972214e-01    6,804905087e-02
       78275000   -1,726080775e-01    7,095471770e-02
       78350000   -1,728505492e-01    7,367203385e-02
       78425000   -1,723633409e-01    7,617536932e-02
       78500000   -1,713772267e-01    7,934218645e-02
       78575000   -1,699504703e-01    8,116076142e-02
       78650000   -1,689916849e-01    8,308743685e-02
       78725000   -1,672414243e-01    8,587822318e-02
       78800000   -1,662721336e-01    8,718104661e-02
       78875000   -1,651266664e-01    8,866152167e-02
       78950000   -1,639441103e-01    9,057836980e-02
       79025000   -1,634692103e-01    9,290996194e-02
       79100000   -1,619009972e-01    9,443804622e-02
       79175000   -1,620050669e-01    9,690640867e-02
       79250000   -1,604824364e-01    9,947260469e-02
       79325000   -1,585345268e-01    1,008534059e-01
       79400000   -1,575889438e-01    1,033412442e-01
       79475000   -1,555724591e-01    1,058728024e-01
       79550000   -1,549232453e-01    1,079042852e-01
       79625000   -1,532681584e-01    1,098692790e-01
       79700000   -1,514624804e-01    1,120147705e-01
       79775000   -1,501220912e-01    1,151177287e-01
       79850000   -1,486900151e-01    1,174631119e-01
       79925000   -1,461203545e-01    1,191443652e-01
       80000000   -1,444337517e-01    1,216835752e-01
       80075000   -1,440966874e-01    1,243965402e-01
       80150000   -1,411412209e-01    1,267424077e-01
       80225000   -1,398132294e-01    1,291133314e-01
       80300000   -1,376119852e-01    1,323954761e-01
       80375000   -1,360894591e-01    1,344278604e-01
       80450000   -1,330446452e-01    1,369808167e-01
       80525000   -1,291464120e-01    1,390055269e-01
       80600000   -1,282197088e-01    1,419983804e-01
       80675000   -1,256001592e-01    1,444719583e-01
       80750000   -1,233378127e-01    1,468595862e-01
       80825000   -1,206125915e-01    1,489294022e-01
       80900000   -1,179959550e-01    1,506275088e-01
       80975000   -1,149357930e-01    1,541187763e-01
       81050000   -1,123844311e-01    1,562397331e-01
       81125000   -1,081541255e-01    1,586057991e-01
       81200000   -1,049920171e-01    1,611392200e-01
       81275000   -1,022420600e-01    1,632164568e-01
       81350000   -9,839857370e-02    1,648776829e-01
       81425000   -9,523703158e-02    1,677602530e-01
       81500000   -9,216593951e-02    1,696233004e-01
       81575000   -8,785944432e-02    1,720500886e-01
       81650000   -8,428999782e-02    1,737266332e-01
       81725000   -8,160479367e-02    1,751043648e-01
       81800000   -7,749628276e-02    1,779319346e-01
       81875000   -7,289364934e-02    1,792471260e-01
       81950000   -6,930726022e-02    1,818152964e-01
       82025000   -6,578014046e-02    1,832042187e-01
       82100000   -6,222932786e-02    1,852805912e-01
       82175000   -5,779312924e-02    1,866064817e-01
       82250000   -5,353234708e-02    1,880086958e-01
       82325000   -4,950010777e-02    1,901165992e-01
       82400000   -4,572001100e-02    1,911234856e-01
       82475000   -4,090230539e-02    1,922187060e-01
       82550000   -3,581125289e-02    1,932763904e-01
       82625000   -3,172985092e-02    1,950124949e-01
       82700000   -2,674143761e-02    1,963210702e-01
       82775000   -2,251927741e-02    1,975548863e-01
       82850000   -1,693911850e-02    1,992783993e-01
       82925000   -1,327366009e-02    1,996485293e-01
       83000000   -7,735121530e-03    2,007372081e-01
       83075000   -3,006487852e-03    2,015697956e-01
       83150000    1,778639853e-03    2,024564445e-01
       83225000    6,745780353e-03    2,027620077e-01
       83300000    1,158370078e-02    2,037096471e-01
       83375000    1,721435599e-02    2,035882175e-01
       83450000    2,238884196e-02    2,036585063e-01
       83525000    2,791345119e-02    2,039919049e-01
       83600000    3,246149421e-02    2,042719126e-01
       83675000    3,820837289e-02    2,049340010e-01
       83750000    4,376532882e-02    2,038078308e-01
       83825000    4,862022772e-02    2,036175430e-01
       83900000    5,442031473e-02    2,027893215e-01
       83975000    6,009420380e-02    2,020724416e-01
       84050000    6,495542824e-02    2,016535103e-01
       84125000    7,043884695e-02    2,009824067e-01
       84200000    7,516299188e-02    2,000785470e-01
       84275000    8,170540631e-02    1,987885982e-01
       84350000    8,624019474e-02    1,980501413e-01
       84425000    9,256473184e-02    1,966576427e-01
       84500000    9,792310745e-02    1,951266974e-01
       84575000    1,031467840e-01    1,940133572e-01
       84650000    1,096428111e-01    1,918510795e-01
       84725000    1,141789854e-01    1,903709620e-01
       84800000    1,201150790e-01    1,885931045e-01
       84875000    1,251814514e-01    1,866279989e-01
       84950000    1,304876208e-01    1,840335876e-01
       85025000    1,361412853e-01    1,814499199e-01
       85100000    1,416503340e-01    1,780127436e-01
       85175000    1,463961750e-01    1,757174730e-01
       85250000    1,520046294e-01    1,729127318e-01
       85325000    1,573238075e-01    1,695821136e-01
       85400000    1,611799598e-01    1,664864719e-01
       85475000    1,665817201e-01    1,632953584e-01
       85550000    1,716795117e-01    1,587831080e-01
       85625000    1,757583916e-01    1,560401618e-01
       85700000    1,804298311e-01    1,520431340e-01
       85775000    1,848526150e-01    1,484182924e-01
       85850000    1,892005354e-01    1,442046016e-01
       85925000    1,932158619e-01    1,407326162e-01
       86000000    1,974363327e-01    1,357840449e-01
       86075000    2,013019770e-01    1,321943998e-01
       86150000    2,052939683e-01    1,275796741e-01
       86225000    2,090596557e-01    1,232008636e-01
       86300000    2,123526037e-01    1,186101958e-01
       86375000    2,156103253e-01    1,136582047e-01
       86450000    2,184966654e-01    1,092097014e-01
       86525000    2,219301760e-01    1,044209674e-01
       86600000    2,241047025e-01    9,995774180e-02
       86675000    2,269815058e-01    9,478220344e-02
       86750000    2,293774635e-01    8,994558454e-02
       86825000    2,317143083e-01    8,544214815e-02
       86900000    2,338036597e-01    8,045254648e-02
       86975000    2,357674986e-01    7,594610751e-02
       87050000    2,373930067e-01    7,157068700e-02
       87125000    2,391813993e-01    6,717378646e-02
       87200000    2,400100082e-01    6,194326282e-02
       87275000    2,417194545e-01    5,864161626e-02
       87350000    2,430332750e-01    5,341673642e-02
       87425000    2,436379939e-01    4,846271500e-02
       87500000    2,451143861e-01    4,477664456e-02
       87575000    2,457511574e-01    3,980380297e-02
       87650000    2,475999445e-01    3,656844422e-02
       87725000    2,484657615e-01    3,245723993e-02
       87800000    2,486171126e-01    2,883830667e-02
       87875000    2,497037351e-01    2,391837724e-02
       87950000    2,502505481e-01    2,032396756e-02
       88025000    2,506216466e-01    1,672521792e-02
       88100000    2,520068884e-01    1,268605981e-02
       88175000    2,524555624e-01    8,573596366e-03
       88250000    2,527084649e-01    5,785455927e-03
       88325000    2,537240386e-01    1,808544854e-03
       88400000    2,537297308e-01   -2,827326767e-03
       88475000    2,542924881e-01   -6,786441896e-03
       88550000    2,546172738e-01   -1,062926650e-02
       88625000    2,546548545e-01   -1,349214930e-02
       88700000    2,554900348e-01   -1,799314283e-02
       88775000    2,555586398e-01   -2,269278839e-02
       88850000    2,546495497e-01   -2,685760893e-02
       88925000    2,541357279e-01   -3,031376377e-02
       89000000    2,544034421e-01   -3,437415510e-02
       89075000    2,525209486e-01   -3,798030689e-02
       89150000    2,517367005e-01   -4,184404388e-02
       89225000    2,500751317e-01   -4,598224163e-02
       89300000    2,489655763e-01   -4,927716404e-02
       89375000    2,466915101e-01   -5,256877095e-02
       89450000    2,457283735e-01   -5,563410744e-02
       89525000    2,431238443e-01   -5,860969052e-02
       89600000    2,407737821e-01   -6,151763722e-02
       89675000    2,384887636e-01   -6,384459883e-02
       89750000    2,357538193e-01   -6,607916951e-02
       89825000    2,330611050e-01   -6,798376888e-02
       89900000    2,303105444e-01   -6,875692308e-02
       89975000    2,281453609e-01   -7,032726705e-02
       90050000    2,252090871e-01   -6,975399703e-02
       90125000    2,233667821e-01   -7,062537223e-02
       90200000    2,204453796e-01   -7,004788518e-02
       90275000    2,186356485e-01   -6,908420473e-02
       90350000    2,166690975e-01   -6,846462190e-02
       90425000    2,146054953e-01   -6,782573462e-02
       90500000    2,139654905e-01   -6,624074280e-02
       90575000    2,121013105e-01   -6,460886449e-02
       90650000    2,115538418e-01   -6,231445074e-02
       90725000    2,118407786e-01   -6,012259051e-02
       90800000    2,116028517e-01   -5,824962258e-02
       90875000    2,119883746e-01   -5,531503260e-02
       90950000    2,129207850e-01   -5,395383015e-02
       91025000    2,135875225e-01   -5,067125335e-02
       91100000    2,168280780e-01   -4,914519191e-02
       91175000    2,170181274e-01   -4,602244869e-02
       91250000    2,203737199e-01   -4,448633641e-02
       91325000    2,222439647e-01   -4,237231612e-02
       91400000    2,260803878e-01   -4,024657980e-02
       91475000    2,290854752e-01   -3,923687711e-02
       91550000    2,321322411e-01   -3,683375195e-02
       91625000    2,361705899e-01   -3,687953949e-02
       91700000    2,405226976e-01   -3,508519381e-02
       91775000    2,448510379e-01   -3,514750302e-02
       91850000    2,493579239e-01   -3,444859385e-02
       91925000    2,540706694e-01   -3,440562263e-02
