! NanoVNA-App
! Date: 2025-08-09 13:41:52
! Start: 65MHz Stop: 95MHz Points: 401
! S-Parameter data: F S11
# Hz S RI R 50
!     Frequency           S11_Real           S11_Imag
       65000000    7,252556086e-01   -2,631941140e-01
       65075000    7,288662195e-01   -2,619541585e-01
       65150000    7,264389396e-01   -2,668500543e-01
       65225000    7,258834839e-01   -2,670528889e-01
       65300000    7,243924737e-01   -2,689732015e-01
       65375000    7,204589844e-01   -2,710919678e-01
       65450000    7,187836170e-01   -2,736543119e-01
       65525000    7,167301178e-01   -2,754770815e-01
       65600000    7,140966654e-01   -2,791792750e-01
       65675000    7,133392096e-01   -2,819028795e-01
       65750000    7,114523649e-01   -2,844940126e-01
       65825000    7,111700177e-01   -2,838929296e-01
       65900000    7,084472775e-01   -2,869544923e-01
       65975000    7,048199773e-01   -2,888683677e-01
       66050000    7,039501667e-01   -2,913014293e-01
       66125000    7,042376995e-01   -2,947937548e-01
       66200000    7,013077736e-01   -2,954043746e-01
       66275000    6,975696087e-01   -2,991493642e-01
       66350000    6,983267069e-01   -3,013241291e-01
       66425000    6,957712770e-01   -3,014077246e-01
       66500000    6,937902570e-01   -3,043945432e-01
       66575000    6,919050217e-01   -3,058424592e-01
       66650000    6,913127899e-01   -3,079544306e-01
       66725000    6,894936562e-01   -3,104452789e-01
       66800000    6,855502129e-01   -3,138702512e-01
       66875000    6,835734248e-01   -3,154349327e-01
       66950000    6,838245392e-01   -3,186303973e-01
       67025000    6,811883450e-01   -3,207924366e-01
       67100000    6,810466647e-01   -3,220514357e-01
       67175000    6,801574230e-01   -3,227482438e-01
       67250000    6,772801876e-01   -3,275826573e-01
       67325000    6,756306291e-01   -3,300437033e-01
       67400000    6,741147041e-01   -3,311856687e-01
       67475000    6,724175811e-01   -3,323586881e-01
       67550000    6,714174747e-01   -3,357883692e-01
       67625000    6,684391499e-01   -3,350991905e-01
       67700000    6,679374576e-01   -3,382855058e-01
       67775000    6,662585139e-01   -3,431947827e-01
       67850000    6,639367342e-01   -3,439063728e-01
       67925000    6,631506681e-01   -3,464676142e-01
       68000000    6,608194113e-01   -3,481515646e-01
       68075000    6,584084034e-01   -3,492089510e-01
       68150000    6,577740908e-01   -3,541465998e-01
       68225000    6,544530392e-01   -3,536062539e-01
       68300000    6,520289183e-01   -3,569324315e-01
       68375000    6,493114233e-01   -3,585931659e-01
       68450000    6,506470442e-01   -3,618522882e-01
       68525000    6,487742662e-01   -3,641000390e-01
       68600000    6,457681060e-01   -3,653683960e-01
       68675000    6,429833174e-01   -3,675839007e-01
       68750000    6,409878731e-01   -3,695175946e-01
       68825000    6,366578937e-01   -3,719189167e-01
       68900000    6,344810724e-01   -3,741109073e-01
       68975000    6,334969997e-01   -3,762370646e-01
       69050000    6,314962506e-01   -3,784095645e-01
       69125000    6,285071373e-01   -3,807435930e-01
       69200000    6,264422536e-01   -3,831541538e-01
       69275000    6,227782965e-01   -3,857885599e-01
       69350000    6,227257848e-01   -3,867594004e-01
       69425000    6,207475662e-01   -3,899722397e-01
       69500000    6,182751060e-01   -3,905013800e-01
       69575000    6,175722480e-01   -3,928388059e-01
       69650000    6,126374006e-01   -3,917071521e-01
       69725000    6,087095141e-01   -3,942899108e-01
       69800000    6,060706973e-01   -3,951382041e-01
       69875000    6,058918238e-01   -3,959424794e-01
       69950000    6,031691432e-01   -3,990065753e-01
       70025000    6,019886732e-01   -4,017480910e-01
       70100000    5,986205339e-01   -3,996788561e-01
       70175000    5,959610939e-01   -4,019099772e-01
       70250000    5,942413807e-01   -4,057751298e-01
       70325000    5,903438926e-01   -4,041387737e-01
       70400000    5,905185342e-01   -4,064365029e-01
       70475000    5,864830613e-01   -4,060562253e-01
       70550000    5,856864452e-01   -4,067418873e-01
       70625000    5,833157301e-01   -4,078775048e-01
       70700000    5,790480375e-01   -4,121251106e-01
       70775000    5,778455734e-01   -4,110567868e-01
       70850000    5,760778785e-01   -4,138909280e-01
       70925000    5,737944245e-01   -4,113900065e-01
       71000000    5,742388368e-01   -4,126751721e-01
       71075000    5,718602538e-01   -4,158624709e-01
       71150000    5,712406635e-01   -4,138911366e-01
       71225000    5,700163841e-01   -4,169941545e-01
       71300000    5,674247146e-01   -4,167520404e-01
       71375000    5,673518181e-01   -4,171520770e-01
       71450000    5,622032285e-01   -4,205533564e-01
       71525000    5,612733364e-01   -4,218614697e-01
       71600000    5,613204241e-01   -4,189130068e-01
       71675000    5,571625829e-01   -4,222422242e-01
       71750000    5,571556687e-01   -4,239171445e-01
       71825000    5,567501783e-01   -4,231231213e-01
       71900000    5,551812053e-01   -4,262759089e-01
       71975000    5,525945425e-01   -4,271672964e-01
       72050000    5,499314070e-01   -4,277230501e-01
       72125000    5,502658486e-01   -4,269367754e-01
       72200000    5,484648347e-01   -4,291482568e-01
       72275000    5,458768010e-01   -4,270003140e-01
       72350000    5,454529524e-01   -4,298539162e-01
       72425000    5,431391001e-01   -4,317841828e-01
       72500000    5,420109630e-01   -4,323177934e-01
       72575000    5,417265892e-01   -4,335238039e-01
       72650000    5,393565893e-01   -4,347711205e-01
       72725000    5,356238484e-01   -4,318127632e-01
       72800000    5,373601913e-01   -4,331355989e-01
       72875000    5,343124866e-01   -4,334148467e-01
       72950000    5,336257815e-01   -4,363695979e-01
       73025000    5,314545631e-01   -4,374278784e-01
       73100000    5,301498175e-01   -4,362556338e-01
       73175000    5,305564404e-01   -4,403414726e-01
       73250000    5,268938541e-01   -4,384296536e-01
       73325000    5,266242027e-01   -4,378809035e-01
       73400000    5,263115764e-01   -4,397395253e-01
       73475000    5,223580599e-01   -4,405375123e-01
       73550000    5,204213262e-01   -4,426758885e-01
       73625000    5,213585496e-01   -4,436142147e-01
       73700000    5,210028887e-01   -4,470618069e-01
       73775000    5,201225281e-01   -4,456081986e-01
       73850000    5,175827742e-01   -4,449524283e-01
       73925000    5,172270536e-01   -4,494710267e-01
       74000000    5,163462162e-01   -4,489408135e-01
       74075000    5,157702565e-01   -4,495158195e-01
       74150000    5,152649879e-01   -4,483133256e-01
       74225000    5,137335658e-01   -4,514524639e-01
       74300000    5,126134157e-01   -4,506151080e-01
       74375000    5,095102787e-01   -4,515294135e-01
       74450000    5,080743432e-01   -4,546568692e-01
       74525000    5,066610575e-01   -4,563497901e-01
       74600000    5,059294701e-01   -4,560015500e-01
       74675000    5,061101913e-01   -4,572395682e-01
       74750000    5,029560924e-01   -4,559460282e-01
       74825000    5,027031302e-01   -4,594934881e-01
       74900000    4,994976819e-01   -4,619591534e-01
       74975000    5,005397201e-01   -4,589729607e-01
       75050000    4,969085455e-01   -4,590241313e-01
       75125000    4,970605075e-01   -4,606147408e-01
       75200000    4,959465861e-01   -4,607031047e-01
       75275000    4,939248562e-01   -4,622046947e-01
       75350000    4,925418496e-01   -4,631750584e-01
       75425000    4,910818934e-01   -4,674248099e-01
       75500000    4,918709099e-01   -4,670823514e-01
       75575000    4,906052649e-01   -4,691105783e-01
       75650000    4,882844687e-01   -4,674913287e-01
       75725000    4,866155088e-01   -4,682784975e-01
       75800000    4,827386737e-01   -4,698509574e-01
       75875000    4,846975207e-01   -4,695673287e-01
       75950000    4,867641032e-01   -4,712184668e-01
       76025000    4,827513993e-01   -4,737892151e-01
       76100000    4,828470945e-01   -4,733451903e-01
       76175000    4,826543331e-01   -4,745742977e-01
       76250000    4,816313982e-01   -4,740135670e-01
       76325000    4,788098037e-01   -4,721247852e-01
       76400000    4,776165485e-01   -4,737711251e-01
       76475000    4,753205776e-01   -4,778713584e-01
       76550000    4,755840003e-01   -4,751590192e-01
       76625000    4,725435972e-01   -4,764477313e-01
       76700000    4,728824198e-01   -4,774159491e-01
       76775000    4,732243121e-01   -4,771908522e-01
       76850000    4,714515805e-01   -4,789585769e-01
       76925000    4,668257535e-01   -4,799854457e-01
       77000000    4,686287940e-01   -4,803225100e-01
       77075000    4,675613940e-01   -4,804610014e-01
       77150000    4,650179446e-01   -4,788030386e-01
       77225000    4,655546546e-01   -4,812678397e-01
       77300000    4,654781818e-01   -4,821716547e-01
       77375000    4,653834403e-01   -4,818142653e-01
       77450000    4,611932337e-01   -4,829451740e-01
       77525000    4,590388238e-01   -4,831729233e-01
       77600000    4,613102973e-01   -4,836210310e-01
       77675000    4,572179914e-01   -4,855706990e-01
       77750000    4,570801556e-01   -4,828753769e-01
       77825000    4,580704272e-01   -4,857901335e-01
       77900000    4,585146308e-01   -4,839969277e-01
       77975000    4,536702335e-01   -4,853475094e-01
       78050000    4,579258561e-01   -4,875370860e-01
       78125000    4,541139901e-01   -4,834075570e-01
       78200000    4,544919729e-01   -4,867261052e-01
       78275000    4,563325644e-01   -4,845254421e-01
       78350000    4,550525546e-01   -4,870619178e-01
       78425000    4,560167193e-01   -4,870127141e-01
       78500000    4,521673024e-01   -4,880226552e-01
       78575000    4,585431516e-01   -4,892101884e-01
       78650000    4,586054385e-01   -4,889086485e-01
       78725000    4,558911026e-01   -4,922671616e-01
       78800000    4,577836990e-01   -4,933399260e-01
       78875000    4,555245936e-01   -4,923267961e-01
       78950000    4,545969963e-01   -4,927714169e-01
       79025000    4,540330768e-01   -4,946120977e-01
       79100000    4,524188042e-01   -4,949150383e-01
       79175000    4,546898305e-01   -4,979124963e-01
       79250000    4,534992874e-01   -4,966343343e-01
       79325000    4,536035061e-01   -5,008978844e-01
       79400000    4,547673166e-01   -5,017231107e-01
       79475000    4,568086863e-01   -5,025650859e-01
       79550000    4,569902122e-01   -5,041100383e-01
       79625000    4,558753669e-01   -5,029656887e-01
       79700000    4,545998871e-01   -5,041520000e-01
       79775000    4,516253173e-01   -5,075828433e-01
       79850000    4,552627206e-01   -5,053929090e-01
       79925000    4,545621574e-01   -5,113455057e-01
       80000000    4,535072744e-01   -5,081447363e-01
       80075000    4,540376961e-01   -5,091924667e-01
       80150000    4,496850073e-01   -5,133443475e-01
       80225000    4,538988173e-01   -5,116150975e-01
       80300000    4,539557993e-01   -5,132513642e-01
       80375000    4,528163373e-01   -5,168048143e-01
       80450000    4,541577101e-01   -5,215127468e-01
       80525000    4,545707703e-01   -5,204457641e-01
       80600000    4,555100501e-01   -5,234221220e-01
       80675000    4,529855251e-01   -5,208600760e-01
       80750000    4,527644813e-01   -5,226654410e-01
       80825000    4,530340135e-01   -5,293281674e-01
       80900000    4,538289309e-01   -5,312571526e-01
       80975000    4,514860511e-01   -5,309562683e-01
       81050000    4,538736641e-01   -5,336006880e-01
       81125000    4,526804388e-01   -5,361129642e-01
       81200000    4,514400363e-01   -5,382050276e-01
       81275000    4,522993863e-01   -5,384488106e-01
       81350000    4,517780840e-01   -5,424811244e-01
       81425000    4,503740668e-01   -5,396713614e-01
       81500000    4,484762549e-01   -5,411314368e-01
       81575000    4,490138292e-01   -5,439439416e-01
       81650000    4,512418211e-01   -5,502485633e-01
       81725000    4,479570091e-01   -5,511279702e-01
       81800000    4,509515464e-01   -5,539553761e-01
       81875000    4,495823681e-01   -5,518782139e-01
       81950000    4,479725957e-01   -5,539623499e-01
       82025000    4,469751120e-01   -5,553262830e-01
       82100000    4,428866506e-01   -5,606221557e-01
       82175000    4,450897276e-01   -5,624463558e-01
       82250000    4,422690272e-01   -5,658077598e-01
       82325000    4,448648095e-01   -5,668815970e-01
       82400000    4,447529018e-01   -5,679967403e-01
       82475000    4,436166286e-01   -5,738819242e-01
       82550000    4,425528049e-01   -5,747839212e-01
       82625000    4,400887787e-01   -5,778077245e-01
       82700000    4,412106574e-01   -5,786956549e-01
       82775000    4,417509139e-01   -5,784190893e-01
       82850000    4,400520921e-01   -5,828520656e-01
       82925000    4,402098060e-01   -5,827680230e-01
       83000000    4,357253015e-01   -5,874371529e-01
       83075000    4,327253699e-01   -5,898721814e-01
       83150000    4,351477325e-01   -5,912075639e-01
       83225000    4,304303229e-01   -5,952746272e-01
       83300000    4,301641285e-01   -5,975959897e-01
       83375000    4,313326180e-01   -5,996546149e-01
       83450000    4,326383471e-01   -5,986834764e-01
       83525000    4,280001521e-01   -6,001183391e-01
       83600000    4,295819402e-01   -6,037552953e-01
       83675000    4,264859557e-01   -6,095463037e-01
       83750000    4,220534265e-01   -6,132051349e-01
       83825000    4,262700975e-01   -6,127664447e-01
       83900000    4,255716801e-01   -6,159075499e-01
       83975000    4,232079983e-01   -6,157580614e-01
       84050000    4,183266461e-01   -6,170858741e-01
       84125000    4,173943698e-01   -6,200351119e-01
       84200000    4,178864956e-01   -6,241652966e-01
       84275000    4,156625271e-01   -6,251119971e-01
       84350000    4,122005105e-01   -6,267533898e-01
       84425000    4,098517001e-01   -6,301875710e-01
       84500000    4,116558433e-01   -6,332539916e-01
       84575000    4,058429301e-01   -6,368501782e-01
       84650000    4,092047215e-01   -6,395323873e-01
       84725000    4,062707722e-01   -6,392084360e-01
       84800000    4,057750106e-01   -6,442853808e-01
       84875000    4,024834335e-01   -6,433739662e-01
       84950000    3,968910575e-01   -6,459999084e-01
       85025000    3,968757093e-01   -6,469643116e-01
       85100000    3,936089575e-01   -6,516232491e-01
       85175000    3,946771622e-01   -6,547321677e-01
       85250000    3,938868642e-01   -6,558765769e-01
       85325000    3,895922899e-01   -6,570493579e-01
       85400000    3,850718737e-01   -6,606318355e-01
       85475000    3,822613358e-01   -6,639131904e-01
       85550000    3,778094351e-01   -6,610697508e-01
       85625000    3,808118999e-01   -6,639603972e-01
       85700000    3,749870658e-01   -6,659302115e-01
       85775000    3,748134673e-01   -6,693033576e-01
       85850000    3,723531663e-01   -6,700389385e-01
       85925000    3,717894852e-01   -6,719236374e-01
       86000000    3,654981554e-01   -6,761423349e-01
       86075000    3,658526540e-01   -6,767279506e-01
       86150000    3,641951084e-01   -6,750923395e-01
       86225000    3,630556464e-01   -6,794419289e-01
       86300000    3,590349853e-01   -6,831508279e-01
       86375000    3,550897241e-01   -6,834478974e-01
       86450000    3,479236066e-01   -6,861419082e-01
       86525000    3,486880064e-01   -6,820697188e-01
       86600000    3,469578922e-01   -6,894688606e-01
       86675000    3,468029201e-01   -6,876416206e-01
       86750000    3,451051116e-01   -6,913547516e-01
       86825000    3,406445086e-01   -6,932247877e-01
       86900000    3,353830576e-01   -6,928154826e-01
       86975000    3,351980150e-01   -6,933983564e-01
       87050000    3,344577253e-01   -6,960893273e-01
       87125000    3,273600340e-01   -6,939286590e-01
       87200000    3,249517083e-01   -6,968632936e-01
       87275000    3,276622295e-01   -6,978514194e-01
       87350000    3,216409981e-01   -6,982976794e-01
       87425000    3,172747195e-01   -7,000835538e-01
       87500000    3,079911768e-01   -6,992939711e-01
       87575000    3,146130443e-01   -7,024354935e-01
       87650000    3,093814850e-01   -7,047937512e-01
       87725000    3,115235865e-01   -7,007720470e-01
       87800000    3,092368543e-01   -7,013610005e-01
       87875000    3,068749607e-01   -7,025396824e-01
       87950000    3,008593023e-01   -7,084125876e-01
       88025000    2,981966436e-01   -7,045441866e-01
       88100000    2,988501191e-01   -7,092186809e-01
       88175000    2,946531177e-01   -7,045679688e-01
       88250000    2,931596339e-01   -7,050869465e-01
       88325000    2,927023470e-01   -7,108722329e-01
       88400000    2,845109999e-01   -7,100538015e-01
       88475000    2,869020104e-01   -7,110889554e-01
       88550000    2,816604674e-01   -7,126625776e-01
       88625000    2,824742794e-01   -7,087501287e-01
       88700000    2,814904749e-01   -7,126075625e-01
       88775000    2,750754356e-01   -7,131025791e-01
       88850000    2,767099440e-01   -7,110981345e-01
       88925000    2,715386152e-01   -7,124170065e-01
       89000000    2,695012391e-01   -7,129508853e-01
       89075000    2,666694522e-01   -7,161759734e-01
       89150000    2,655012012e-01   -7,163548470e-01
       89225000    2,625091672e-01   -7,152848244e-01
       89300000    2,614814937e-01   -7,136901617e-01
       89375000    2,590200901e-01   -7,114252448e-01
       89450000    2,586891055e-01   -7,132439017e-01
       89525000    2,529340684e-01   -7,163034081e-01
       89600000    2,514683008e-01   -7,098712921e-01
       89675000    2,520311177e-01   -7,133471966e-01
       89750000    2,501846850e-01   -7,142746449e-01
       89825000    2,458312213e-01   -7,149238586e-01
       89900000    2,458041012e-01   -7,153540254e-01
       89975000    2,443112135e-01   -7,116744518e-01
       90050000    2,435874343e-01   -7,126256227e-01
       90125000    2,404808402e-01   -7,074509263e-01
       90200000    2,363460213e-01   -7,104511857e-01
       90275000    2,390319556e-01   -7,070007920e-01
       90350000    2,387398332e-01   -7,083299160e-01
       90425000    2,334475219e-01   -7,089355588e-01
       90500000    2,340234518e-01   -7,074224353e-01
       90575000    2,377852350e-01   -7,090690136e-01
       90650000    2,365828007e-01   -7,065605521e-01
       90725000    2,331221402e-01   -7,109317183e-01
       90800000    2,326561660e-01   -7,114388347e-01
       90875000    2,370008975e-01   -7,102704644e-01
       90950000    2,353374809e-01   -7,117446065e-01
       91025000    2,349431664e-01   -7,088890076e-01
       91100000    2,354218364e-01   -7,103169560e-01
       91175000    2,339510322e-01   -7,107949853e-01
       91250000    2,329898328e-01   -7,090237141e-01
       91325000    2,326148897e-01   -7,120029330e-01
       91400000    2,323888242e-01   -7,160426974e-01
       91475000    2,324455082e-01   -7,188286781e-01
       91550000    2,337532789e-01   -7,193111181e-01
       91625000    2,321656495e-01   -7,205441594e-01
       91700000    2,314400077e-01   -7,216106653e-01
       91775000    2,307714671e-01   -7,203594446e-01
       91850000    2,309539765e-01   -7,231170535e-01
       91925000    2,260900438e-01   -7,223771214e-01
