! NanoVNA-App
! Date: 2025-08-02 15:39:53
! Start: 65MHz Stop: 95MHz Points: 401
! S-Parameter data: F S11
# Hz S RI R 50
!     Frequency           S11_Real           S11_Imag
       65000000    4,739679694e-01   -1,293654926e-02
       65075000    4,788613915e-01   -1,466586534e-02
       65150000    4,801318944e-01   -2,224992029e-02
       65225000    4,819264412e-01   -3,005301952e-02
       65300000    4,793437719e-01   -3,297302499e-02
       65375000    4,801495075e-01   -3,911297768e-02
       65450000    4,774400592e-01   -4,598758370e-02
       65525000    4,761009514e-01   -5,195466056e-02
       65600000    4,774151146e-01   -5,724206567e-02
       65675000    4,737884104e-01   -6,333606690e-02
       65750000    4,743855894e-01   -6,744673103e-02
       65825000    4,730884433e-01   -7,725312561e-02
       65900000    4,714921713e-01   -7,915838063e-02
       65975000    4,704036713e-01   -8,740200102e-02
       66050000    4,680676162e-01   -8,915573359e-02
       66125000    4,662796557e-01   -9,282000363e-02
       66200000    4,637836516e-01   -1,014913768e-01
       66275000    4,632543623e-01   -1,025995165e-01
       66350000    4,619279206e-01   -1,076535434e-01
       66425000    4,586664736e-01   -1,141752675e-01
       66500000    4,584929645e-01   -1,166486964e-01
       66575000    4,548096955e-01   -1,225503758e-01
       66650000    4,550972581e-01   -1,253402829e-01
       66725000    4,551429749e-01   -1,299418211e-01
       66800000    4,513083100e-01   -1,324982047e-01
       66875000    4,519572854e-01   -1,378238201e-01
       66950000    4,492774308e-01   -1,398254633e-01
       67025000    4,496804476e-01   -1,434900016e-01
       67100000    4,486274719e-01   -1,490142345e-01
       67175000    4,439367652e-01   -1,557047665e-01
       67250000    4,452157021e-01   -1,585149020e-01
       67325000    4,433142543e-01   -1,617488265e-01
       67400000    4,385183454e-01   -1,675022840e-01
       67475000    4,401804507e-01   -1,715973318e-01
       67550000    4,385086596e-01   -1,748857498e-01
       67625000    4,333086908e-01   -1,797427833e-01
       67700000    4,336163998e-01   -1,840416640e-01
       67775000    4,338508248e-01   -1,895329356e-01
       67850000    4,298779368e-01   -1,904214472e-01
       67925000    4,296807647e-01   -1,965237856e-01
       68000000    4,254496694e-01   -1,990339607e-01
       68075000    4,222944379e-01   -2,030355334e-01
       68150000    4,173044860e-01   -2,082198113e-01
       68225000    4,190207124e-01   -2,126849592e-01
       68300000    4,155773520e-01   -2,189069092e-01
       68375000    4,130898714e-01   -2,198592424e-01
       68450000    4,121006131e-01   -2,236091197e-01
       68525000    4,083525836e-01   -2,251860350e-01
       68600000    4,058765769e-01   -2,302963585e-01
       68675000    3,987579346e-01   -2,328483164e-01
       68750000    3,990816474e-01   -2,358325571e-01
       68825000    3,919992745e-01   -2,412846386e-01
       68900000    3,910798728e-01   -2,433875352e-01
       68975000    3,850051463e-01   -2,479017377e-01
       69050000    3,840706050e-01   -2,484708577e-01
       69125000    3,774157763e-01   -2,532154620e-01
       69200000    3,781479895e-01   -2,534731328e-01
       69275000    3,724290729e-01   -2,574872673e-01
       69350000    3,704375923e-01   -2,578931749e-01
       69425000    3,652707934e-01   -2,621217370e-01
       69500000    3,640742004e-01   -2,623946369e-01
       69575000    3,585180640e-01   -2,657738626e-01
       69650000    3,585116565e-01   -2,654384673e-01
       69725000    3,540256023e-01   -2,702848017e-01
       69800000    3,527530730e-01   -2,695690393e-01
       69875000    3,476345539e-01   -2,724775672e-01
       69950000    3,459914923e-01   -2,680065334e-01
       70025000    3,434528112e-01   -2,727479935e-01
       70100000    3,428277969e-01   -2,718977034e-01
       70175000    3,364304602e-01   -2,724191248e-01
       70250000    3,359104097e-01   -2,749840617e-01
       70325000    3,323647678e-01   -2,795555890e-01
       70400000    3,317850530e-01   -2,775348723e-01
       70475000    3,309985101e-01   -2,791977525e-01
       70550000    3,259524107e-01   -2,754864991e-01
       70625000    3,250470459e-01   -2,778559029e-01
       70700000    3,246735632e-01   -2,833250165e-01
       70775000    3,220619261e-01   -2,806637585e-01
       70850000    3,202891648e-01   -2,852833569e-01
       70925000    3,134568930e-01   -2,827360034e-01
       71000000    3,156661689e-01   -2,834794223e-01
       71075000    3,138629496e-01   -2,885594368e-01
       71150000    3,084700406e-01   -2,840357423e-01
       71225000    3,101019859e-01   -2,849045098e-01
       71300000    3,104484975e-01   -2,884706855e-01
       71375000    3,062535226e-01   -2,862865925e-01
       71450000    3,033688962e-01   -2,890984714e-01
       71525000    3,019909263e-01   -2,913983762e-01
       71600000    3,033201993e-01   -2,936231792e-01
       71675000    2,952600121e-01   -2,914454937e-01
       71750000    2,979954779e-01   -2,922221422e-01
       71825000    2,914540470e-01   -2,939282656e-01
       71900000    2,922718227e-01   -2,944380939e-01
       71975000    2,919951677e-01   -2,951820493e-01
       72050000    2,909272611e-01   -3,004508913e-01
       72125000    2,877823710e-01   -2,961623669e-01
       72200000    2,877681255e-01   -2,995570898e-01
       72275000    2,822103798e-01   -2,971390784e-01
       72350000    2,825150490e-01   -2,982640862e-01
       72425000    2,770322263e-01   -2,987540364e-01
       72500000    2,791337967e-01   -3,045017421e-01
       72575000    2,718480825e-01   -3,006009459e-01
       72650000    2,734341621e-01   -3,040495515e-01
       72725000    2,717889845e-01   -3,022629619e-01
       72800000    2,672721446e-01   -3,018511832e-01
       72875000    2,675729990e-01   -3,020253181e-01
       72950000    2,622027695e-01   -3,015753031e-01
       73025000    2,624124885e-01   -3,017910719e-01
       73100000    2,624276280e-01   -3,044811189e-01
       73175000    2,607166469e-01   -3,012090325e-01
       73250000    2,536455989e-01   -3,048427105e-01
       73325000    2,530323565e-01   -3,020694554e-01
       73400000    2,550936639e-01   -3,019803762e-01
       73475000    2,497270405e-01   -3,018275499e-01
       73550000    2,508377731e-01   -3,038881421e-01
       73625000    2,471055835e-01   -3,051973581e-01
       73700000    2,475686669e-01   -3,047744334e-01
       73775000    2,451075613e-01   -3,066202104e-01
       73850000    2,467502356e-01   -3,015300632e-01
       73925000    2,442615628e-01   -3,016969264e-01
       74000000    2,410415858e-01   -2,998109758e-01
       74075000    2,401460558e-01   -3,012689054e-01
       74150000    2,403183132e-01   -3,029462099e-01
       74225000    2,363660485e-01   -3,033536375e-01
       74300000    2,385501415e-01   -3,015283048e-01
       74375000    2,368054539e-01   -3,022668362e-01
       74450000    2,310679555e-01   -2,983567119e-01
       74525000    2,343586683e-01   -2,988847494e-01
       74600000    2,293125987e-01   -2,973516285e-01
       74675000    2,321877927e-01   -2,975602448e-01
       74750000    2,289980799e-01   -3,005238175e-01
       74825000    2,325702161e-01   -2,963789701e-01
       74900000    2,313759029e-01   -2,989537716e-01
       74975000    2,280466408e-01   -2,938094437e-01
       75050000    2,289671153e-01   -2,944048941e-01
       75125000    2,256523222e-01   -2,929795682e-01
       75200000    2,282788008e-01   -2,933412492e-01
       75275000    2,251410186e-01   -2,926324606e-01
       75350000    2,269494683e-01   -2,930105329e-01
       75425000    2,243409455e-01   -2,966866493e-01
       75500000    2,252899259e-01   -2,938977778e-01
       75575000    2,226315737e-01   -2,955851257e-01
       75650000    2,248084396e-01   -2,932793498e-01
       75725000    2,217639536e-01   -2,949634790e-01
       75800000    2,240918875e-01   -2,924171984e-01
       75875000    2,209915370e-01   -2,942986786e-01
       75950000    2,238969505e-01   -2,921898663e-01
       76025000    2,238878906e-01   -2,896595597e-01
       76100000    2,200632840e-01   -2,885776162e-01
       76175000    2,226323038e-01   -2,918055654e-01
       76250000    2,198267877e-01   -2,911993861e-01
       76325000    2,226646394e-01   -2,897372842e-01
       76400000    2,197669894e-01   -2,925755382e-01
       76475000    2,215768397e-01   -2,853564918e-01
       76550000    2,236643136e-01   -2,885122001e-01
       76625000    2,207972109e-01   -2,922586799e-01
       76700000    2,228638381e-01   -2,878260314e-01
       76775000    2,219194770e-01   -2,871905863e-01
       76850000    2,208276987e-01   -2,895788848e-01
       76925000    2,201675028e-01   -2,835808694e-01
       77000000    2,228292376e-01   -2,847969532e-01
       77075000    2,227348536e-01   -2,860653102e-01
       77150000    2,230052501e-01   -2,867476642e-01
       77225000    2,191960365e-01   -2,834538817e-01
       77300000    2,215364277e-01   -2,830767035e-01
       77375000    2,203262597e-01   -2,847638130e-01
       77450000    2,246774882e-01   -2,818289101e-01
       77525000    2,245281041e-01   -2,821421921e-01
       77600000    2,225845307e-01   -2,834764123e-01
       77675000    2,265983224e-01   -2,798087597e-01
       77750000    2,279416174e-01   -2,802766263e-01
       77825000    2,253863364e-01   -2,791849077e-01
       77900000    2,299978733e-01   -2,771534920e-01
       77975000    2,305154949e-01   -2,768391669e-01
       78050000    2,282876074e-01   -2,787220776e-01
       78125000    2,333867252e-01   -2,765091956e-01
       78200000    2,348391265e-01   -2,764171958e-01
       78275000    2,335447669e-01   -2,798294127e-01
       78350000    2,366840094e-01   -2,755349874e-01
       78425000    2,383076549e-01   -2,756220698e-01
       78500000    2,409256399e-01   -2,790065706e-01
       78575000    2,396512330e-01   -2,735834718e-01
       78650000    2,436120063e-01   -2,751305103e-01
       78725000    2,435475588e-01   -2,795498073e-01
       78800000    2,458874732e-01   -2,750253081e-01
       78875000    2,492462397e-01   -2,765355706e-01
       78950000    2,475799769e-01   -2,756467462e-01
       79025000    2,509222925e-01   -2,776595652e-01
       79100000    2,500648797e-01   -2,784744203e-01
       79175000    2,561224699e-01   -2,807748318e-01
       79250000    2,563895583e-01   -2,851769626e-01
       79325000    2,590418160e-01   -2,809325159e-01
       79400000    2,626840770e-01   -2,849752605e-01
       79475000    2,586850226e-01   -2,835093439e-01
       79550000    2,632194161e-01   -2,871486247e-01
       79625000    2,627665102e-01   -2,899698615e-01
       79700000    2,671557069e-01   -2,879618406e-01
       79775000    2,699168026e-01   -2,901833355e-01
       79850000    2,668144703e-01   -2,926901579e-01
       79925000    2,706716657e-01   -2,927179039e-01
       80000000    2,750427127e-01   -2,987503707e-01
       80075000    2,699270844e-01   -2,996954620e-01
       80150000    2,770504653e-01   -3,007980585e-01
       80225000    2,767601907e-01   -3,004066646e-01
       80300000    2,774435282e-01   -3,014796078e-01
       80375000    2,796380818e-01   -3,054617643e-01
       80450000    2,793042064e-01   -3,123578429e-01
       80525000    2,825533748e-01   -3,101036847e-01
       80600000    2,809767127e-01   -3,163543940e-01
       80675000    2,849653959e-01   -3,153346479e-01
       80750000    2,862736881e-01   -3,174089491e-01
       80825000    2,814028859e-01   -3,198366165e-01
       80900000    2,852500677e-01   -3,216288090e-01
       80975000    2,884976864e-01   -3,262265325e-01
       81050000    2,841754556e-01   -3,255095184e-01
       81125000    2,873016596e-01   -3,295913935e-01
       81200000    2,861455381e-01   -3,305766582e-01
       81275000    2,878215611e-01   -3,339315653e-01
       81350000    2,836296260e-01   -3,363161087e-01
       81425000    2,892623246e-01   -3,412678540e-01
       81500000    2,863321006e-01   -3,468121886e-01
       81575000    2,884931266e-01   -3,463144898e-01
       81650000    2,864566445e-01   -3,474888206e-01
       81725000    2,876941562e-01   -3,518546224e-01
       81800000    2,847177088e-01   -3,507214785e-01
       81875000    2,854063213e-01   -3,537138700e-01
       81950000    2,813278139e-01   -3,557465374e-01
       82025000    2,829521298e-01   -3,582333028e-01
       82100000    2,783651948e-01   -3,625462949e-01
       82175000    2,816653550e-01   -3,639021814e-01
       82250000    2,765723765e-01   -3,658916652e-01
       82325000    2,811851799e-01   -3,668935895e-01
       82400000    2,788090408e-01   -3,722065091e-01
       82475000    2,791072130e-01   -3,676531017e-01
       82550000    2,795721591e-01   -3,710800707e-01
       82625000    2,767767310e-01   -3,708462417e-01
       82700000    2,772803605e-01   -3,737989068e-01
       82775000    2,744345963e-01   -3,723106682e-01
       82850000    2,762199044e-01   -3,760438263e-01
       82925000    2,739803493e-01   -3,749468625e-01
       83000000    2,745831311e-01   -3,782157302e-01
       83075000    2,723620534e-01   -3,765548468e-01
       83150000    2,733863890e-01   -3,788326085e-01
       83225000    2,714916170e-01   -3,779027164e-01
       83300000    2,731872499e-01   -3,814796507e-01
       83375000    2,709687352e-01   -3,795676529e-01
       83450000    2,716670036e-01   -3,845307529e-01
       83525000    2,680416703e-01   -3,875215054e-01
       83600000    2,706832588e-01   -3,856906295e-01
       83675000    2,724901438e-01   -3,849450052e-01
       83750000    2,697796226e-01   -3,835772276e-01
       83825000    2,705648243e-01   -3,873328269e-01
       83900000    2,675876915e-01   -3,886125684e-01
       83975000    2,731592655e-01   -3,898842037e-01
       84050000    2,720158100e-01   -3,927860260e-01
       84125000    2,740207314e-01   -3,902444839e-01
       84200000    2,717997134e-01   -3,905383050e-01
       84275000    2,704693973e-01   -3,956952095e-01
       84350000    2,741762996e-01   -3,949233890e-01
       84425000    2,740397453e-01   -3,987149894e-01
       84500000    2,752437890e-01   -3,968103826e-01
       84575000    2,765293121e-01   -3,968570530e-01
       84650000    2,704759240e-01   -3,983947337e-01
       84725000    2,780957520e-01   -4,013224244e-01
       84800000    2,750543952e-01   -4,046639502e-01
       84875000    2,783027589e-01   -4,033715427e-01
       84950000    2,800622582e-01   -4,028847814e-01
       85025000    2,799932063e-01   -4,086337090e-01
       85100000    2,798604965e-01   -4,042625129e-01
       85175000    2,811949551e-01   -4,085550606e-01
       85250000    2,780185640e-01   -4,094697535e-01
       85325000    2,840263844e-01   -4,121859074e-01
       85400000    2,828658521e-01   -4,171229005e-01
       85475000    2,860166728e-01   -4,147208035e-01
       85550000    2,861148119e-01   -4,186495245e-01
       85625000    2,870146930e-01   -4,190115929e-01
       85700000    2,834208906e-01   -4,205526412e-01
       85775000    2,892605960e-01   -4,237031341e-01
       85850000    2,888801992e-01   -4,250350595e-01
       85925000    2,931149304e-01   -4,324569702e-01
       86000000    2,925128937e-01   -4,300827682e-01
       86075000    2,941223383e-01   -4,340309203e-01
       86150000    2,883610427e-01   -4,361682236e-01
       86225000    2,920837998e-01   -4,360650480e-01
       86300000    2,953345180e-01   -4,418039024e-01
       86375000    2,951180041e-01   -4,468135834e-01
       86450000    2,921864092e-01   -4,504923820e-01
       86525000    2,937904000e-01   -4,464405775e-01
       86600000    2,951174974e-01   -4,549579322e-01
       86675000    2,928310633e-01   -4,617630243e-01
       86750000    2,971109152e-01   -4,600476027e-01
       86825000    2,963404953e-01   -4,634709358e-01
       86900000    2,989281714e-01   -4,662460983e-01
       86975000    2,989535034e-01   -4,707690477e-01
       87050000    2,908577323e-01   -4,733070433e-01
       87125000    2,972372472e-01   -4,743287861e-01
       87200000    2,956533134e-01   -4,810835123e-01
       87275000    2,941540778e-01   -4,784504473e-01
       87350000    2,962456048e-01   -4,850692451e-01
       87425000    2,929554880e-01   -4,909966588e-01
       87500000    2,947076857e-01   -4,847495258e-01
       87575000    2,925483584e-01   -4,976393282e-01
       87650000    2,938871682e-01   -4,963542521e-01
       87725000    2,935691178e-01   -4,997895956e-01
       87800000    2,907773554e-01   -5,010495186e-01
       87875000    2,897175848e-01   -5,059870481e-01
       87950000    2,901556194e-01   -5,118408799e-01
       88025000    2,849143147e-01   -5,136919618e-01
       88100000    2,897109091e-01   -5,152142644e-01
       88175000    2,892197073e-01   -5,182770491e-01
       88250000    2,863443792e-01   -5,184304714e-01
       88325000    2,869238555e-01   -5,249100924e-01
       88400000    2,800576687e-01   -5,303940773e-01
       88475000    2,845195830e-01   -5,307828188e-01
       88550000    2,820287049e-01   -5,367054343e-01
       88625000    2,797382474e-01   -5,332723856e-01
       88700000    2,824905217e-01   -5,382777452e-01
       88775000    2,788691223e-01   -5,412005186e-01
       88850000    2,791778147e-01   -5,477790833e-01
       88925000    2,774007320e-01   -5,448954105e-01
       89000000    2,780299485e-01   -5,493596196e-01
       89075000    2,712665200e-01   -5,518424511e-01
       89150000    2,733736634e-01   -5,568477511e-01
       89225000    2,692417800e-01   -5,608624816e-01
       89300000    2,718496323e-01   -5,632190108e-01
       89375000    2,679753900e-01   -5,675743222e-01
       89450000    2,689331472e-01   -5,699899793e-01
       89525000    2,705877125e-01   -5,743029118e-01
       89600000    2,684356868e-01   -5,730653405e-01
       89675000    2,675824761e-01   -5,789933801e-01
       89750000    2,648527026e-01   -5,852420926e-01
       89825000    2,593768835e-01   -5,864354372e-01
       89900000    2,621865273e-01   -5,884395838e-01
       89975000    2,556974888e-01   -5,936600566e-01
       90050000    2,594034374e-01   -5,960276723e-01
       90125000    2,576960623e-01   -6,014243960e-01
       90200000    2,560002506e-01   -5,992639661e-01
       90275000    2,538282573e-01   -6,063457131e-01
       90350000    2,469849437e-01   -6,109405160e-01
       90425000    2,499685138e-01   -6,094763279e-01
       90500000    2,486090362e-01   -6,173569560e-01
       90575000    2,407716215e-01   -6,155222654e-01
       90650000    2,444605529e-01   -6,217142344e-01
       90725000    2,415287346e-01   -6,230762005e-01
       90800000    2,354806513e-01   -6,239444017e-01
       90875000    2,347468138e-01   -6,315550804e-01
       90950000    2,285347581e-01   -6,344698071e-01
       91025000    2,307128310e-01   -6,376911998e-01
       91100000    2,239842415e-01   -6,404424906e-01
       91175000    2,269135416e-01   -6,448668242e-01
       91250000    2,203064859e-01   -6,497882605e-01
       91325000    2,215199471e-01   -6,489577293e-01
       91400000    2,181803882e-01   -6,558261514e-01
       91475000    2,163156569e-01   -6,528491974e-01
       91550000    2,145169228e-01   -6,577093601e-01
       91625000    2,083877474e-01   -6,570650339e-01
       91700000    2,072147727e-01   -6,635566354e-01
       91775000    2,001302540e-01   -6,617632508e-01
       91850000    1,993533820e-01   -6,678554416e-01
       91925000    1,920253038e-01   -6,690108776e-01
