! NanoVNA-App
! Date: 2025-08-02 16:08:34
! Start: 65MHz Stop: 95MHz Points: 401
! S-Parameter data: F S11
# Hz S RI R 50
!     Frequency           S11_Real           S11_Imag
       65000000   -4,138379693e-01    1,209106147e-01
       65075000   -4,125172794e-01    1,211676672e-01
       65150000   -4,044420719e-01    1,229764894e-01
       65225000   -3,979128897e-01    1,250625104e-01
       65300000   -3,915471137e-01    1,277229041e-01
       65375000   -3,856368363e-01    1,284043938e-01
       65450000   -3,778041303e-01    1,306050718e-01
       65525000   -3,707522154e-01    1,320784390e-01
       65600000   -3,638813496e-01    1,317667663e-01
       65675000   -3,570013642e-01    1,330161244e-01
       65750000   -3,504160643e-01    1,329652071e-01
       65825000   -3,425329030e-01    1,334392130e-01
       65900000   -3,355128467e-01    1,333699226e-01
       65975000   -3,301072121e-01    1,333727986e-01
       66050000   -3,234886825e-01    1,328580827e-01
       66125000   -3,187284768e-01    1,321814209e-01
       66200000   -3,116571903e-01    1,320677698e-01
       66275000   -3,063190579e-01    1,325535774e-01
       66350000   -3,004749715e-01    1,310984194e-01
       66425000   -2,946909964e-01    1,307239085e-01
       66500000   -2,888596356e-01    1,299076229e-01
       66575000   -2,835464180e-01    1,295056045e-01
       66650000   -2,782307565e-01    1,286485493e-01
       66725000   -2,743975818e-01    1,285102218e-01
       66800000   -2,682171762e-01    1,283664107e-01
       66875000   -2,639110088e-01    1,274620593e-01
       66950000   -2,582990825e-01    1,273229420e-01
       67025000   -2,529555261e-01    1,274167001e-01
       67100000   -2,484712899e-01    1,253501475e-01
       67175000   -2,420232594e-01    1,244187206e-01
       67250000   -2,357653230e-01    1,235461608e-01
       67325000   -2,301665843e-01    1,216469407e-01
       67400000   -2,254862636e-01    1,204545945e-01
       67475000   -2,194589376e-01    1,202437207e-01
       67550000   -2,142860889e-01    1,173012257e-01
       67625000   -2,090702057e-01    1,151429117e-01
       67700000   -2,028081715e-01    1,130048037e-01
       67775000   -1,998545527e-01    1,107120663e-01
       67850000   -1,954604238e-01    1,084713787e-01
       67925000   -1,906940490e-01    1,052557454e-01
       68000000   -1,862594783e-01    1,031028256e-01
       68075000   -1,810356379e-01    1,000788659e-01
       68150000   -1,771341860e-01    9,739060700e-02
       68225000   -1,729919463e-01    9,529509395e-02
       68300000   -1,699528098e-01    9,281903505e-02
       68375000   -1,647395343e-01    8,934808522e-02
       68450000   -1,626408398e-01    8,590142429e-02
       68525000   -1,591844559e-01    8,381336182e-02
       68600000   -1,554760039e-01    7,994043827e-02
       68675000   -1,514770389e-01    7,726112008e-02
       68750000   -1,481839418e-01    7,354637980e-02
       68825000   -1,460901052e-01    7,032953203e-02
       68900000   -1,421473175e-01    6,766548753e-02
       68975000   -1,406168491e-01    6,382595003e-02
       69050000   -1,382375211e-01    6,126873195e-02
       69125000   -1,355837584e-01    5,664158985e-02
       69200000   -1,334355772e-01    5,380771309e-02
       69275000   -1,320549250e-01    5,069012567e-02
       69350000   -1,292662024e-01    4,726379737e-02
       69425000   -1,285738200e-01    4,377314076e-02
       69500000   -1,270162314e-01    4,131316766e-02
       69575000   -1,257768422e-01    3,828397021e-02
       69650000   -1,247268245e-01    3,579949588e-02
       69725000   -1,240252554e-01    3,287051618e-02
       69800000   -1,222940385e-01    2,986844070e-02
       69875000   -1,223699227e-01    2,726957947e-02
       69950000   -1,218384206e-01    2,519230917e-02
       70025000   -1,203970760e-01    2,278052457e-02
       70100000   -1,205511615e-01    2,052538842e-02
       70175000   -1,195123121e-01    1,908541471e-02
       70250000   -1,193059608e-01    1,611381769e-02
       70325000   -1,186249033e-01    1,468250062e-02
       70400000   -1,176990643e-01    1,328265760e-02
       70475000   -1,181612536e-01    1,107708924e-02
       70550000   -1,167498976e-01    1,055003796e-02
       70625000   -1,161339954e-01    8,244303986e-03
       70700000   -1,157668084e-01    6,326558534e-03
       70775000   -1,144380793e-01    5,738924723e-03
       70850000   -1,143010184e-01    3,616143484e-03
       70925000   -1,143929437e-01    2,072213683e-03
       71000000   -1,124287695e-01    8,897748194e-04
       71075000   -1,124672070e-01    2,975031093e-04
       71150000   -1,119586229e-01   -2,166589256e-03
       71225000   -1,111714467e-01   -2,822238952e-03
       71300000   -1,096596494e-01   -4,313033074e-03
       71375000   -1,099174097e-01   -6,200684234e-03
       71450000   -1,084952429e-01   -7,549100090e-03
       71525000   -1,077671051e-01   -8,954931051e-03
       71600000   -1,083885655e-01   -1,081781834e-02
       71675000   -1,084269509e-01   -1,237625536e-02
       71750000   -1,058457270e-01   -1,261679642e-02
       71825000   -1,069456413e-01   -1,470052358e-02
       71900000   -1,062870547e-01   -1,611897536e-02
       71975000   -1,040012687e-01   -1,736546122e-02
       72050000   -1,049257740e-01   -1,884235814e-02
       72125000   -1,060498580e-01   -1,964807697e-02
       72200000   -1,038309112e-01   -2,195756882e-02
       72275000   -1,041874588e-01   -2,308120020e-02
       72350000   -1,051037237e-01   -2,450833470e-02
       72425000   -1,038100347e-01   -2,611509524e-02
       72500000   -1,035203859e-01   -2,813215554e-02
       72575000   -1,054445729e-01   -2,864826284e-02
       72650000   -1,038651839e-01   -3,043491580e-02
       72725000   -1,039887592e-01   -3,241701797e-02
       72800000   -1,058053747e-01   -3,289742768e-02
       72875000   -1,053477675e-01   -3,489410877e-02
       72950000   -1,060384437e-01   -3,602399677e-02
       73025000   -1,071583554e-01   -3,606649116e-02
       73100000   -1,074426994e-01   -3,695886582e-02
       73175000   -1,071539968e-01   -3,842588142e-02
       73250000   -1,088785604e-01   -3,891007230e-02
       73325000   -1,096568927e-01   -3,927242756e-02
       73400000   -1,093093380e-01   -4,055112973e-02
       73475000   -1,100358292e-01   -4,075871781e-02
       73550000   -1,104244217e-01   -4,018709064e-02
       73625000   -1,114537790e-01   -4,240446165e-02
       73700000   -1,110216975e-01   -4,141997546e-02
       73775000   -1,122544929e-01   -4,073547572e-02
       73850000   -1,132666543e-01   -4,260257259e-02
       73925000   -1,128084362e-01   -4,301920533e-02
       74000000   -1,144186482e-01   -4,122348502e-02
       74075000   -1,145230755e-01   -4,358445108e-02
       74150000   -1,151602715e-01   -4,399476200e-02
       74225000   -1,148273274e-01   -4,186208546e-02
       74300000   -1,165722087e-01   -4,283716157e-02
       74375000   -1,166231409e-01   -4,314697906e-02
       74450000   -1,171906665e-01   -4,178541899e-02
       74525000   -1,174543500e-01   -4,256314039e-02
       74600000   -1,183618158e-01   -4,229646549e-02
       74675000   -1,174937040e-01   -4,091208056e-02
       74750000   -1,189928055e-01   -4,167505726e-02
       74825000   -1,199122667e-01   -4,053309932e-02
       74900000   -1,177159101e-01   -4,027423263e-02
       74975000   -1,200065687e-01   -4,053733498e-02
       75050000   -1,192981154e-01   -3,957034275e-02
       75125000   -1,193911806e-01   -3,923032433e-02
       75200000   -1,200005785e-01   -3,893208876e-02
       75275000   -1,211179495e-01   -3,873031586e-02
       75350000   -1,198603660e-01   -3,843561932e-02
       75425000   -1,214133725e-01   -3,740859777e-02
       75500000   -1,214729771e-01   -3,645960987e-02
       75575000   -1,211418286e-01   -3,701519966e-02
       75650000   -1,217372492e-01   -3,494237363e-02
       75725000   -1,223004684e-01   -3,569637984e-02
       75800000   -1,214141101e-01   -3,419042379e-02
       75875000   -1,222329885e-01   -3,442820907e-02
       75950000   -1,227653101e-01   -3,310121596e-02
       76025000   -1,218122318e-01   -3,258251771e-02
       76100000   -1,231072471e-01   -3,175380453e-02
       76175000   -1,230404153e-01   -3,030552156e-02
       76250000   -1,235573962e-01   -3,049663827e-02
       76325000   -1,231400818e-01   -2,930027805e-02
       76400000   -1,241125166e-01   -2,804946527e-02
       76475000   -1,247545406e-01   -2,719587274e-02
       76550000   -1,240130588e-01   -2,664374933e-02
       76625000   -1,246533096e-01   -2,523429133e-02
       76700000   -1,251225621e-01   -2,329598181e-02
       76775000   -1,246326640e-01   -2,327184193e-02
       76850000   -1,255018562e-01   -2,164922468e-02
       76925000   -1,264352351e-01   -1,997832954e-02
       77000000   -1,254048645e-01   -2,003415674e-02
       77075000   -1,257301867e-01   -1,709923893e-02
       77150000   -1,261966825e-01   -1,531619858e-02
       77225000   -1,265991777e-01   -1,525720023e-02
       77300000   -1,268101037e-01   -1,081044786e-02
       77375000   -1,265886724e-01   -1,029146370e-02
       77450000   -1,277431697e-01   -8,559700102e-03
       77525000   -1,264732182e-01   -4,882574547e-03
       77600000   -1,261817813e-01   -3,683576360e-03
       77675000   -1,263456196e-01   -2,592077013e-03
       77750000   -1,246647164e-01    5,174637772e-04
       77825000   -1,249662712e-01    3,109735204e-03
       77900000   -1,243233755e-01    3,943972755e-03
       77975000   -1,224076301e-01    7,276281249e-03
       78050000   -1,228287667e-01    9,339587763e-03
       78125000   -1,222610548e-01    1,165963057e-02
       78200000   -1,203818023e-01    1,470915321e-02
       78275000   -1,195955426e-01    1,644319855e-02
       78350000   -1,197789013e-01    1,847091317e-02
       78425000   -1,182591543e-01    2,138512209e-02
       78500000   -1,153663546e-01    2,392629907e-02
       78575000   -1,150465235e-01    2,620465308e-02
       78650000   -1,130359098e-01    2,941947430e-02
       78725000   -1,105247810e-01    3,192745522e-02
       78800000   -1,096566468e-01    3,404613212e-02
       78875000   -1,075828522e-01    3,645460680e-02
       78950000   -1,060044765e-01    3,821901232e-02
       79025000   -1,033656448e-01    4,082898051e-02
       79100000   -1,005420238e-01    4,305973276e-02
       79175000   -9,854497015e-02    4,560899734e-02
       79250000   -9,536069632e-02    4,755906388e-02
       79325000   -9,347613901e-02    4,953181744e-02
       79400000   -9,056007117e-02    5,175657198e-02
       79475000   -8,791605383e-02    5,322258174e-02
       79550000   -8,580673486e-02    5,504257232e-02
       79625000   -8,147590607e-02    5,642776936e-02
       79700000   -7,966047525e-02    5,770256370e-02
       79775000   -7,695188373e-02    6,026559323e-02
       79850000   -7,286733389e-02    6,076616794e-02
       79925000   -7,064012438e-02    6,229406968e-02
       80000000   -6,717003882e-02    6,465715915e-02
       80075000   -6,310189515e-02    6,540676951e-02
       80150000   -6,114626676e-02    6,626515090e-02
       80225000   -5,735509098e-02    6,888899952e-02
       80300000   -5,345010385e-02    6,826166809e-02
       80375000   -5,056252331e-02    6,982164830e-02
       80450000   -4,607228190e-02    7,103869319e-02
       80525000   -4,317880049e-02    7,098112255e-02
       80600000   -3,950467706e-02    7,160252333e-02
       80675000   -3,647403419e-02    7,236953825e-02
       80750000   -3,201745450e-02    7,313368469e-02
       80825000   -2,856700681e-02    7,287710160e-02
       80900000   -2,504274435e-02    7,362575084e-02
       80975000   -2,161424421e-02    7,353703678e-02
       81050000   -1,792151481e-02    7,306749374e-02
       81125000   -1,493287366e-02    7,296363264e-02
       81200000   -1,104400214e-02    7,183559239e-02
       81275000   -8,379383013e-03    7,204838097e-02
       81350000   -3,578572068e-03    7,132355124e-02
       81425000   -1,592433429e-03    7,059741020e-02
       81500000    1,434143400e-03    6,991938502e-02
       81575000    4,515510984e-03    6,865688413e-02
       81650000    6,910892669e-03    6,870473176e-02
       81725000    1,010878757e-02    6,755357236e-02
       81800000    1,352807786e-02    6,613510102e-02
       81875000    1,559995115e-02    6,612702459e-02
       81950000    1,833656430e-02    6,379835308e-02
       82025000    2,041669376e-02    6,375661492e-02
       82100000    2,362325788e-02    6,234566495e-02
       82175000    2,479017340e-02    6,136800349e-02
       82250000    2,773819119e-02    6,032538041e-02
       82325000    2,926022932e-02    5,915306136e-02
       82400000    3,139407933e-02    5,870203301e-02
       82475000    3,324100375e-02    5,707662553e-02
       82550000    3,513304144e-02    5,759554356e-02
       82625000    3,739412874e-02    5,617947504e-02
       82700000    3,840105236e-02    5,593841523e-02
       82775000    4,179893807e-02    5,412661284e-02
       82850000    4,152015597e-02    5,448901653e-02
       82925000    4,425350577e-02    5,411069095e-02
       83000000    4,616367072e-02    5,324163660e-02
       83075000    4,773515835e-02    5,309736729e-02
       83150000    4,912245646e-02    5,314227194e-02
       83225000    5,145213380e-02    5,226245895e-02
       83300000    5,225301161e-02    5,284491181e-02
       83375000    5,463141575e-02    5,251774564e-02
       83450000    5,649361014e-02    5,176554248e-02
       83525000    5,827357993e-02    5,226982385e-02
       83600000    6,023514643e-02    5,221236125e-02
       83675000    6,253702193e-02    5,134620890e-02
       83750000    6,502805650e-02    5,229607597e-02
       83825000    6,602138281e-02    5,166805908e-02
       83900000    6,920858473e-02    5,204644799e-02
       83975000    7,081930339e-02    5,179837346e-02
       84050000    7,286333293e-02    5,275468156e-02
       84125000    7,547830790e-02    5,202584714e-02
       84200000    7,748283446e-02    5,240787938e-02
       84275000    8,069571853e-02    5,280692875e-02
       84350000    8,245764673e-02    5,151594430e-02
       84425000    8,518963307e-02    5,277864262e-02
       84500000    8,766066283e-02    5,163529888e-02
       84575000    9,012718499e-02    5,237258971e-02
       84650000    9,289584309e-02    5,284297839e-02
       84725000    9,566544741e-02    5,206792802e-02
       84800000    9,778925031e-02    5,254440755e-02
       84875000    1,012985781e-01    5,195486173e-02
       84950000    1,034720987e-01    5,264677480e-02
       85025000    1,068293378e-01    5,261687189e-02
       85100000    1,105576456e-01    5,219461396e-02
       85175000    1,130017713e-01    5,205557495e-02
       85250000    1,165931225e-01    5,233068764e-02
       85325000    1,197709367e-01    5,193537101e-02
       85400000    1,232155412e-01    5,189068243e-02
       85475000    1,261325479e-01    5,183715746e-02
       85550000    1,293546855e-01    5,227165669e-02
       85625000    1,325367242e-01    5,082639307e-02
       85700000    1,366093159e-01    5,151069909e-02
       85775000    1,399648786e-01    5,113699660e-02
       85850000    1,437367201e-01    4,997256771e-02
       85925000    1,469260156e-01    5,034427345e-02
       86000000    1,512237489e-01    4,913099110e-02
       86075000    1,549074203e-01    4,904626310e-02
       86150000    1,589969099e-01    4,840017483e-02
       86225000    1,638837010e-01    4,740818962e-02
       86300000    1,676288098e-01    4,569669440e-02
       86375000    1,708019376e-01    4,487178847e-02
       86450000    1,744515449e-01    4,466048256e-02
       86525000    1,799032390e-01    4,288901389e-02
       86600000    1,832980812e-01    4,095771536e-02
       86675000    1,873794645e-01    3,979066759e-02
       86750000    1,914519221e-01    3,707023337e-02
       86825000    1,960354745e-01    3,565201536e-02
       86900000    1,992009878e-01    3,400440887e-02
       86975000    2,034295648e-01    3,197935224e-02
       87050000    2,071360499e-01    2,984484471e-02
       87125000    2,116126269e-01    2,772658318e-02
       87200000    2,150795013e-01    2,501744032e-02
       87275000    2,197383046e-01    2,342258021e-02
       87350000    2,232251763e-01    2,120528929e-02
       87425000    2,263380736e-01    1,821784116e-02
       87500000    2,312849760e-01    1,486997679e-02
       87575000    2,336717397e-01    1,312471181e-02
       87650000    2,384375483e-01    1,026616804e-02
       87725000    2,405146211e-01    7,128553931e-03
       87800000    2,449859977e-01    4,890497308e-03
       87875000    2,474782467e-01    9,512912366e-04
       87950000    2,514202595e-01   -1,159143634e-03
       88025000    2,547058761e-01   -3,043388017e-03
       88100000    2,583311796e-01   -7,379185874e-03
       88175000    2,605330646e-01   -1,031927951e-02
       88250000    2,651759684e-01   -1,215301733e-02
       88325000    2,680391371e-01   -1,637030765e-02
       88400000    2,708257437e-01   -1,858986542e-02
       88475000    2,749803364e-01   -2,169605903e-02
       88550000    2,770467699e-01   -2,515617944e-02
       88625000    2,809055746e-01   -2,775478922e-02
       88700000    2,849818468e-01   -3,149024770e-02
       88775000    2,878572345e-01   -3,525012732e-02
       88850000    2,899024487e-01   -3,887335211e-02
       88925000    2,940768898e-01   -4,101074859e-02
       89000000    2,972430885e-01   -4,637743160e-02
       89075000    2,999817133e-01   -4,825391248e-02
       89150000    3,039439321e-01   -5,292554572e-02
       89225000    3,064360321e-01   -5,558861420e-02
       89300000    3,093614578e-01   -5,994075537e-02
       89375000    3,119764030e-01   -6,345842034e-02
       89450000    3,159508705e-01   -6,715398282e-02
       89525000    3,187059462e-01   -7,269239426e-02
       89600000    3,221090138e-01   -7,535176724e-02
       89675000    3,251669705e-01   -7,972605526e-02
       89750000    3,266534507e-01   -8,468802273e-02
       89825000    3,297365904e-01   -8,858931810e-02
       89900000    3,337280452e-01   -9,252689034e-02
       89975000    3,354680538e-01   -9,718625247e-02
       90050000    3,391198218e-01   -1,022559032e-01
       90125000    3,420033455e-01   -1,075811386e-01
       90200000    3,442739248e-01   -1,110063866e-01
       90275000    3,476950824e-01   -1,168159992e-01
       90350000    3,487207294e-01   -1,211263537e-01
       90425000    3,524568081e-01   -1,259313375e-01
       90500000    3,531819880e-01   -1,324056983e-01
       90575000    3,563186526e-01   -1,356365681e-01
       90650000    3,594790995e-01   -1,418164968e-01
       90725000    3,617325425e-01   -1,478912532e-01
       90800000    3,630262315e-01   -1,521427631e-01
       90875000    3,654793203e-01   -1,588102728e-01
       90950000    3,656731844e-01   -1,638639718e-01
       91025000    3,677734137e-01   -1,702430993e-01
       91100000    3,686320782e-01   -1,745868325e-01
       91175000    3,714269400e-01   -1,815264970e-01
       91250000    3,709901869e-01   -1,886356920e-01
       91325000    3,733653128e-01   -1,926285625e-01
       91400000    3,744224906e-01   -1,999749541e-01
       91475000    3,745386899e-01   -2,052747011e-01
       91550000    3,748983443e-01   -2,125646323e-01
       91625000    3,757902384e-01   -2,173867822e-01
       91700000    3,761539757e-01   -2,248921543e-01
       91775000    3,768938780e-01   -2,299367934e-01
       91850000    3,773475289e-01   -2,369000018e-01
       91925000    3,766695559e-01   -2,415392846e-01
