! NanoVNA-App
! Date: 2025-08-02 16:20:28
! Start: 65MHz Stop: 95MHz Points: 401
! S-Parameter data: F S11
# Hz S RI R 50
!     Frequency           S11_Real           S11_Imag
       65000000   -1,123303548e-01    2,439952195e-01
       65075000   -1,074998900e-01    2,405840009e-01
       65150000   -1,006088927e-01    2,389290184e-01
       65225000   -9,339512140e-02    2,362203747e-01
       65300000   -8,518651873e-02    2,327620238e-01
       65375000   -7,827734947e-02    2,303584069e-01
       65450000   -7,037626207e-02    2,267478406e-01
       65525000   -6,418938935e-02    2,238794416e-01
       65600000   -5,787278712e-02    2,197553962e-01
       65675000   -5,104332790e-02    2,165597528e-01
       65750000   -4,488526285e-02    2,126742154e-01
       65825000   -4,032936320e-02    2,093346417e-01
       65900000   -3,455193341e-02    2,052003890e-01
       65975000   -2,889133431e-02    2,007650882e-01
       66050000   -2,421350963e-02    1,967264712e-01
       66125000   -1,790439524e-02    1,926650405e-01
       66200000   -1,390349865e-02    1,888687760e-01
       66275000   -8,524371311e-03    1,836591810e-01
       66350000   -3,783249296e-03    1,805492043e-01
       66425000    1,059984934e-04    1,768026799e-01
       66500000    3,599408781e-03    1,721262336e-01
       66575000    8,847565390e-03    1,688439250e-01
       66650000    1,151824649e-02    1,636065096e-01
       66725000    1,563107036e-02    1,604239792e-01
       66800000    2,128813602e-02    1,558463275e-01
       66875000    2,409441397e-02    1,532902718e-01
       66950000    2,899394929e-02    1,487754732e-01
       67025000    3,315713629e-02    1,452528685e-01
       67100000    3,632652387e-02    1,410453171e-01
       67175000    4,017596319e-02    1,373721063e-01
       67250000    4,456656426e-02    1,326661557e-01
       67325000    4,825154319e-02    1,282468885e-01
       67400000    5,201689154e-02    1,239430979e-01
       67475000    5,664664507e-02    1,175387129e-01
       67550000    6,012491882e-02    1,135173216e-01
       67625000    6,342563033e-02    1,080021337e-01
       67700000    6,639093906e-02    1,019539535e-01
       67775000    6,796514243e-02    9,729973227e-02
       67850000    7,165526599e-02    9,189213812e-02
       67925000    7,356338203e-02    8,612522483e-02
       68000000    7,516939193e-02    8,131590486e-02
       68075000    7,609192282e-02    7,598768920e-02
       68150000    7,787618786e-02    7,085921615e-02
       68225000    7,947261631e-02    6,626018882e-02
       68300000    8,089596033e-02    6,202028692e-02
       68375000    8,241926134e-02    5,642510951e-02
       68450000    8,334384859e-02    5,153825507e-02
       68525000    8,456400037e-02    4,785073176e-02
       68600000    8,446459472e-02    4,204028845e-02
       68675000    8,541893214e-02    3,795358911e-02
       68750000    8,566950262e-02    3,314713389e-02
       68825000    8,578331769e-02    2,889359929e-02
       68900000    8,617903292e-02    2,374402434e-02
       68975000    8,620195836e-02    1,989900135e-02
       69050000    8,567945659e-02    1,562474947e-02
       69125000    8,595969528e-02    1,151251327e-02
       69200000    8,528972417e-02    7,635947317e-03
       69275000    8,477883041e-02    4,116633441e-03
       69350000    8,452249318e-02   -7,698067348e-04
       69425000    8,444027603e-02   -2,900738269e-03
       69500000    8,321857452e-02   -6,666735746e-03
       69575000    8,207558095e-02   -9,864260443e-03
       69650000    8,264956623e-02   -1,292657573e-02
       69725000    8,092349768e-02   -1,550768409e-02
       69800000    7,981601357e-02   -1,940093003e-02
       69875000    7,929328829e-02   -2,099902369e-02
       69950000    7,845203578e-02   -2,439716272e-02
       70025000    7,712350041e-02   -2,744327858e-02
       70100000    7,677544653e-02   -2,972070687e-02
       70175000    7,585006207e-02   -3,155521676e-02
       70250000    7,458781451e-02   -3,446751460e-02
       70325000    7,313376665e-02   -3,575022891e-02
       70400000    7,323686779e-02   -3,816194832e-02
       70475000    7,194729894e-02   -4,050500318e-02
       70550000    7,222496718e-02   -4,243490845e-02
       70625000    7,142862678e-02   -4,410923272e-02
       70700000    6,987602264e-02   -4,607773200e-02
       70775000    7,023475319e-02   -4,766938463e-02
       70850000    6,888648123e-02   -4,920870811e-02
       70925000    6,942104548e-02   -5,113829672e-02
       71000000    6,875839084e-02   -5,262214690e-02
       71075000    6,807292253e-02   -5,395090580e-02
       71150000    6,747791171e-02   -5,692042783e-02
       71225000    6,776447594e-02   -5,800303072e-02
       71300000    6,657986343e-02   -6,012099609e-02
       71375000    6,599715352e-02   -6,217497960e-02
       71450000    6,581813097e-02   -6,382704526e-02
       71525000    6,609042734e-02   -6,501255184e-02
       71600000    6,437066942e-02   -6,714364886e-02
       71675000    6,420572847e-02   -6,788494438e-02
       71750000    6,458780169e-02   -7,042282075e-02
       71825000    6,318416446e-02   -7,078087330e-02
       71900000    6,246124208e-02   -7,386337966e-02
       71975000    6,264772266e-02   -7,550458610e-02
       72050000    6,083952263e-02   -7,654092461e-02
       72125000    6,029810384e-02   -7,846479863e-02
       72200000    5,941935256e-02   -8,098515868e-02
       72275000    5,955179408e-02   -8,148098737e-02
       72350000    5,719633400e-02   -8,331772685e-02
       72425000    5,816227943e-02   -8,457518369e-02
       72500000    5,677202344e-02   -8,695100248e-02
       72575000    5,553421006e-02   -8,714464307e-02
       72650000    5,439287424e-02   -8,841089904e-02
       72725000    5,346290767e-02   -9,098987281e-02
       72800000    5,200951919e-02   -9,134396166e-02
       72875000    5,008080229e-02   -9,256180376e-02
       72950000    4,936953634e-02   -9,277471155e-02
       73025000    4,819086194e-02   -9,501437843e-02
       73100000    4,679149762e-02   -9,445379674e-02
       73175000    4,568707943e-02   -9,536261111e-02
       73250000    4,404079542e-02   -9,630099684e-02
       73325000    4,436715692e-02   -9,672627598e-02
       73400000    4,217401147e-02   -9,648596495e-02
       73475000    4,103277624e-02   -9,778161347e-02
       73550000    4,006508365e-02   -9,809559584e-02
       73625000    3,922729567e-02   -9,642131627e-02
       73700000    3,820028529e-02   -9,976426512e-02
       73775000    3,628567606e-02   -9,976223111e-02
       73850000    3,668428957e-02   -9,825814515e-02
       73925000    3,461240977e-02   -1,007454172e-01
       74000000    3,392799944e-02   -9,968187660e-02
       74075000    3,373657539e-02   -9,883456677e-02
       74150000    3,150474653e-02   -1,005572453e-01
       74225000    2,989828587e-02   -9,979496896e-02
       74300000    3,141771257e-02   -9,895742685e-02
       74375000    2,877940796e-02   -1,003301889e-01
       74450000    2,826124988e-02   -9,899581224e-02
       74525000    2,916071936e-02   -9,832453728e-02
       74600000    2,687756158e-02   -9,849965572e-02
       74675000    2,634186670e-02   -9,919869900e-02
       74750000    2,651371993e-02   -9,847851098e-02
       74825000    2,498071082e-02   -9,828825295e-02
       74900000    2,430084534e-02   -9,849777073e-02
       74975000    2,489593253e-02   -9,701362997e-02
       75050000    2,262261696e-02   -9,736622125e-02
       75125000    2,264536917e-02   -9,597595781e-02
       75200000    2,317903750e-02   -9,690118581e-02
       75275000    2,185930498e-02   -9,508026391e-02
       75350000    2,127429657e-02   -9,607825428e-02
       75425000    2,090632915e-02   -9,548328817e-02
       75500000    2,126492187e-02   -9,462732822e-02
       75575000    1,919451356e-02   -9,410974383e-02
       75650000    2,043079771e-02   -9,382573515e-02
       75725000    1,886914857e-02   -9,296695888e-02
       75800000    1,876225509e-02   -9,248309582e-02
       75875000    1,805860922e-02   -9,273926914e-02
       75950000    1,800022647e-02   -9,165575355e-02
       76025000    1,790900715e-02   -9,038868546e-02
       76100000    1,711108908e-02   -8,970838040e-02
       76175000    1,746977679e-02   -9,002618492e-02
       76250000    1,557472534e-02   -8,891509473e-02
       76325000    1,626195200e-02   -8,833719790e-02
       76400000    1,566772908e-02   -8,818844706e-02
       76475000    1,580722630e-02   -8,534301072e-02
       76550000    1,572903432e-02   -8,572448790e-02
       76625000    1,552029699e-02   -8,641584218e-02
       76700000    1,521439478e-02   -8,332111686e-02
       76775000    1,494880207e-02   -8,272800595e-02
       76850000    1,454500202e-02   -8,367055655e-02
       76925000    1,418047957e-02   -7,924571633e-02
       77000000    1,499131043e-02   -7,951276004e-02
       77075000    1,407121308e-02   -7,903473079e-02
       77150000    1,429190021e-02   -7,674086839e-02
       77225000    1,344923675e-02   -7,474301755e-02
       77300000    1,409568544e-02   -7,403543591e-02
       77375000    1,378181577e-02   -7,109083980e-02
       77450000    1,520100795e-02   -6,899978220e-02
       77525000    1,518971939e-02   -6,871345639e-02
       77600000    1,590147801e-02   -6,672205031e-02
       77675000    1,712675579e-02   -6,433568895e-02
       77750000    1,735724695e-02   -6,328069419e-02
       77825000    1,824272797e-02   -6,106177717e-02
       77900000    1,958175004e-02   -5,887504295e-02
       77975000    2,026271820e-02   -5,766820908e-02
       78050000    2,096744813e-02   -5,547565594e-02
       78125000    2,299162187e-02   -5,274787173e-02
       78200000    2,343726903e-02   -5,210129172e-02
       78275000    2,561714873e-02   -5,014064163e-02
       78350000    2,699282579e-02   -4,823189229e-02
       78425000    2,833736129e-02   -4,592973739e-02
       78500000    2,967093140e-02   -4,504683986e-02
       78575000    3,213083372e-02   -4,233544320e-02
       78650000    3,405452147e-02   -4,162027314e-02
       78725000    3,644608706e-02   -4,011408612e-02
       78800000    3,824241087e-02   -3,776158020e-02
       78875000    4,108185321e-02   -3,649855778e-02
       78950000    4,308433086e-02   -3,485180810e-02
       79025000    4,624192789e-02   -3,368293121e-02
       79100000    4,881293699e-02   -3,198598325e-02
       79175000    5,190327764e-02   -3,044999763e-02
       79250000    5,471646786e-02   -3,012404591e-02
       79325000    5,777700245e-02   -2,865286358e-02
       79400000    6,070754677e-02   -2,832717262e-02
       79475000    6,306377053e-02   -2,798028849e-02
       79550000    6,641051918e-02   -2,705643326e-02
       79625000    6,851105392e-02   -2,694650367e-02
       79700000    7,252992690e-02   -2,644075267e-02
       79775000    7,542952895e-02   -2,647031471e-02
       79850000    7,755645365e-02   -2,549822628e-02
       79925000    8,181884885e-02   -2,577902749e-02
       80000000    8,462872356e-02   -2,525118738e-02
       80075000    8,753026277e-02   -2,673125267e-02
       80150000    9,093420953e-02   -2,613045834e-02
       80225000    9,368386120e-02   -2,590861358e-02
       80300000    9,667393565e-02   -2,690113895e-02
       80375000    1,003878266e-01   -2,742736228e-02
       80450000    1,034446955e-01   -2,773026563e-02
       80525000    1,064949185e-01   -2,811008319e-02
       80600000    1,090544611e-01   -2,953943796e-02
       80675000    1,125005260e-01   -2,949627489e-02
       80750000    1,155162901e-01   -3,134959564e-02
       80825000    1,174305826e-01   -3,280765563e-02
       80900000    1,217591539e-01   -3,313856199e-02
       80975000    1,237650588e-01   -3,534733504e-02
       81050000    1,263954788e-01   -3,701697662e-02
       81125000    1,297661215e-01   -3,805325553e-02
       81200000    1,313281357e-01   -4,049968347e-02
       81275000    1,345023662e-01   -4,116874561e-02
       81350000    1,365435570e-01   -4,360053316e-02
       81425000    1,390672475e-01   -4,415214434e-02
       81500000    1,409399956e-01   -4,703238606e-02
       81575000    1,432854682e-01   -4,820982367e-02
       81650000    1,453578919e-01   -5,083320290e-02
       81725000    1,466979682e-01   -5,247637630e-02
       81800000    1,484795213e-01   -5,401314050e-02
       81875000    1,499282271e-01   -5,620047823e-02
       81950000    1,513702124e-01   -5,814231560e-02
       82025000    1,532144547e-01   -5,996736512e-02
       82100000    1,539429277e-01   -6,166579574e-02
       82175000    1,556891650e-01   -6,266329437e-02
       82250000    1,562682837e-01   -6,554972380e-02
       82325000    1,571096480e-01   -6,524598598e-02
       82400000    1,588373631e-01   -6,769256294e-02
       82475000    1,589839309e-01   -6,950590760e-02
       82550000    1,610893309e-01   -7,051746547e-02
       82625000    1,607689261e-01   -7,177548110e-02
       82700000    1,622747630e-01   -7,328445464e-02
       82775000    1,628209949e-01   -7,409231365e-02
       82850000    1,644560397e-01   -7,470624149e-02
       82925000    1,646918505e-01   -7,617188245e-02
       83000000    1,669499576e-01   -7,642474771e-02
       83075000    1,675882041e-01   -7,741656154e-02
       83150000    1,689957082e-01   -7,822511345e-02
       83225000    1,691356450e-01   -8,006916940e-02
       83300000    1,717681587e-01   -7,986975461e-02
       83375000    1,724063456e-01   -8,135247231e-02
       83450000    1,742455959e-01   -8,082886785e-02
       83525000    1,762737930e-01   -8,210670203e-02
       83600000    1,770930886e-01   -8,222064376e-02
       83675000    1,789811850e-01   -8,350659162e-02
       83750000    1,798191667e-01   -8,456064761e-02
       83825000    1,821063906e-01   -8,417943120e-02
       83900000    1,838064194e-01   -8,634700626e-02
       83975000    1,845167875e-01   -8,554513007e-02
       84050000    1,866500825e-01   -8,674599975e-02
       84125000    1,875519753e-01   -8,780542016e-02
       84200000    1,903873235e-01   -8,808127046e-02
       84275000    1,920572966e-01   -8,896879852e-02
       84350000    1,931080818e-01   -8,992203325e-02
       84425000    1,956867427e-01   -9,019742906e-02
       84500000    1,973892152e-01   -9,082034230e-02
       84575000    1,996307075e-01   -9,273753315e-02
       84650000    2,025781572e-01   -9,375979006e-02
       84725000    2,036237568e-01   -9,412322938e-02
       84800000    2,056714445e-01   -9,531119466e-02
       84875000    2,070323825e-01   -9,545575082e-02
       84950000    2,104200423e-01   -9,716914594e-02
       85025000    2,117503583e-01   -9,797907621e-02
       85100000    2,138509452e-01   -9,937072545e-02
       85175000    2,162278146e-01   -9,946051985e-02
       85250000    2,185650468e-01   -1,011091396e-01
       85325000    2,206849605e-01   -1,017548963e-01
       85400000    2,235216200e-01   -1,031659171e-01
       85475000    2,245720625e-01   -1,045616940e-01
       85550000    2,281530499e-01   -1,041629538e-01
       85625000    2,309353054e-01   -1,060054898e-01
       85700000    2,337222546e-01   -1,074326187e-01
       85775000    2,355627567e-01   -1,089277193e-01
       85850000    2,391545177e-01   -1,092119664e-01
       85925000    2,410965562e-01   -1,111048162e-01
       86000000    2,441431135e-01   -1,135636941e-01
       86075000    2,476231754e-01   -1,142058372e-01
       86150000    2,504949570e-01   -1,158711910e-01
       86225000    2,536957264e-01   -1,182623282e-01
       86300000    2,551839352e-01   -1,202241778e-01
       86375000    2,576546073e-01   -1,207112968e-01
       86450000    2,623027265e-01   -1,238880381e-01
       86525000    2,654041052e-01   -1,262627542e-01
       86600000    2,672500908e-01   -1,275333613e-01
       86675000    2,702583969e-01   -1,313153952e-01
       86750000    2,728399634e-01   -1,333504915e-01
       86825000    2,754147649e-01   -1,349121034e-01
       86900000    2,795408964e-01   -1,378846318e-01
       86975000    2,817596495e-01   -1,406930834e-01
       87050000    2,848579288e-01   -1,440491974e-01
       87125000    2,862283885e-01   -1,479303986e-01
       87200000    2,900468111e-01   -1,502081305e-01
       87275000    2,923319340e-01   -1,533685178e-01
       87350000    2,945674956e-01   -1,568139344e-01
       87425000    2,972239554e-01   -1,600020677e-01
       87500000    3,006237149e-01   -1,639922708e-01
       87575000    3,022581935e-01   -1,658377349e-01
       87650000    3,034172654e-01   -1,700228602e-01
       87725000    3,069425821e-01   -1,720893532e-01
       87800000    3,093884587e-01   -1,764900237e-01
       87875000    3,097615540e-01   -1,796114743e-01
       87950000    3,129674792e-01   -1,824702024e-01
       88025000    3,139083683e-01   -1,871550232e-01
       88100000    3,150271773e-01   -1,912573576e-01
       88175000    3,181799948e-01   -1,937967986e-01
       88250000    3,200725019e-01   -1,975249499e-01
       88325000    3,200396299e-01   -2,025303990e-01
       88400000    3,240555525e-01   -2,051343918e-01
       88475000    3,249337971e-01   -2,094652653e-01
       88550000    3,265662789e-01   -2,122972012e-01
       88625000    3,288529813e-01   -2,154066414e-01
       88700000    3,306734860e-01   -2,202492505e-01
       88775000    3,307491839e-01   -2,235823572e-01
       88850000    3,339171410e-01   -2,271417677e-01
       88925000    3,359668553e-01   -2,311840355e-01
       89000000    3,360105753e-01   -2,346502692e-01
       89075000    3,386411369e-01   -2,393380553e-01
       89150000    3,396073580e-01   -2,437338829e-01
       89225000    3,415798545e-01   -2,477497458e-01
       89300000    3,413714767e-01   -2,519620955e-01
       89375000    3,449266851e-01   -2,559773028e-01
       89450000    3,451120853e-01   -2,607999444e-01
       89525000    3,471844196e-01   -2,631864846e-01
       89600000    3,495698869e-01   -2,690362036e-01
       89675000    3,498554826e-01   -2,750314474e-01
       89750000    3,509277105e-01   -2,776247263e-01
       89825000    3,529854715e-01   -2,833916247e-01
       89900000    3,524509966e-01   -2,885084450e-01
       89975000    3,538696468e-01   -2,921324968e-01
       90050000    3,548473120e-01   -2,972720265e-01
       90125000    3,568152487e-01   -3,001013100e-01
       90200000    3,570249975e-01   -3,068830073e-01
       90275000    3,568364680e-01   -3,126344085e-01
       90350000    3,599331975e-01   -3,166833818e-01
       90425000    3,568274677e-01   -3,223688006e-01
       90500000    3,583563268e-01   -3,265845180e-01
       90575000    3,596419394e-01   -3,326202333e-01
       90650000    3,591399789e-01   -3,379251361e-01
       90725000    3,575155437e-01   -3,429841101e-01
       90800000    3,602227271e-01   -3,483357430e-01
       90875000    3,598817289e-01   -3,542662859e-01
       90950000    3,592568636e-01   -3,589200675e-01
       91025000    3,570781052e-01   -3,669631481e-01
       91100000    3,586550951e-01   -3,704057932e-01
       91175000    3,567705154e-01   -3,772324920e-01
       91250000    3,575730026e-01   -3,814286888e-01
       91325000    3,569772840e-01   -3,883476853e-01
       91400000    3,536293209e-01   -3,911119998e-01
       91475000    3,536454737e-01   -3,983266950e-01
       91550000    3,508469164e-01   -4,033568799e-01
       91625000    3,507068157e-01   -4,094546437e-01
       91700000    3,478722870e-01   -4,139471054e-01
       91775000    3,481729925e-01   -4,200915396e-01
       91850000    3,444975913e-01   -4,251957536e-01
       91925000    3,434637785e-01   -4,309943914e-01
