! NanoVNA-App
! Date: 2025-08-09 12:45:56
! Start: 65MHz Stop: 95MHz Points: 401
! S-Parameter data: F S11
# Hz S RI R 50
!     Frequency           S11_Real           S11_Imag
       65000000    4,585357904e-01   -3,878176585e-02
       65075000    4,615482390e-01   -4,048486054e-02
       65150000    4,610780776e-01   -4,354983568e-02
       65225000    4,599563777e-01   -4,762864858e-02
       65300000    4,587736428e-01   -4,986790940e-02
       65375000    4,582617879e-01   -5,372059345e-02
       65450000    4,567455351e-01   -5,711799115e-02
       65525000    4,561674595e-01   -6,027366966e-02
       65600000    4,552720487e-01   -6,372577697e-02
       65675000    4,538997412e-01   -6,690180302e-02
       65750000    4,530853629e-01   -7,040193677e-02
       65825000    4,526715577e-01   -7,480042428e-02
       65900000    4,514091015e-01   -7,705941796e-02
       65975000    4,506431222e-01   -8,190179616e-02
       66050000    4,495490193e-01   -8,370700479e-02
       66125000    4,495402277e-01   -8,648493886e-02
       66200000    4,475205541e-01   -9,134347737e-02
       66275000    4,465715885e-01   -9,359350055e-02
       66350000    4,460870028e-01   -9,623681754e-02
       66425000    4,447863698e-01   -1,010139808e-01
       66500000    4,441154003e-01   -1,042304412e-01
       66575000    4,427874088e-01   -1,079151928e-01
       66650000    4,416857064e-01   -1,099357232e-01
       66725000    4,411295354e-01   -1,125774309e-01
       66800000    4,399239123e-01   -1,160041541e-01
       66875000    4,394875765e-01   -1,187206656e-01
       66950000    4,383061826e-01   -1,226068884e-01
       67025000    4,366704524e-01   -1,256624013e-01
       67100000    4,371086657e-01   -1,294260472e-01
       67175000    4,366029501e-01   -1,330644339e-01
       67250000    4,349547923e-01   -1,354944855e-01
       67325000    4,355745614e-01   -1,393672824e-01
       67400000    4,330768287e-01   -1,436260045e-01
       67475000    4,317388833e-01   -1,457946151e-01
       67550000    4,305867553e-01   -1,491963118e-01
       67625000    4,291021824e-01   -1,539936066e-01
       67700000    4,286067188e-01   -1,553334743e-01
       67775000    4,269216657e-01   -1,584186256e-01
       67850000    4,250448048e-01   -1,626905352e-01
       67925000    4,249496460e-01   -1,651733369e-01
       68000000    4,221929610e-01   -1,691522449e-01
       68075000    4,229987562e-01   -1,714618355e-01
       68150000    4,212321639e-01   -1,761063933e-01
       68225000    4,191339016e-01   -1,778936088e-01
       68300000    4,177723229e-01   -1,810663342e-01
       68375000    4,164797664e-01   -1,848757863e-01
       68450000    4,149001539e-01   -1,880225390e-01
       68525000    4,123227298e-01   -1,918317825e-01
       68600000    4,118986428e-01   -1,950958073e-01
       68675000    4,102441967e-01   -1,984997690e-01
       68750000    4,084930420e-01   -2,007939517e-01
       68825000    4,063648582e-01   -2,040442824e-01
       68900000    4,040116370e-01   -2,061889768e-01
       68975000    4,020093083e-01   -2,097056061e-01
       69050000    3,994918466e-01   -2,135628462e-01
       69125000    3,981578052e-01   -2,158772647e-01
       69200000    3,953435719e-01   -2,183753550e-01
       69275000    3,930285573e-01   -2,215092927e-01
       69350000    3,898051381e-01   -2,234958559e-01
       69425000    3,883220553e-01   -2,262696773e-01
       69500000    3,841851950e-01   -2,287336439e-01
       69575000    3,831441402e-01   -2,314530462e-01
       69650000    3,802619874e-01   -2,327857018e-01
       69725000    3,774306476e-01   -2,361654043e-01
       69800000    3,743154705e-01   -2,376027107e-01
       69875000    3,739727139e-01   -2,396032959e-01
       69950000    3,698755801e-01   -2,419576198e-01
       70025000    3,672884703e-01   -2,435301989e-01
       70100000    3,654702306e-01   -2,446419448e-01
       70175000    3,624033332e-01   -2,470882684e-01
       70250000    3,595059514e-01   -2,481912673e-01
       70325000    3,570083380e-01   -2,496861070e-01
       70400000    3,546872735e-01   -2,514579892e-01
       70475000    3,533715308e-01   -2,515846193e-01
       70550000    3,503981829e-01   -2,524476647e-01
       70625000    3,472516239e-01   -2,538647950e-01
       70700000    3,451972306e-01   -2,549552619e-01
       70775000    3,441751003e-01   -2,564842701e-01
       70850000    3,430212140e-01   -2,565093338e-01
       70925000    3,391750455e-01   -2,575893402e-01
       71000000    3,363681734e-01   -2,581067681e-01
       71075000    3,357038200e-01   -2,588998079e-01
       71150000    3,338501155e-01   -2,591218352e-01
       71225000    3,324625492e-01   -2,599166632e-01
       71300000    3,302927315e-01   -2,605237067e-01
       71375000    3,286807537e-01   -2,613184452e-01
       71450000    3,263919055e-01   -2,631532550e-01
       71525000    3,251229823e-01   -2,638016343e-01
       71600000    3,244007528e-01   -2,624561787e-01
       71675000    3,225395679e-01   -2,648229599e-01
       71750000    3,201985359e-01   -2,659954727e-01
       71825000    3,199816942e-01   -2,652263045e-01
       71900000    3,176807761e-01   -2,669253349e-01
       71975000    3,158553839e-01   -2,667995095e-01
       72050000    3,153067231e-01   -2,668522894e-01
       72125000    3,140903115e-01   -2,668565214e-01
       72200000    3,120371699e-01   -2,677032351e-01
       72275000    3,115305603e-01   -2,685393691e-01
       72350000    3,094045818e-01   -2,694701552e-01
       72425000    3,083797693e-01   -2,702427208e-01
       72500000    3,046514392e-01   -2,701321542e-01
       72575000    3,064311445e-01   -2,701232433e-01
       72650000    3,057013452e-01   -2,706002295e-01
       72725000    3,041860461e-01   -2,719386816e-01
       72800000    3,032501340e-01   -2,718804479e-01
       72875000    3,010436893e-01   -2,732511163e-01
       72950000    3,011728525e-01   -2,731142938e-01
       73025000    3,001199067e-01   -2,738183141e-01
       73100000    2,990534902e-01   -2,732266486e-01
       73175000    2,963919938e-01   -2,745867372e-01
       73250000    2,967705727e-01   -2,744765878e-01
       73325000    2,965868711e-01   -2,743057907e-01
       73400000    2,948813438e-01   -2,760070562e-01
       73475000    2,949930429e-01   -2,751764059e-01
       73550000    2,951262891e-01   -2,759360671e-01
       73625000    2,929965854e-01   -2,755824029e-01
       73700000    2,925477326e-01   -2,777633369e-01
       73775000    2,908405662e-01   -2,771738172e-01
       73850000    2,904009819e-01   -2,775658369e-01
       73925000    2,900103927e-01   -2,799924612e-01
       74000000    2,901336849e-01   -2,789844275e-01
       74075000    2,890233099e-01   -2,797301710e-01
       74150000    2,869919240e-01   -2,805639207e-01
       74225000    2,862963378e-01   -2,808791995e-01
       74300000    2,863123119e-01   -2,809288502e-01
       74375000    2,852568030e-01   -2,824270725e-01
       74450000    2,847618759e-01   -2,826538682e-01
       74525000    2,850092947e-01   -2,828201652e-01
       74600000    2,836746871e-01   -2,839381993e-01
       74675000    2,831533551e-01   -2,845169902e-01
       74750000    2,812363207e-01   -2,847856879e-01
       74825000    2,813937664e-01   -2,851784527e-01
       74900000    2,799194455e-01   -2,872524858e-01
       74975000    2,801931202e-01   -2,862024009e-01
       75050000    2,797968686e-01   -2,876127362e-01
       75125000    2,777145505e-01   -2,874682844e-01
       75200000    2,786178589e-01   -2,882993221e-01
       75275000    2,757182419e-01   -2,883757055e-01
       75350000    2,763092816e-01   -2,884424031e-01
       75425000    2,751184106e-01   -2,898772955e-01
       75500000    2,744068801e-01   -2,903169692e-01
       75575000    2,729116082e-01   -2,907364666e-01
       75650000    2,730446458e-01   -2,909649611e-01
       75725000    2,720887363e-01   -2,917511463e-01
       75800000    2,720800042e-01   -2,920674384e-01
       75875000    2,701718211e-01   -2,938983738e-01
       75950000    2,711272240e-01   -2,928575873e-01
       76025000    2,702972889e-01   -2,932315767e-01
       76100000    2,685742676e-01   -2,931212783e-01
       76175000    2,693066895e-01   -2,944801748e-01
       76250000    2,665546238e-01   -2,942928374e-01
       76325000    2,669931352e-01   -2,944081426e-01
       76400000    2,668029964e-01   -2,962681651e-01
       76475000    2,648140788e-01   -2,943857014e-01
       76550000    2,643696070e-01   -2,951518595e-01
       76625000    2,647343278e-01   -2,968142629e-01
       76700000    2,640157938e-01   -2,955701053e-01
       76775000    2,624607980e-01   -2,960557640e-01
       76850000    2,626015246e-01   -2,977681458e-01
       76925000    2,607416213e-01   -2,965253592e-01
       77000000    2,608075142e-01   -2,963115275e-01
       77075000    2,602725625e-01   -2,966330051e-01
       77150000    2,597922385e-01   -2,967388332e-01
       77225000    2,581035793e-01   -2,971953452e-01
       77300000    2,578465343e-01   -2,971087694e-01
       77375000    2,578586042e-01   -2,969172001e-01
       77450000    2,565938830e-01   -2,961694896e-01
       77525000    2,556980848e-01   -2,957343757e-01
       77600000    2,563432455e-01   -2,955513299e-01
       77675000    2,541804910e-01   -2,947371304e-01
       77750000    2,542820275e-01   -2,946638763e-01
       77825000    2,545974553e-01   -2,949608564e-01
       77900000    2,524740994e-01   -2,931180596e-01
       77975000    2,533032894e-01   -2,923704088e-01
       78050000    2,534069121e-01   -2,917372584e-01
       78125000    2,526272833e-01   -2,904174924e-01
       78200000    2,529835701e-01   -2,891062200e-01
       78275000    2,547249794e-01   -2,878770232e-01
       78350000    2,545829415e-01   -2,873703837e-01
       78425000    2,551205158e-01   -2,864321768e-01
       78500000    2,585036159e-01   -2,854777575e-01
       78575000    2,590753436e-01   -2,862866819e-01
       78650000    2,602339089e-01   -2,859299481e-01
       78725000    2,610948384e-01   -2,861748040e-01
       78800000    2,618860006e-01   -2,876767218e-01
       78875000    2,630078197e-01   -2,861037552e-01
       78950000    2,638836205e-01   -2,870712280e-01
       79025000    2,648967803e-01   -2,859197855e-01
       79100000    2,659298182e-01   -2,863692939e-01
       79175000    2,651861310e-01   -2,869089842e-01
       79250000    2,674880922e-01   -2,863253355e-01
       79325000    2,695601881e-01   -2,876390517e-01
       79400000    2,693701684e-01   -2,876016498e-01
       79475000    2,716129422e-01   -2,869004905e-01
       79550000    2,712515593e-01   -2,874115705e-01
       79625000    2,730540633e-01   -2,876512110e-01
       79700000    2,751054168e-01   -2,894204557e-01
       79775000    2,754603326e-01   -2,886737287e-01
       79850000    2,762894630e-01   -2,888530195e-01
       79925000    2,792668343e-01   -2,889328599e-01
       80000000    2,770988047e-01   -2,871201038e-01
       80075000    2,801916301e-01   -2,895533442e-01
       80150000    2,818155885e-01   -2,920626104e-01
       80225000    2,833717763e-01   -2,910035849e-01
       80300000    2,857273221e-01   -2,913385034e-01
       80375000    2,868215144e-01   -2,925810218e-01
       80450000    2,880940735e-01   -2,935874462e-01
       80525000    2,908307612e-01   -2,950944006e-01
       80600000    2,928959727e-01   -2,950082719e-01
       80675000    2,947171032e-01   -2,955347598e-01
       80750000    2,954617143e-01   -2,963529825e-01
       80825000    2,972576320e-01   -2,978291810e-01
       80900000    2,985837162e-01   -3,000239730e-01
       80975000    3,004811108e-01   -3,003363609e-01
       81050000    3,026430011e-01   -3,018806577e-01
       81125000    3,037925065e-01   -3,042126298e-01
       81200000    3,056327999e-01   -3,046678901e-01
       81275000    3,064836860e-01   -3,072803617e-01
       81350000    3,097040057e-01   -3,078193069e-01
       81425000    3,123497963e-01   -3,097167611e-01
       81500000    3,129471540e-01   -3,111114204e-01
       81575000    3,147694170e-01   -3,131221533e-01
       81650000    3,161292672e-01   -3,168111444e-01
       81725000    3,165320456e-01   -3,171848357e-01
       81800000    3,190126121e-01   -3,190864921e-01
       81875000    3,206346333e-01   -3,224777281e-01
       81950000    3,224979341e-01   -3,232354820e-01
       82025000    3,243456483e-01   -3,265478909e-01
       82100000    3,256836236e-01   -3,276276290e-01
       82175000    3,278316855e-01   -3,305281997e-01
       82250000    3,284776807e-01   -3,319087923e-01
       82325000    3,297503591e-01   -3,347002268e-01
       82400000    3,302705586e-01   -3,373137414e-01
       82475000    3,327165842e-01   -3,404209614e-01
       82550000    3,329651058e-01   -3,436611593e-01
       82625000    3,350636959e-01   -3,454426229e-01
       82700000    3,363178968e-01   -3,489260375e-01
       82775000    3,369360566e-01   -3,506112695e-01
       82850000    3,387387097e-01   -3,547222316e-01
       82925000    3,400605321e-01   -3,570751846e-01
       83000000    3,420775235e-01   -3,611876667e-01
       83075000    3,421317637e-01   -3,625627756e-01
       83150000    3,426181972e-01   -3,668183386e-01
       83225000    3,439488411e-01   -3,691118062e-01
       83300000    3,457289338e-01   -3,729880750e-01
       83375000    3,462038934e-01   -3,750900626e-01
       83450000    3,468499184e-01   -3,780003190e-01
       83525000    3,456191719e-01   -3,812541664e-01
       83600000    3,474079669e-01   -3,847554326e-01
       83675000    3,497291803e-01   -3,890577853e-01
       83750000    3,491788208e-01   -3,921241462e-01
       83825000    3,496131003e-01   -3,945664763e-01
       83900000    3,487724662e-01   -3,988909125e-01
       83975000    3,496664762e-01   -4,030990899e-01
       84050000    3,491771817e-01   -4,075139761e-01
       84125000    3,494038284e-01   -4,102090895e-01
       84200000    3,502870500e-01   -4,129013717e-01
       84275000    3,475558162e-01   -4,174752235e-01
       84350000    3,489207327e-01   -4,201920927e-01
       84425000    3,485341370e-01   -4,255222380e-01
       84500000    3,491421044e-01   -4,280319810e-01
       84575000    3,504301906e-01   -4,316839278e-01
       84650000    3,475891650e-01   -4,345183372e-01
       84725000    3,479877114e-01   -4,393779635e-01
       84800000    3,459223807e-01   -4,438492954e-01
       84875000    3,462622762e-01   -4,466320276e-01
       84950000    3,465395272e-01   -4,502564371e-01
       85025000    3,460130394e-01   -4,553142786e-01
       85100000    3,446412981e-01   -4,570601881e-01
       85175000    3,429455757e-01   -4,616492689e-01
       85250000    3,404582143e-01   -4,655233026e-01
       85325000    3,414114416e-01   -4,699714184e-01
       85400000    3,409184515e-01   -4,730694294e-01
       85475000    3,383849561e-01   -4,756817520e-01
       85550000    3,363770545e-01   -4,800421596e-01
       85625000    3,347399831e-01   -4,831568003e-01
       85700000    3,317919970e-01   -4,882954359e-01
       85775000    3,312657177e-01   -4,903783798e-01
       85850000    3,283672631e-01   -4,941796362e-01
       85925000    3,284246325e-01   -4,967268705e-01
       86000000    3,238381147e-01   -4,992179275e-01
       86075000    3,233813047e-01   -5,035184026e-01
       86150000    3,210994899e-01   -5,092551708e-01
       86225000    3,180590570e-01   -5,121246576e-01
       86300000    3,174206913e-01   -5,128685832e-01
       86375000    3,146133721e-01   -5,160800219e-01
       86450000    3,132441938e-01   -5,201911330e-01
       86525000    3,090988994e-01   -5,244006515e-01
       86600000    3,079612851e-01   -5,245631933e-01
       86675000    3,051563501e-01   -5,275017619e-01
       86750000    3,014004827e-01   -5,295418501e-01
       86825000    3,004868329e-01   -5,331466794e-01
       86900000    2,964022756e-01   -5,364129543e-01
       86975000    2,943846583e-01   -5,393342972e-01
       87050000    2,932147384e-01   -5,412864685e-01
       87125000    2,865047753e-01   -5,419172645e-01
       87200000    2,856878340e-01   -5,440764427e-01
       87275000    2,837364078e-01   -5,485435724e-01
       87350000    2,786350250e-01   -5,480403900e-01
       87425000    2,779039443e-01   -5,501562953e-01
       87500000    2,702643573e-01   -5,475684404e-01
       87575000    2,728329301e-01   -5,538889766e-01
       87650000    2,680628300e-01   -5,557192564e-01
       87725000    2,679716051e-01   -5,584796071e-01
       87800000    2,666865587e-01   -5,616085529e-01
       87875000    2,630397677e-01   -5,604814887e-01
       87950000    2,589043379e-01   -5,625612736e-01
       88025000    2,579185963e-01   -5,625567436e-01
       88100000    2,507666647e-01   -5,648162961e-01
       88175000    2,545938194e-01   -5,668409467e-01
       88250000    2,513620555e-01   -5,686284900e-01
       88325000    2,458328158e-01   -5,712993145e-01
       88400000    2,443061769e-01   -5,710367560e-01
       88475000    2,410351634e-01   -5,739769936e-01
       88550000    2,400376201e-01   -5,755407214e-01
       88625000    2,375594974e-01   -5,744132400e-01
       88700000    2,352155447e-01   -5,780683756e-01
       88775000    2,298351526e-01   -5,780586004e-01
       88850000    2,300088704e-01   -5,789080858e-01
       88925000    2,264882475e-01   -5,789571404e-01
       89000000    2,223698348e-01   -5,800139308e-01
       89075000    2,198057622e-01   -5,819365978e-01
       89150000    2,159439772e-01   -5,841179490e-01
       89225000    2,152970433e-01   -5,846247673e-01
       89300000    2,123939544e-01   -5,855791569e-01
       89375000    2,099484503e-01   -5,846824646e-01
       89450000    2,068757415e-01   -5,861395001e-01
       89525000    2,022936791e-01   -5,827132463e-01
       89600000    2,011418194e-01   -5,836610198e-01
       89675000    2,003632039e-01   -5,831410289e-01
       89750000    1,957661957e-01   -5,816022158e-01
       89825000    1,953303814e-01   -5,825351477e-01
       89900000    1,939204037e-01   -5,824586749e-01
       89975000    1,903841496e-01   -5,807407498e-01
       90050000    1,899463534e-01   -5,801223516e-01
       90125000    1,839804798e-01   -5,798016191e-01
       90200000    1,837393045e-01   -5,793704391e-01
       90275000    1,855002940e-01   -5,775754452e-01
       90350000    1,826203018e-01   -5,757281184e-01
       90425000    1,801867038e-01   -5,757538676e-01
       90500000    1,790370643e-01   -5,759694576e-01
       90575000    1,822925061e-01   -5,735865235e-01
       90650000    1,799773276e-01   -5,731202364e-01
       90725000    1,814827472e-01   -5,739833713e-01
       90800000    1,813968122e-01   -5,717135072e-01
       90875000    1,828829646e-01   -5,717108846e-01
       90950000    1,805146933e-01   -5,697370172e-01
       91025000    1,829044521e-01   -5,700432062e-01
       91100000    1,830394268e-01   -5,701528788e-01
       91175000    1,836327314e-01   -5,716218948e-01
       91250000    1,834299713e-01   -5,732096434e-01
       91325000    1,855475605e-01   -5,740451813e-01
       91400000    1,864049882e-01   -5,766615272e-01
       91475000    1,882213652e-01   -5,766309500e-01
       91550000    1,908228844e-01   -5,784061551e-01
       91625000    1,909976900e-01   -5,793377161e-01
       91700000    1,929786950e-01   -5,818083286e-01
       91775000    1,923113167e-01   -5,815367699e-01
       91850000    1,932482868e-01   -5,835785866e-01
       91925000    1,903331131e-01   -5,853832364e-01
