! NanoVNA-App
! Date: 2025-08-02 15:52:26
! Start: 65MHz Stop: 95MHz Points: 401
! S-Parameter data: F S11
# Hz S RI R 50
!     Frequency           S11_Real           S11_Imag
       65000000   -6,450886726e-01   -3,552683890e-01
       65075000   -6,425551772e-01   -3,502216041e-01
       65150000   -6,440686584e-01   -3,448044956e-01
       65225000   -6,406127810e-01   -3,403553069e-01
       65300000   -6,408112645e-01   -3,354243636e-01
       65375000   -6,394696832e-01   -3,292022049e-01
       65450000   -6,379187107e-01   -3,247666955e-01
       65525000   -6,373146176e-01   -3,210038245e-01
       65600000   -6,353734732e-01   -3,133512735e-01
       65675000   -6,343943477e-01   -3,118423522e-01
       65750000   -6,328325272e-01   -3,055563271e-01
       65825000   -6,297149658e-01   -3,036702871e-01
       65900000   -6,308837533e-01   -2,993042469e-01
       65975000   -6,265312433e-01   -2,950581312e-01
       66050000   -6,271684170e-01   -2,898280025e-01
       66125000   -6,240791678e-01   -2,839035988e-01
       66200000   -6,219152212e-01   -2,822068334e-01
       66275000   -6,205808520e-01   -2,782822251e-01
       66350000   -6,196328998e-01   -2,727541327e-01
       66425000   -6,170752048e-01   -2,714281976e-01
       66500000   -6,161330342e-01   -2,652263641e-01
       66575000   -6,126434207e-01   -2,626618445e-01
       66650000   -6,127287745e-01   -2,586831748e-01
       66725000   -6,086057425e-01   -2,541453242e-01
       66800000   -6,085628271e-01   -2,529905438e-01
       66875000   -6,050558686e-01   -2,475761622e-01
       66950000   -6,057646871e-01   -2,448926419e-01
       67025000   -6,032326221e-01   -2,419777960e-01
       67100000   -5,988739133e-01   -2,368480265e-01
       67175000   -5,985694528e-01   -2,333278805e-01
       67250000   -5,972611904e-01   -2,293310314e-01
       67325000   -5,947297812e-01   -2,256206721e-01
       67400000   -5,923612714e-01   -2,227143347e-01
       67475000   -5,902506709e-01   -2,182975262e-01
       67550000   -5,874205828e-01   -2,137487531e-01
       67625000   -5,840334296e-01   -2,117523849e-01
       67700000   -5,831088424e-01   -2,069872916e-01
       67775000   -5,775535703e-01   -2,047503442e-01
       67850000   -5,761644840e-01   -2,030808330e-01
       67925000   -5,726931691e-01   -1,985763907e-01
       68000000   -5,708224177e-01   -1,974906623e-01
       68075000   -5,677297115e-01   -1,924971938e-01
       68150000   -5,646508336e-01   -1,915112734e-01
       68225000   -5,634505153e-01   -1,900967509e-01
       68300000   -5,577332973e-01   -1,873478293e-01
       68375000   -5,568757057e-01   -1,852505356e-01
       68450000   -5,535104275e-01   -1,818383336e-01
       68525000   -5,511660576e-01   -1,803807616e-01
       68600000   -5,465158224e-01   -1,764133722e-01
       68675000   -5,439147353e-01   -1,756393015e-01
       68750000   -5,416468382e-01   -1,730234474e-01
       68825000   -5,383927822e-01   -1,726079732e-01
       68900000   -5,365769863e-01   -1,698436439e-01
       68975000   -5,330725312e-01   -1,700835079e-01
       69050000   -5,301734805e-01   -1,677251756e-01
       69125000   -5,277508497e-01   -1,676899493e-01
       69200000   -5,267950892e-01   -1,661222726e-01
       69275000   -5,219141245e-01   -1,657955647e-01
       69350000   -5,213921070e-01   -1,638443321e-01
       69425000   -5,185359716e-01   -1,639283597e-01
       69500000   -5,171127915e-01   -1,618696004e-01
       69575000   -5,134972334e-01   -1,617917418e-01
       69650000   -5,134270787e-01   -1,601071358e-01
       69725000   -5,098055005e-01   -1,604679078e-01
       69800000   -5,099789500e-01   -1,584381461e-01
       69875000   -5,069082379e-01   -1,586106867e-01
       69950000   -5,045048594e-01   -1,576747596e-01
       70025000   -5,050706267e-01   -1,569310576e-01
       70100000   -5,021557212e-01   -1,538387835e-01
       70175000   -5,004239082e-01   -1,562574804e-01
       70250000   -5,003730655e-01   -1,534809470e-01
       70325000   -4,972159863e-01   -1,532434374e-01
       70400000   -4,975884259e-01   -1,523995847e-01
       70475000   -4,942536056e-01   -1,506828219e-01
       70550000   -4,937939048e-01   -1,500227302e-01
       70625000   -4,931423366e-01   -1,486876756e-01
       70700000   -4,898719490e-01   -1,476898938e-01
       70775000   -4,906011522e-01   -1,468024105e-01
       70850000   -4,878853559e-01   -1,461465359e-01
       70925000   -4,875823259e-01   -1,459841281e-01
       71000000   -4,875594974e-01   -1,430681795e-01
       71075000   -4,837770760e-01   -1,425519586e-01
       71150000   -4,827071428e-01   -1,421893984e-01
       71225000   -4,823583364e-01   -1,405221522e-01
       71300000   -4,799802601e-01   -1,372381151e-01
       71375000   -4,785614908e-01   -1,396384537e-01
       71450000   -4,780471921e-01   -1,364856660e-01
       71525000   -4,771825075e-01   -1,358883381e-01
       71600000   -4,736407697e-01   -1,350309849e-01
       71675000   -4,733679295e-01   -1,344288439e-01
       71750000   -4,726850688e-01   -1,330362111e-01
       71825000   -4,703899324e-01   -1,341207623e-01
       71900000   -4,696145654e-01   -1,315744817e-01
       71975000   -4,679161608e-01   -1,302087754e-01
       72050000   -4,669140875e-01   -1,305959225e-01
       72125000   -4,650326073e-01   -1,296174526e-01
       72200000   -4,637686908e-01   -1,274251789e-01
       72275000   -4,628382921e-01   -1,281573772e-01
       72350000   -4,612078965e-01   -1,260866523e-01
       72425000   -4,605757296e-01   -1,280967295e-01
       72500000   -4,603353739e-01   -1,272762567e-01
       72575000   -4,579279423e-01   -1,271810681e-01
       72650000   -4,578934610e-01   -1,260942668e-01
       72725000   -4,570800960e-01   -1,247382462e-01
       72800000   -4,549647272e-01   -1,260501295e-01
       72875000   -4,543966353e-01   -1,242285222e-01
       72950000   -4,542574883e-01   -1,259082705e-01
       73025000   -4,541093409e-01   -1,245850772e-01
       73100000   -4,527431428e-01   -1,236400083e-01
       73175000   -4,531389475e-01   -1,220081821e-01
       73250000   -4,515420496e-01   -1,234700009e-01
       73325000   -4,507538378e-01   -1,234718934e-01
       73400000   -4,514730871e-01   -1,207929701e-01
       73475000   -4,500666261e-01   -1,214391142e-01
       73550000   -4,506138861e-01   -1,212806404e-01
       73625000   -4,492503703e-01   -1,207791790e-01
       73700000   -4,503009021e-01   -1,201788336e-01
       73775000   -4,483559132e-01   -1,192960814e-01
       73850000   -4,501746297e-01   -1,181294098e-01
       73925000   -4,494259357e-01   -1,160491928e-01
       74000000   -4,489619732e-01   -1,183539182e-01
       74075000   -4,484290183e-01   -1,148983836e-01
       74150000   -4,484388828e-01   -1,148758754e-01
       74225000   -4,473500848e-01   -1,155596077e-01
       74300000   -4,484196603e-01   -1,141383424e-01
       74375000   -4,485736191e-01   -1,114189401e-01
       74450000   -4,484207332e-01   -1,135259420e-01
       74525000   -4,483645856e-01   -1,104424894e-01
       74600000   -4,481271505e-01   -1,101087481e-01
       74675000   -4,495342970e-01   -1,097305268e-01
       74750000   -4,476064146e-01   -1,085515171e-01
       74825000   -4,487103522e-01   -1,053925157e-01
       74900000   -4,476023912e-01   -1,055622995e-01
       74975000   -4,487785995e-01   -1,061255485e-01
       75050000   -4,482270479e-01   -1,026797071e-01
       75125000   -4,481739998e-01   -1,033500507e-01
       75200000   -4,486243427e-01   -1,010118648e-01
       75275000   -4,475969076e-01   -1,004836410e-01
       75350000   -4,488388896e-01   -9,895431995e-02
       75425000   -4,475640059e-01   -9,918458015e-02
       75500000   -4,483073354e-01   -9,556825459e-02
       75575000   -4,486584961e-01   -9,706323594e-02
       75650000   -4,492776990e-01   -9,459786862e-02
       75725000   -4,477195740e-01   -9,497001022e-02
       75800000   -4,496053755e-01   -9,234704822e-02
       75875000   -4,489658773e-01   -9,118448198e-02
       75950000   -4,493744075e-01   -8,934357762e-02
       76025000   -4,497756362e-01   -8,764781058e-02
       76100000   -4,493936300e-01   -8,764228970e-02
       76175000   -4,500405788e-01   -8,525256068e-02
       76250000   -4,487757981e-01   -8,540502191e-02
       76325000   -4,511192739e-01   -8,250322193e-02
       76400000   -4,497451782e-01   -8,231012523e-02
       76475000   -4,506129920e-01   -8,127322048e-02
       76550000   -4,515192807e-01   -7,868476212e-02
       76625000   -4,501476884e-01   -7,640565187e-02
       76700000   -4,512712955e-01   -7,469193637e-02
       76775000   -4,521147609e-01   -7,383707911e-02
       76850000   -4,511200786e-01   -7,228146493e-02
       76925000   -4,518807530e-01   -7,197681814e-02
       77000000   -4,530025125e-01   -6,832225621e-02
       77075000   -4,532667398e-01   -6,626524776e-02
       77150000   -4,521106482e-01   -6,546013057e-02
       77225000   -4,535508156e-01   -6,517615914e-02
       77300000   -4,549493492e-01   -6,161016598e-02
       77375000   -4,538075626e-01   -6,127950177e-02
       77450000   -4,566351473e-01   -5,774450302e-02
       77525000   -4,569264948e-01   -5,506113917e-02
       77600000   -4,561313391e-01   -5,403627828e-02
       77675000   -4,585466683e-01   -5,132754892e-02
       77750000   -4,567430317e-01   -4,855097085e-02
       77825000   -4,567601681e-01   -4,742992297e-02
       77900000   -4,589776397e-01   -4,438395426e-02
       77975000   -4,592849016e-01   -4,003475234e-02
       78050000   -4,582790732e-01   -3,962828591e-02
       78125000   -4,611351490e-01   -3,673752770e-02
       78200000   -4,597098529e-01   -3,284694254e-02
       78275000   -4,598972499e-01   -3,015216067e-02
       78350000   -4,604244530e-01   -2,855874784e-02
       78425000   -4,611628056e-01   -2,519786917e-02
       78500000   -4,600212276e-01   -2,121721208e-02
       78575000   -4,601008296e-01   -1,853921451e-02
       78650000   -4,612551928e-01   -1,463872287e-02
       78725000   -4,598788023e-01   -1,095159445e-02
       78800000   -4,593909979e-01   -9,829225019e-03
       78875000   -4,602298141e-01   -5,211457144e-03
       78950000   -4,599542916e-01   -3,574308939e-03
       79025000   -4,594252110e-01    2,043876797e-03
       79100000   -4,582022727e-01    3,696026746e-03
       79175000   -4,586797059e-01    7,441640832e-03
       79250000   -4,562912583e-01    1,187074091e-02
       79325000   -4,555536211e-01    1,342350990e-02
       79400000   -4,543683529e-01    1,820576377e-02
       79475000   -4,543497860e-01    2,122011594e-02
       79550000   -4,537549913e-01    2,532958239e-02
       79625000   -4,516113400e-01    2,881998941e-02
       79700000   -4,501371086e-01    3,003459424e-02
       79775000   -4,494502544e-01    3,551611677e-02
       79850000   -4,473779798e-01    3,816767037e-02
       79925000   -4,461452663e-01    4,007559642e-02
       80000000   -4,459874332e-01    4,490421340e-02
       80075000   -4,428538680e-01    4,954444617e-02
       80150000   -4,421263039e-01    5,130379647e-02
       80225000   -4,407702982e-01    5,561887845e-02
       80300000   -4,381297529e-01    5,688437447e-02
       80375000   -4,376065731e-01    6,085520610e-02
       80450000   -4,348921180e-01    6,505686790e-02
       80525000   -4,335872233e-01    6,683552265e-02
       80600000   -4,305483699e-01    7,061579823e-02
       80675000   -4,287581742e-01    7,346872985e-02
       80750000   -4,270211160e-01    7,822170854e-02
       80825000   -4,237905443e-01    8,047503978e-02
       80900000   -4,222655594e-01    8,443651348e-02
       80975000   -4,197993279e-01    8,670163155e-02
       81050000   -4,163532853e-01    8,869473636e-02
       81125000   -4,153801501e-01    9,319278598e-02
       81200000   -4,112194180e-01    9,419640154e-02
       81275000   -4,093793333e-01    9,678684175e-02
       81350000   -4,062050283e-01    9,963043779e-02
       81425000   -4,041599035e-01    1,004533470e-01
       81500000   -4,013178945e-01    1,043087095e-01
       81575000   -3,979690969e-01    1,053995788e-01
       81650000   -3,965297937e-01    1,093322709e-01
       81725000   -3,928889334e-01    1,107701659e-01
       81800000   -3,896593451e-01    1,118240580e-01
       81875000   -3,883847296e-01    1,148388311e-01
       81950000   -3,851435781e-01    1,155630350e-01
       82025000   -3,842826486e-01    1,178823560e-01
       82100000   -3,798321784e-01    1,201933399e-01
       82175000   -3,778977096e-01    1,201775298e-01
       82250000   -3,756098151e-01    1,219165176e-01
       82325000   -3,721251786e-01    1,222593859e-01
       82400000   -3,705983460e-01    1,257087886e-01
       82475000   -3,684980571e-01    1,260902882e-01
       82550000   -3,666940331e-01    1,278201491e-01
       82625000   -3,634957671e-01    1,290794164e-01
       82700000   -3,627147675e-01    1,318173558e-01
       82775000   -3,593431413e-01    1,326935738e-01
       82850000   -3,585390747e-01    1,347165257e-01
       82925000   -3,565309942e-01    1,359184086e-01
       83000000   -3,541174233e-01    1,375065595e-01
       83075000   -3,525587618e-01    1,383290589e-01
       83150000   -3,515492976e-01    1,409983784e-01
       83225000   -3,493362069e-01    1,423897594e-01
       83300000   -3,478250206e-01    1,442875266e-01
       83375000   -3,455231786e-01    1,455880553e-01
       83450000   -3,439399898e-01    1,467802972e-01
       83525000   -3,417364657e-01    1,493953764e-01
       83600000   -3,409827352e-01    1,507707387e-01
       83675000   -3,391539752e-01    1,545355767e-01
       83750000   -3,367043436e-01    1,557016373e-01
       83825000   -3,362139165e-01    1,566651314e-01
       83900000   -3,332334161e-01    1,595484018e-01
       83975000   -3,317401707e-01    1,613516510e-01
       84050000   -3,297517896e-01    1,638231426e-01
       84125000   -3,258168101e-01    1,657893658e-01
       84200000   -3,261376023e-01    1,686403304e-01
       84275000   -3,231869936e-01    1,699981689e-01
       84350000   -3,204506040e-01    1,722275466e-01
       84425000   -3,189688623e-01    1,740045100e-01
       84500000   -3,171693683e-01    1,770842820e-01
       84575000   -3,152910471e-01    1,799502671e-01
       84650000   -3,127180338e-01    1,807090193e-01
       84725000   -3,103141487e-01    1,830271184e-01
       84800000   -3,079952300e-01    1,861223429e-01
       84875000   -3,052191436e-01    1,873860955e-01
       84950000   -3,041586280e-01    1,918364614e-01
       85025000   -3,002108634e-01    1,934106499e-01
       85100000   -2,998725176e-01    1,963124126e-01
       85175000   -2,976052165e-01    1,982820481e-01
       85250000   -2,945404947e-01    2,012483180e-01
       85325000   -2,917709649e-01    2,026313990e-01
       85400000   -2,892190218e-01    2,065761536e-01
       85475000   -2,868638635e-01    2,078984976e-01
       85550000   -2,839734852e-01    2,111266106e-01
       85625000   -2,820417285e-01    2,152000219e-01
       85700000   -2,787368298e-01    2,166319638e-01
       85775000   -2,751656175e-01    2,187874317e-01
       85850000   -2,736274302e-01    2,234800011e-01
       85925000   -2,688798308e-01    2,261466533e-01
       86000000   -2,658503354e-01    2,272060066e-01
       86075000   -2,627502978e-01    2,305458486e-01
       86150000   -2,596788108e-01    2,332526445e-01
       86225000   -2,565316856e-01    2,367862761e-01
       86300000   -2,519215643e-01    2,387892008e-01
       86375000   -2,487857342e-01    2,412720323e-01
       86450000   -2,447024584e-01    2,440026551e-01
       86525000   -2,413183153e-01    2,476550341e-01
       86600000   -2,376605570e-01    2,484815866e-01
       86675000   -2,329191715e-01    2,515426576e-01
       86750000   -2,286654562e-01    2,544487715e-01
       86825000   -2,244968712e-01    2,549396157e-01
       86900000   -2,204003781e-01    2,587988675e-01
       86975000   -2,145703733e-01    2,604030967e-01
       87050000   -2,110329717e-01    2,618725300e-01
       87125000   -2,061761320e-01    2,647955716e-01
       87200000   -2,017389238e-01    2,664018869e-01
       87275000   -1,977599263e-01    2,682966590e-01
       87350000   -1,930567622e-01    2,697569132e-01
       87425000   -1,878652573e-01    2,718947828e-01
       87500000   -1,847866327e-01    2,720936835e-01
       87575000   -1,789085418e-01    2,752767503e-01
       87650000   -1,752733886e-01    2,750673890e-01
       87725000   -1,706673205e-01    2,778306007e-01
       87800000   -1,659370661e-01    2,794388533e-01
       87875000   -1,614212543e-01    2,796419263e-01
       87950000   -1,551243365e-01    2,822524607e-01
       88025000   -1,508203745e-01    2,832055390e-01
       88100000   -1,450289935e-01    2,842457891e-01
       88175000   -1,414529830e-01    2,861418724e-01
       88250000   -1,356964558e-01    2,870498300e-01
       88325000   -1,302756667e-01    2,866340578e-01
       88400000   -1,259381473e-01    2,881630361e-01
       88475000   -1,205547750e-01    2,899203598e-01
       88550000   -1,153742373e-01    2,902294993e-01
       88625000   -1,109597683e-01    2,922717035e-01
       88700000   -1,050720662e-01    2,925463319e-01
       88775000   -9,992747009e-02    2,929565310e-01
       88850000   -9,487121552e-02    2,936836183e-01
       88925000   -8,998764306e-02    2,947371006e-01
       89000000   -8,490638435e-02    2,954723835e-01
       89075000   -7,907350361e-02    2,946666181e-01
       89150000   -7,420275360e-02    2,964808941e-01
       89225000   -6,864368170e-02    2,960788310e-01
       89300000   -6,297474355e-02    2,970520258e-01
       89375000   -5,675857142e-02    2,981797457e-01
       89450000   -5,147125572e-02    2,982800007e-01
       89525000   -4,635825008e-02    2,973892689e-01
       89600000   -4,070362449e-02    2,983371615e-01
       89675000   -3,434341028e-02    2,991744280e-01
       89750000   -2,822636627e-02    2,989460826e-01
       89825000   -2,144278772e-02    2,986223400e-01
       89900000   -1,602675952e-02    2,986990809e-01
       89975000   -9,111820720e-03    2,970405519e-01
       90050000   -3,871318186e-03    2,975264490e-01
       90125000    2,666676184e-03    2,971219718e-01
       90200000    7,765421178e-03    2,963330746e-01
       90275000    1,534694992e-02    2,963274717e-01
       90350000    2,157963999e-02    2,952620387e-01
       90425000    2,194850147e-02    2,910337448e-01
       90500000    3,372236714e-02    2,923337221e-01
       90575000    4,080443457e-02    2,903201282e-01
       90650000    4,725959152e-02    2,902561724e-01
       90725000    5,378813297e-02    2,880131900e-01
       90800000    5,987228081e-02    2,862033844e-01
       90875000    6,668553501e-02    2,845338583e-01
       90950000    7,397229970e-02    2,813746035e-01
       91025000    8,013809472e-02    2,795155048e-01
       91100000    8,697781712e-02    2,763320804e-01
       91175000    9,257388115e-02    2,766156793e-01
       91250000    1,003678292e-01    2,712548077e-01
       91325000    1,061235070e-01    2,686213553e-01
       91400000    1,131179929e-01    2,652836144e-01
       91475000    1,179220900e-01    2,620320916e-01
       91550000    1,251302660e-01    2,592545450e-01
       91625000    1,307514906e-01    2,546048164e-01
       91700000    1,375659406e-01    2,511352003e-01
       91775000    1,440316588e-01    2,463194281e-01
       91850000    1,498272419e-01    2,430667579e-01
       91925000    1,560700238e-01    2,378335893e-01
