! NanoVNA-App
! Date: 2025-08-09 12:56:01
! Start: 65MHz Stop: 95MHz Points: 401
! S-Parameter data: F S11
# Hz S RI R 50
!     Frequency           S11_Real           S11_Imag
       65000000    5,721006989e-01   -2,754137516e-01
       65075000    5,778853893e-01   -2,748859525e-01
       65150000    5,766055584e-01   -2,800154388e-01
       65225000    5,746889114e-01   -2,800224423e-01
       65300000    5,715728998e-01   -2,818549275e-01
       65375000    5,695204735e-01   -2,835501730e-01
       65450000    5,674663782e-01   -2,863505483e-01
       65525000    5,657441020e-01   -2,886424661e-01
       65600000    5,628965497e-01   -2,913976014e-01
       65675000    5,612506866e-01   -2,932612002e-01
       65750000    5,592494607e-01   -2,971259058e-01
       65825000    5,592664480e-01   -2,978282869e-01
       65900000    5,573576689e-01   -3,002723157e-01
       65975000    5,543426871e-01   -3,023949862e-01
       66050000    5,528624058e-01   -3,042465746e-01
       66125000    5,494658351e-01   -3,082701266e-01
       66200000    5,490458012e-01   -3,096977472e-01
       66275000    5,455703139e-01   -3,111620247e-01
       66350000    5,444519520e-01   -3,156434596e-01
       66425000    5,431571007e-01   -3,155400157e-01
       66500000    5,407638550e-01   -3,187770545e-01
       66575000    5,394011140e-01   -3,204931617e-01
       66650000    5,371309519e-01   -3,220998049e-01
       66725000    5,329014063e-01   -3,255039752e-01
       66800000    5,322727561e-01   -3,272349536e-01
       66875000    5,287820101e-01   -3,300304711e-01
       66950000    5,289934874e-01   -3,323475122e-01
       67025000    5,276492834e-01   -3,342956305e-01
       67100000    5,256443024e-01   -3,373841941e-01
       67175000    5,224403739e-01   -3,367346525e-01
       67250000    5,201731324e-01   -3,397017419e-01
       67325000    5,197818279e-01   -3,416449130e-01
       67400000    5,173850060e-01   -3,445797861e-01
       67475000    5,148498416e-01   -3,485605419e-01
       67550000    5,143536329e-01   -3,489115238e-01
       67625000    5,099170804e-01   -3,504553735e-01
       67700000    5,093829632e-01   -3,527868390e-01
       67775000    5,086054802e-01   -3,576740623e-01
       67850000    5,058770776e-01   -3,568499088e-01
       67925000    5,037400126e-01   -3,602932096e-01
       68000000    5,020511746e-01   -3,616579771e-01
       68075000    4,980177283e-01   -3,648788035e-01
       68150000    4,960469902e-01   -3,672183454e-01
       68225000    4,958396554e-01   -3,704999983e-01
       68300000    4,934837520e-01   -3,732163012e-01
       68375000    4,907260835e-01   -3,745944202e-01
       68450000    4,887515604e-01   -3,753293157e-01
       68525000    4,849732220e-01   -3,764850199e-01
       68600000    4,826827049e-01   -3,790976405e-01
       68675000    4,779297411e-01   -3,828862607e-01
       68750000    4,770714045e-01   -3,846257627e-01
       68825000    4,752565622e-01   -3,883373141e-01
       68900000    4,741005599e-01   -3,892987967e-01
       68975000    4,702682793e-01   -3,927139342e-01
       69050000    4,684059322e-01   -3,928328156e-01
       69125000    4,650314152e-01   -3,963676393e-01
       69200000    4,640723765e-01   -3,964409530e-01
       69275000    4,597448409e-01   -3,992112577e-01
       69350000    4,570733011e-01   -3,993802071e-01
       69425000    4,546697736e-01   -4,019407034e-01
       69500000    4,514574111e-01   -4,018251002e-01
       69575000    4,486366808e-01   -4,035880566e-01
       69650000    4,460885227e-01   -4,040103555e-01
       69725000    4,430334866e-01   -4,044759572e-01
       69800000    4,395715892e-01   -4,046927392e-01
       69875000    4,378946126e-01   -4,064682722e-01
       69950000    4,330303073e-01   -4,097768962e-01
       70025000    4,319158196e-01   -4,076838791e-01
       70100000    4,297353029e-01   -4,114076793e-01
       70175000    4,269173741e-01   -4,117442667e-01
       70250000    4,237633049e-01   -4,103483856e-01
       70325000    4,202896059e-01   -4,110924304e-01
       70400000    4,168797731e-01   -4,121041298e-01
       70475000    4,157669842e-01   -4,143961370e-01
       70550000    4,146439731e-01   -4,146650732e-01
       70625000    4,116006196e-01   -4,127243757e-01
       70700000    4,090181291e-01   -4,155125916e-01
       70775000    4,055610299e-01   -4,168726206e-01
       70850000    4,045621157e-01   -4,169411659e-01
       70925000    4,015230834e-01   -4,141675234e-01
       71000000    3,989145756e-01   -4,141606987e-01
       71075000    3,974762559e-01   -4,169965684e-01
       71150000    3,957123756e-01   -4,150450528e-01
       71225000    3,958725333e-01   -4,169758856e-01
       71300000    3,932542205e-01   -4,168598950e-01
       71375000    3,923802376e-01   -4,167421758e-01
       71450000    3,869336843e-01   -4,179201722e-01
       71525000    3,861275315e-01   -4,178832173e-01
       71600000    3,866684139e-01   -4,186750948e-01
       71675000    3,836179674e-01   -4,176755548e-01
       71750000    3,814537227e-01   -4,186872244e-01
       71825000    3,801765740e-01   -4,193952084e-01
       71900000    3,778524101e-01   -4,198166132e-01
       71975000    3,760909736e-01   -4,189668000e-01
       72050000    3,781336546e-01   -4,197183549e-01
       72125000    3,761897087e-01   -4,184850752e-01
       72200000    3,729102612e-01   -4,186781347e-01
       72275000    3,717504144e-01   -4,204400480e-01
       72350000    3,698272407e-01   -4,209232926e-01
       72425000    3,683620989e-01   -4,211477637e-01
       72500000    3,694431782e-01   -4,230214953e-01
       72575000    3,660292327e-01   -4,224784672e-01
       72650000    3,676371872e-01   -4,234521985e-01
       72725000    3,619799912e-01   -4,231483638e-01
       72800000    3,616176844e-01   -4,238227904e-01
       72875000    3,593648970e-01   -4,244039059e-01
       72950000    3,594850600e-01   -4,252255857e-01
       73025000    3,576565087e-01   -4,243798852e-01
       73100000    3,578115404e-01   -4,232261181e-01
       73175000    3,550924063e-01   -4,260652959e-01
       73250000    3,569467068e-01   -4,253121316e-01
       73325000    3,552830815e-01   -4,268695712e-01
       73400000    3,540625870e-01   -4,280698299e-01
       73475000    3,524949253e-01   -4,264294803e-01
       73550000    3,520628214e-01   -4,253589511e-01
       73625000    3,496608436e-01   -4,250888824e-01
       73700000    3,485429585e-01   -4,264236093e-01
       73775000    3,456464410e-01   -4,271975160e-01
       73850000    3,463610709e-01   -4,285633266e-01
       73925000    3,458850086e-01   -4,310384691e-01
       74000000    3,454102278e-01   -4,297483563e-01
       74075000    3,439541161e-01   -4,294445515e-01
       74150000    3,396774530e-01   -4,310137331e-01
       74225000    3,392696977e-01   -4,289987087e-01
       74300000    3,395611644e-01   -4,308992326e-01
       74375000    3,370883167e-01   -4,322929680e-01
       74450000    3,383302689e-01   -4,311635494e-01
       74525000    3,374083340e-01   -4,314310253e-01
       74600000    3,359257877e-01   -4,313234389e-01
       74675000    3,351041079e-01   -4,323993921e-01
       74750000    3,321535885e-01   -4,330351353e-01
       74825000    3,326104283e-01   -4,352326393e-01
       74900000    3,311713636e-01   -4,366240203e-01
       74975000    3,313613832e-01   -4,337626994e-01
       75050000    3,304242492e-01   -4,340929389e-01
       75125000    3,285667598e-01   -4,336057603e-01
       75200000    3,277698159e-01   -4,354123175e-01
       75275000    3,262881935e-01   -4,349969625e-01
       75350000    3,250886798e-01   -4,353608191e-01
       75425000    3,220261633e-01   -4,388491511e-01
       75500000    3,229498267e-01   -4,384318292e-01
       75575000    3,198344409e-01   -4,398893118e-01
       75650000    3,204263151e-01   -4,397336543e-01
       75725000    3,188603818e-01   -4,407950044e-01
       75800000    3,199046850e-01   -4,402525425e-01
       75875000    3,169956505e-01   -4,410158396e-01
       75950000    3,176147640e-01   -4,405841827e-01
       76025000    3,153123558e-01   -4,404253662e-01
       76100000    3,135987520e-01   -4,410130084e-01
       76175000    3,138719797e-01   -4,417193830e-01
       76250000    3,124247193e-01   -4,429355860e-01
       76325000    3,126954436e-01   -4,414144158e-01
       76400000    3,114008904e-01   -4,427431226e-01
       76475000    3,089571297e-01   -4,407652318e-01
       76550000    3,100061417e-01   -4,399878979e-01
       76625000    3,084913492e-01   -4,413964748e-01
       76700000    3,082325757e-01   -4,398009777e-01
       76775000    3,073728383e-01   -4,428448677e-01
       76850000    3,052006364e-01   -4,415319562e-01
       76925000    3,031255603e-01   -4,439857006e-01
       77000000    3,043844104e-01   -4,431003630e-01
       77075000    3,017717898e-01   -4,419062436e-01
       77150000    3,022306263e-01   -4,408585727e-01
       77225000    3,017706275e-01   -4,423277676e-01
       77300000    3,008726537e-01   -4,409454167e-01
       77375000    3,009172678e-01   -4,412049651e-01
       77450000    2,983063459e-01   -4,407038093e-01
       77525000    2,976562083e-01   -4,396450520e-01
       77600000    2,968599200e-01   -4,403643310e-01
       77675000    2,957967520e-01   -4,405366778e-01
       77750000    2,960664928e-01   -4,418713748e-01
       77825000    2,952341139e-01   -4,390627146e-01
       77900000    2,944761515e-01   -4,411921203e-01
       77975000    2,961044610e-01   -4,390771687e-01
       78050000    2,949164510e-01   -4,373204410e-01
       78125000    2,941323519e-01   -4,388311505e-01
       78200000    2,963601351e-01   -4,366428554e-01
       78275000    2,948384881e-01   -4,365080595e-01
       78350000    2,970257103e-01   -4,375421703e-01
       78425000    2,972294986e-01   -4,375224710e-01
       78500000    2,992228270e-01   -4,370442927e-01
       78575000    3,003186584e-01   -4,357218444e-01
       78650000    3,012399673e-01   -4,354681373e-01
       78725000    3,007428050e-01   -4,388163686e-01
       78800000    3,019910455e-01   -4,388666153e-01
       78875000    3,019265234e-01   -4,372023642e-01
       78950000    3,015109897e-01   -4,375807643e-01
       79025000    3,003616929e-01   -4,381896555e-01
       79100000    3,022167385e-01   -4,396690130e-01
       79175000    3,035021722e-01   -4,426797628e-01
       79250000    3,040584326e-01   -4,416252077e-01
       79325000    3,042799532e-01   -4,404388070e-01
       79400000    3,052666485e-01   -4,407576025e-01
       79475000    3,041225672e-01   -4,435200989e-01
       79550000    3,053903878e-01   -4,458709955e-01
       79625000    3,069204688e-01   -4,447418153e-01
       79700000    3,064699471e-01   -4,439991713e-01
       79775000    3,055586815e-01   -4,444163442e-01
       79850000    3,086582124e-01   -4,473280311e-01
       79925000    3,059272170e-01   -4,468636215e-01
       80000000    3,054379523e-01   -4,491700828e-01
       80075000    3,114668727e-01   -4,494124055e-01
       80150000    3,114739358e-01   -4,495421648e-01
       80225000    3,101982474e-01   -4,526616037e-01
       80300000    3,125314116e-01   -4,531582594e-01
       80375000    3,125372231e-01   -4,546240568e-01
       80450000    3,138193488e-01   -4,522121549e-01
       80525000    3,145085871e-01   -4,547802508e-01
       80600000    3,154915273e-01   -4,551593959e-01
       80675000    3,159030974e-01   -4,586209953e-01
       80750000    3,142996728e-01   -4,611465335e-01
       80825000    3,183870614e-01   -4,597051144e-01
       80900000    3,189370930e-01   -4,629493654e-01
       80975000    3,178648651e-01   -4,661004245e-01
       81050000    3,217799664e-01   -4,656484425e-01
       81125000    3,217348158e-01   -4,682055414e-01
       81200000    3,214172423e-01   -4,689009786e-01
       81275000    3,232511580e-01   -4,712805450e-01
       81350000    3,228862286e-01   -4,717716277e-01
       81425000    3,232814372e-01   -4,779870510e-01
       81500000    3,220115900e-01   -4,785917103e-01
       81575000    3,248303831e-01   -4,808394909e-01
       81650000    3,248490393e-01   -4,807175398e-01
       81725000    3,256259859e-01   -4,846318364e-01
       81800000    3,264599144e-01   -4,838197529e-01
       81875000    3,253867328e-01   -4,870055616e-01
       81950000    3,231942058e-01   -4,892723262e-01
       82025000    3,254578412e-01   -4,919598401e-01
       82100000    3,254043758e-01   -4,950993657e-01
       82175000    3,271620274e-01   -4,975544214e-01
       82250000    3,249818087e-01   -4,999482334e-01
       82325000    3,287110031e-01   -5,017514825e-01
       82400000    3,277328014e-01   -5,053921342e-01
       82475000    3,277488947e-01   -5,049369931e-01
       82550000    3,277275860e-01   -5,080600381e-01
       82625000    3,268402815e-01   -5,092277527e-01
       82700000    3,271547258e-01   -5,132480264e-01
       82775000    3,267359436e-01   -5,143259764e-01
       82850000    3,269753456e-01   -5,183731914e-01
       82925000    3,267067075e-01   -5,194569230e-01
       83000000    3,260079026e-01   -5,244301558e-01
       83075000    3,248861730e-01   -5,257939100e-01
       83150000    3,257192373e-01   -5,288774371e-01
       83225000    3,229660988e-01   -5,310884714e-01
       83300000    3,248957098e-01   -5,360696316e-01
       83375000    3,233945072e-01   -5,387872458e-01
       83450000    3,255170882e-01   -5,392399430e-01
       83525000    3,246619105e-01   -5,438546538e-01
       83600000    3,243663609e-01   -5,448976159e-01
       83675000    3,232048750e-01   -5,501736403e-01
       83750000    3,199740946e-01   -5,536375046e-01
       83825000    3,217636645e-01   -5,543065071e-01
       83900000    3,206457794e-01   -5,586094260e-01
       83975000    3,187765777e-01   -5,593261123e-01
       84050000    3,166929781e-01   -5,632510781e-01
       84125000    3,146787882e-01   -5,655974746e-01
       84200000    3,168001473e-01   -5,692561269e-01
       84275000    3,149343431e-01   -5,709459186e-01
       84350000    3,131976128e-01   -5,728295445e-01
       84425000    3,113052845e-01   -5,778132081e-01
       84500000    3,099973798e-01   -5,789903998e-01
       84575000    3,115315735e-01   -5,840601921e-01
       84650000    3,089441657e-01   -5,863294601e-01
       84725000    3,053117692e-01   -5,878275633e-01
       84800000    3,042090535e-01   -5,924136639e-01
       84875000    3,013513386e-01   -5,937644839e-01
       84950000    3,039975762e-01   -5,965595245e-01
       85025000    3,007493019e-01   -6,013666987e-01
       85100000    2,988423407e-01   -6,036403179e-01
       85175000    2,960262299e-01   -6,027491093e-01
       85250000    2,931371927e-01   -6,074525714e-01
       85325000    2,902535498e-01   -6,124240756e-01
       85400000    2,923803031e-01   -6,143196225e-01
       85475000    2,882923782e-01   -6,178199053e-01
       85550000    2,844972610e-01   -6,208179593e-01
       85625000    2,829654515e-01   -6,185490489e-01
       85700000    2,804529369e-01   -6,242480874e-01
       85775000    2,801822424e-01   -6,281276941e-01
       85850000    2,745200992e-01   -6,267921925e-01
       85925000    2,751874924e-01   -6,284929514e-01
       86000000    2,722218335e-01   -6,324049234e-01
       86075000    2,692030072e-01   -6,328817010e-01
       86150000    2,671328187e-01   -6,394522786e-01
       86225000    2,633130848e-01   -6,396515369e-01
       86300000    2,626298666e-01   -6,427080631e-01
       86375000    2,593197525e-01   -6,450910568e-01
       86450000    2,580137849e-01   -6,453536153e-01
       86525000    2,518889606e-01   -6,481658220e-01
       86600000    2,509533465e-01   -6,497874856e-01
       86675000    2,492877245e-01   -6,491744518e-01
       86750000    2,460714132e-01   -6,523693800e-01
       86825000    2,425850630e-01   -6,548986435e-01
       86900000    2,377957553e-01   -6,540224552e-01
       86975000    2,349991351e-01   -6,565401554e-01
       87050000    2,361986339e-01   -6,583289504e-01
       87125000    2,313335538e-01   -6,593682766e-01
       87200000    2,275019884e-01   -6,590961218e-01
       87275000    2,273247838e-01   -6,633016467e-01
       87350000    2,232090533e-01   -6,626816392e-01
       87425000    2,199719399e-01   -6,621569991e-01
       87500000    2,148690671e-01   -6,637055874e-01
       87575000    2,128551453e-01   -6,655752063e-01
       87650000    2,104927897e-01   -6,680716276e-01
       87725000    2,104739696e-01   -6,698960662e-01
       87800000    2,102553099e-01   -6,696160436e-01
       87875000    2,058821917e-01   -6,709323525e-01
       87950000    1,998940110e-01   -6,727348566e-01
       88025000    1,987728029e-01   -6,699291468e-01
       88100000    1,973246038e-01   -6,741509438e-01
       88175000    1,961962283e-01   -6,752763391e-01
       88250000    1,940319240e-01   -6,736614704e-01
       88325000    1,898486763e-01   -6,763083339e-01
       88400000    1,847291291e-01   -6,764017940e-01
       88475000    1,843853891e-01   -6,782862544e-01
       88550000    1,812277883e-01   -6,795448065e-01
       88625000    1,800985783e-01   -6,766273379e-01
       88700000    1,781860441e-01   -6,800478101e-01
       88775000    1,738078147e-01   -6,796838045e-01
       88850000    1,711844951e-01   -6,819472909e-01
       88925000    1,698925793e-01   -6,785930991e-01
       89000000    1,663533747e-01   -6,804780364e-01
       89075000    1,616299152e-01   -6,791189313e-01
       89150000    1,607923806e-01   -6,816967130e-01
       89225000    1,565936804e-01   -6,828840971e-01
       89300000    1,570425481e-01   -6,821852326e-01
       89375000    1,519267708e-01   -6,830917001e-01
       89450000    1,525265127e-01   -6,824324131e-01
       89525000    1,485376954e-01   -6,807281971e-01
       89600000    1,464121193e-01   -6,796900630e-01
       89675000    1,452691853e-01   -6,790763736e-01
       89750000    1,414874643e-01   -6,793730855e-01
       89825000    1,391307861e-01   -6,796347499e-01
       89900000    1,389082372e-01   -6,780351400e-01
       89975000    1,354812384e-01   -6,781837344e-01
       90050000    1,352898479e-01   -6,755998731e-01
       90125000    1,321602464e-01   -6,757289171e-01
       90200000    1,291378140e-01   -6,742924452e-01
       90275000    1,315161437e-01   -6,729255319e-01
       90350000    1,280072331e-01   -6,724415421e-01
       90425000    1,258040220e-01   -6,714004874e-01
       90500000    1,272316426e-01   -6,717384458e-01
       90575000    1,283951551e-01   -6,730986238e-01
       90650000    1,248569563e-01   -6,692976356e-01
       90725000    1,269355863e-01   -6,699512601e-01
       90800000    1,259417236e-01   -6,720760465e-01
       90875000    1,271868795e-01   -6,690790653e-01
       90950000    1,260204315e-01   -6,706877947e-01
       91025000    1,269400269e-01   -6,693415046e-01
       91100000    1,265350729e-01   -6,704532504e-01
       91175000    1,242453679e-01   -6,703611612e-01
       91250000    1,263429523e-01   -6,725066900e-01
       91325000    1,258861721e-01   -6,725302339e-01
       91400000    1,278420687e-01   -6,744887829e-01
       91475000    1,269263178e-01   -6,765792966e-01
       91550000    1,279067993e-01   -6,754247546e-01
       91625000    1,267905086e-01   -6,788401604e-01
       91700000    1,279610395e-01   -6,784508228e-01
       91775000    1,265603453e-01   -6,807082295e-01
       91850000    1,262814254e-01   -6,810721755e-01
       91925000    1,259178370e-01   -6,847076416e-01
