! NanoVNA-App
! Date: 2025-08-09 13:17:48
! Start: 65MHz Stop: 95MHz Points: 401
! S-Parameter data: F S11
# Hz S RI R 50
!     Frequency           S11_Real           S11_Imag
       65000000   -3,979269564e-01   -8,170616031e-01
       65075000   -4,018555284e-01   -8,325473666e-01
       65150000   -4,015594125e-01   -8,289054036e-01
       65225000   -4,069634676e-01   -8,266062140e-01
       65300000   -4,083065093e-01   -8,270602822e-01
       65375000   -4,104007185e-01   -8,278365135e-01
       65450000   -4,096159041e-01   -8,252587914e-01
       65525000   -4,129211009e-01   -8,247392178e-01
       65600000   -4,152017534e-01   -8,238388896e-01
       65675000   -4,158787429e-01   -8,202125430e-01
       65750000   -4,186599255e-01   -8,192040324e-01
       65825000   -4,225815237e-01   -8,144651651e-01
       65900000   -4,239467680e-01   -8,142803907e-01
       65975000   -4,266595840e-01   -8,123480082e-01
       66050000   -4,280107915e-01   -8,114309907e-01
       66125000   -4,286723435e-01   -8,105071187e-01
       66200000   -4,320702851e-01   -8,068851233e-01
       66275000   -4,313537776e-01   -8,083992004e-01
       66350000   -4,347808659e-01   -8,067674041e-01
       66425000   -4,387347102e-01   -8,014882803e-01
       66500000   -4,392605126e-01   -8,028511405e-01
       66575000   -4,428543150e-01   -7,998442054e-01
       66650000   -4,440886080e-01   -7,994473577e-01
       66725000   -4,447322488e-01   -7,995201349e-01
       66800000   -4,452037513e-01   -7,939675450e-01
       66875000   -4,489720166e-01   -7,942115068e-01
       66950000   -4,492613375e-01   -7,921489477e-01
       67025000   -4,521002769e-01   -7,896662951e-01
       67100000   -4,537148476e-01   -7,916777730e-01
       67175000   -4,582216740e-01   -7,878159285e-01
       67250000   -4,580459595e-01   -7,884648442e-01
       67325000   -4,605892301e-01   -7,862896919e-01
       67400000   -4,642528296e-01   -7,847427726e-01
       67475000   -4,628061354e-01   -7,816790938e-01
       67550000   -4,668164551e-01   -7,803755999e-01
       67625000   -4,695257545e-01   -7,792049646e-01
       67700000   -4,705474079e-01   -7,790070176e-01
       67775000   -4,711637199e-01   -7,747926116e-01
       67850000   -4,746527672e-01   -7,741556168e-01
       67925000   -4,756391943e-01   -7,723892331e-01
       68000000   -4,789188504e-01   -7,694039941e-01
       68075000   -4,787577987e-01   -7,703611255e-01
       68150000   -4,823321402e-01   -7,684162855e-01
       68225000   -4,827774763e-01   -7,644702196e-01
       68300000   -4,845843911e-01   -7,627823353e-01
       68375000   -4,867458940e-01   -7,603492737e-01
       68450000   -4,888681173e-01   -7,610599995e-01
       68525000   -4,917944372e-01   -7,588184476e-01
       68600000   -4,931857586e-01   -7,585711479e-01
       68675000   -4,941681325e-01   -7,564753890e-01
       68750000   -4,940448403e-01   -7,542693615e-01
       68825000   -4,972327352e-01   -7,515828013e-01
       68900000   -4,986180663e-01   -7,484859824e-01
       68975000   -5,007781386e-01   -7,478543520e-01
       69050000   -5,020603538e-01   -7,449169755e-01
       69125000   -5,040916204e-01   -7,436702847e-01
       69200000   -5,058645606e-01   -7,411330938e-01
       69275000   -5,074907541e-01   -7,405369282e-01
       69350000   -5,096778274e-01   -7,387436032e-01
       69425000   -5,109695792e-01   -7,371882796e-01
       69500000   -5,140175819e-01   -7,331595421e-01
       69575000   -5,143346190e-01   -7,334918380e-01
       69650000   -5,171872973e-01   -7,314911485e-01
       69725000   -5,179917812e-01   -7,307738066e-01
       69800000   -5,213865042e-01   -7,288242579e-01
       69875000   -5,210066438e-01   -7,263551354e-01
       69950000   -5,216287374e-01   -7,251607776e-01
       70025000   -5,256618261e-01   -7,240000963e-01
       70100000   -5,257794261e-01   -7,204274535e-01
       70175000   -5,269052386e-01   -7,192665339e-01
       70250000   -5,298445225e-01   -7,183768153e-01
       70325000   -5,298938155e-01   -7,176773548e-01
       70400000   -5,324612260e-01   -7,158155441e-01
       70475000   -5,321944952e-01   -7,122215033e-01
       70550000   -5,344776511e-01   -7,104831338e-01
       70625000   -5,371993780e-01   -7,097176909e-01
       70700000   -5,371143818e-01   -7,063060403e-01
       70775000   -5,392696857e-01   -7,060978413e-01
       70850000   -5,401487350e-01   -7,048493624e-01
       70925000   -5,416588783e-01   -7,029874325e-01
       71000000   -5,437535048e-01   -7,021692395e-01
       71075000   -5,445324779e-01   -6,980370283e-01
       71150000   -5,461890697e-01   -6,989610195e-01
       71225000   -5,482645035e-01   -6,959056258e-01
       71300000   -5,513124466e-01   -6,926200986e-01
       71375000   -5,517688990e-01   -6,936313510e-01
       71450000   -5,529155731e-01   -6,909541488e-01
       71525000   -5,543295741e-01   -6,903304458e-01
       71600000   -5,572510362e-01   -6,874557734e-01
       71675000   -5,560117364e-01   -6,842559576e-01
       71750000   -5,586863160e-01   -6,843405962e-01
       71825000   -5,591614842e-01   -6,812847853e-01
       71900000   -5,612679124e-01   -6,806924939e-01
       71975000   -5,632057786e-01   -6,788139343e-01
       72050000   -5,661580563e-01   -6,766242385e-01
       72125000   -5,659607649e-01   -6,751772165e-01
       72200000   -5,678268075e-01   -6,754515767e-01
       72275000   -5,680048466e-01   -6,708455682e-01
       72350000   -5,704104304e-01   -6,713851690e-01
       72425000   -5,708388090e-01   -6,658577323e-01
       72500000   -5,737190843e-01   -6,640167236e-01
       72575000   -5,744169354e-01   -6,638904810e-01
       72650000   -5,765736103e-01   -6,625591516e-01
       72725000   -5,779965520e-01   -6,603663564e-01
       72800000   -5,788882375e-01   -6,595564485e-01
       72875000   -5,809439421e-01   -6,590389609e-01
       72950000   -5,817766190e-01   -6,551446319e-01
       73025000   -5,830570459e-01   -6,535902023e-01
       73100000   -5,843099356e-01   -6,533042789e-01
       73175000   -5,863824487e-01   -6,487968564e-01
       73250000   -5,889751315e-01   -6,490561962e-01
       73325000   -5,899956822e-01   -6,457532048e-01
       73400000   -5,905594826e-01   -6,463012099e-01
       73475000   -5,928834081e-01   -6,434586644e-01
       73550000   -5,931738019e-01   -6,431056261e-01
       73625000   -5,959210992e-01   -6,423985958e-01
       73700000   -5,953785777e-01   -6,392343640e-01
       73775000   -5,982980728e-01   -6,374540925e-01
       73850000   -5,990210176e-01   -6,344137192e-01
       73925000   -6,006477475e-01   -6,330035329e-01
       74000000   -6,040039659e-01   -6,308027506e-01
       74075000   -6,031633615e-01   -6,304236054e-01
       74150000   -6,050784588e-01   -6,289108992e-01
       74225000   -6,066496372e-01   -6,268196106e-01
       74300000   -6,073955297e-01   -6,237694025e-01
       74375000   -6,096372008e-01   -6,239017844e-01
       74450000   -6,117872596e-01   -6,211156249e-01
       74525000   -6,111389399e-01   -6,192150712e-01
       74600000   -6,145848036e-01   -6,176745296e-01
       74675000   -6,147138476e-01   -6,150247455e-01
       74750000   -6,164920330e-01   -6,114437580e-01
       74825000   -6,190304756e-01   -6,111536622e-01
       74900000   -6,186721325e-01   -6,095035672e-01
       74975000   -6,218751669e-01   -6,091775298e-01
       75050000   -6,213680506e-01   -6,056344509e-01
       75125000   -6,241041422e-01   -6,043610573e-01
       75200000   -6,236046553e-01   -6,032572985e-01
       75275000   -6,263836026e-01   -6,003370285e-01
       75350000   -6,264298558e-01   -5,983430147e-01
       75425000   -6,282190084e-01   -5,960187316e-01
       75500000   -6,306596398e-01   -5,898959041e-01
       75575000   -6,312180161e-01   -5,942201614e-01
       75650000   -6,328505278e-01   -5,902165174e-01
       75725000   -6,341889501e-01   -5,902689695e-01
       75800000   -6,360542178e-01   -5,845993161e-01
       75875000   -6,363105178e-01   -5,834110379e-01
       75950000   -6,392819285e-01   -5,835521221e-01
       76025000   -6,391580105e-01   -5,802018642e-01
       76100000   -6,400128603e-01   -5,808472037e-01
       76175000   -6,422888041e-01   -5,768709779e-01
       76250000   -6,424310207e-01   -5,736563206e-01
       76325000   -6,459683776e-01   -5,767621994e-01
       76400000   -6,453937292e-01   -5,730286837e-01
       76475000   -6,463648081e-01   -5,717187524e-01
       76550000   -6,493943930e-01   -5,697428584e-01
       76625000   -6,492909789e-01   -5,673402548e-01
       76700000   -6,513735652e-01   -5,665531158e-01
       76775000   -6,533265710e-01   -5,628497005e-01
       76850000   -6,525943875e-01   -5,614179373e-01
       76925000   -6,540799737e-01   -5,594738126e-01
       77000000   -6,568011045e-01   -5,560392141e-01
       77075000   -6,567968726e-01   -5,532207489e-01
       77150000   -6,577395201e-01   -5,534790754e-01
       77225000   -6,591255665e-01   -5,536993146e-01
       77300000   -6,612013578e-01   -5,502467752e-01
       77375000   -6,606321335e-01   -5,484402776e-01
       77450000   -6,631083488e-01   -5,454168320e-01
       77525000   -6,641373634e-01   -5,450067520e-01
       77600000   -6,642498374e-01   -5,415875912e-01
       77675000   -6,661474109e-01   -5,409499407e-01
       77750000   -6,683677435e-01   -5,371030569e-01
       77825000   -6,685205698e-01   -5,375367403e-01
       77900000   -6,698690057e-01   -5,363759398e-01
       77975000   -6,715637445e-01   -5,342440605e-01
       78050000   -6,710343361e-01   -5,311793685e-01
       78125000   -6,734018922e-01   -5,294595957e-01
       78200000   -6,758247018e-01   -5,274849534e-01
       78275000   -6,766496301e-01   -5,260209441e-01
       78350000   -6,763565540e-01   -5,249436498e-01
       78425000   -6,783806682e-01   -5,231908560e-01
       78500000   -6,810855865e-01   -5,176648498e-01
       78575000   -6,806741357e-01   -5,164069533e-01
       78650000   -6,833852530e-01   -5,196589231e-01
       78725000   -6,857228279e-01   -5,163679123e-01
       78800000   -6,848299503e-01   -5,136239529e-01
       78875000   -6,871243715e-01   -5,116251111e-01
       78950000   -6,873028278e-01   -5,083604455e-01
       79025000   -6,894379854e-01   -5,082817674e-01
       79100000   -6,904280782e-01   -5,037130713e-01
       79175000   -6,917049885e-01   -5,035428405e-01
       79250000   -6,940395832e-01   -5,001753569e-01
       79325000   -6,935511231e-01   -4,967045784e-01
       79400000   -6,959066391e-01   -4,984445274e-01
       79475000   -6,980851293e-01   -4,958438873e-01
       79550000   -6,976016164e-01   -4,938724935e-01
       79625000   -7,003491521e-01   -4,910800159e-01
       79700000   -7,007817626e-01   -4,893913269e-01
       79775000   -7,018576264e-01   -4,876217842e-01
       79850000   -7,047334313e-01   -4,850593209e-01
       79925000   -7,054556012e-01   -4,820930064e-01
       80000000   -7,046599984e-01   -4,837014079e-01
       80075000   -7,077083588e-01   -4,806172550e-01
       80150000   -7,079398632e-01   -4,773579538e-01
       80225000   -7,092079520e-01   -4,761679471e-01
       80300000   -7,123626471e-01   -4,730240405e-01
       80375000   -7,121446729e-01   -4,712500870e-01
       80450000   -7,140370607e-01   -4,701148570e-01
       80525000   -7,151902914e-01   -4,666079283e-01
       80600000   -7,167882919e-01   -4,663218558e-01
       80675000   -7,181702256e-01   -4,619808197e-01
       80750000   -7,192786336e-01   -4,616706371e-01
       80825000   -7,209562063e-01   -4,592076838e-01
       80900000   -7,210267782e-01   -4,559393525e-01
       80975000   -7,232105136e-01   -4,549469948e-01
       81050000   -7,253153324e-01   -4,526648819e-01
       81125000   -7,247040868e-01   -4,494071007e-01
       81200000   -7,277835011e-01   -4,483897090e-01
       81275000   -7,272093296e-01   -4,456590414e-01
       81350000   -7,295061350e-01   -4,440320134e-01
       81425000   -7,319221497e-01   -4,396373332e-01
       81500000   -7,316272855e-01   -4,384616911e-01
       81575000   -7,345160842e-01   -4,358268678e-01
       81650000   -7,341907620e-01   -4,328614175e-01
       81725000   -7,356492281e-01   -4,321399927e-01
       81800000   -7,375031710e-01   -4,297903776e-01
       81875000   -7,382000089e-01   -4,248804748e-01
       81950000   -7,392739058e-01   -4,238540232e-01
       82025000   -7,410848737e-01   -4,207468331e-01
       82100000   -7,415530682e-01   -4,201599360e-01
       82175000   -7,445290685e-01   -4,166706502e-01
       82250000   -7,436750531e-01   -4,151181579e-01
       82325000   -7,460221648e-01   -4,111625254e-01
       82400000   -7,460384965e-01   -4,095357955e-01
       82475000   -7,477493882e-01   -4,085213244e-01
       82550000   -7,488973737e-01   -4,041997790e-01
       82625000   -7,500810027e-01   -4,027912021e-01
       82700000   -7,512767911e-01   -3,974746764e-01
       82775000   -7,520478368e-01   -3,976769447e-01
       82850000   -7,537330389e-01   -3,927769363e-01
       82925000   -7,549901605e-01   -3,928422332e-01
       83000000   -7,574332952e-01   -3,882950544e-01
       83075000   -7,564302683e-01   -3,864806890e-01
       83150000   -7,594824433e-01   -3,831678629e-01
       83225000   -7,589285970e-01   -3,824898303e-01
       83300000   -7,618383169e-01   -3,787749410e-01
       83375000   -7,612945437e-01   -3,771844208e-01
       83450000   -7,628435493e-01   -3,752609491e-01
       83525000   -7,629846334e-01   -3,709606230e-01
       83600000   -7,639430165e-01   -3,690803051e-01
       83675000   -7,671545744e-01   -3,663151264e-01
       83750000   -7,660685182e-01   -3,637650311e-01
       83825000   -7,674909234e-01   -3,606359363e-01
       83900000   -7,684313059e-01   -3,573219776e-01
       83975000   -7,684754133e-01   -3,554855287e-01
       84050000   -7,717055678e-01   -3,530470133e-01
       84125000   -7,704129815e-01   -3,497858047e-01
       84200000   -7,720159292e-01   -3,475108445e-01
       84275000   -7,737658620e-01   -3,434696198e-01
       84350000   -7,732890248e-01   -3,415859342e-01
       84425000   -7,751061320e-01   -3,374125361e-01
       84500000   -7,751876116e-01   -3,366408944e-01
       84575000   -7,768386006e-01   -3,325549960e-01
       84650000   -7,774206996e-01   -3,295487463e-01
       84725000   -7,776361108e-01   -3,275987208e-01
       84800000   -7,801269889e-01   -3,243634403e-01
       84875000   -7,791517973e-01   -3,213900626e-01
       84950000   -7,803913951e-01   -3,188707530e-01
       85025000   -7,815456986e-01   -3,154892027e-01
       85100000   -7,810670733e-01   -3,111929893e-01
       85175000   -7,813605666e-01   -3,095891178e-01
       85250000   -7,835067511e-01   -3,059682548e-01
       85325000   -7,823340297e-01   -3,033789694e-01
       85400000   -7,837474346e-01   -2,997687161e-01
       85475000   -7,832497954e-01   -2,968033552e-01
       85550000   -7,839015722e-01   -2,964836657e-01
       85625000   -7,847419977e-01   -2,924043834e-01
       85700000   -7,861276269e-01   -2,878366411e-01
       85775000   -7,847297788e-01   -2,840970457e-01
       85850000   -7,860423923e-01   -2,826828957e-01
       85925000   -7,860618830e-01   -2,804001868e-01
       86000000   -7,873066068e-01   -2,753702998e-01
       86075000   -7,859195471e-01   -2,733507454e-01
       86150000   -7,879496217e-01   -2,720715106e-01
       86225000   -7,882609367e-01   -2,679759562e-01
       86300000   -7,875161767e-01   -2,649636567e-01
       86375000   -7,872583866e-01   -2,609899044e-01
       86450000   -7,877612710e-01   -2,590954602e-01
       86525000   -7,886421680e-01   -2,564484775e-01
       86600000   -7,876784801e-01   -2,519139349e-01
       86675000   -7,877743244e-01   -2,504413724e-01
       86750000   -7,879776955e-01   -2,464888990e-01
       86825000   -7,871267200e-01   -2,431735098e-01
       86900000   -7,872076035e-01   -2,423685044e-01
       86975000   -7,875527740e-01   -2,406239361e-01
       87050000   -7,886291146e-01   -2,370178998e-01
       87125000   -7,883888483e-01   -2,331411391e-01
       87200000   -7,870824337e-01   -2,305972725e-01
       87275000   -7,881497741e-01   -2,283755839e-01
       87350000   -7,884054780e-01   -2,258151025e-01
       87425000   -7,872551084e-01   -2,239223868e-01
       87500000   -7,867838740e-01   -2,198813558e-01
       87575000   -7,865775824e-01   -2,179199755e-01
       87650000   -7,873644829e-01   -2,139634192e-01
       87725000   -7,857137918e-01   -2,126258016e-01
       87800000   -7,864146829e-01   -2,092917264e-01
       87875000   -7,865493894e-01   -2,056922019e-01
       87950000   -7,846227288e-01   -2,033130974e-01
       88025000   -7,855421901e-01   -2,023367733e-01
       88100000   -7,862849236e-01   -1,994564086e-01
       88175000   -7,854351997e-01   -1,957192719e-01
       88250000   -7,837762833e-01   -1,936803162e-01
       88325000   -7,848668694e-01   -1,920197010e-01
       88400000   -7,827082276e-01   -1,880774349e-01
       88475000   -7,839732766e-01   -1,858351380e-01
       88550000   -7,823545337e-01   -1,830701828e-01
       88625000   -7,829296589e-01   -1,816480309e-01
       88700000   -7,823498845e-01   -1,789665818e-01
       88775000   -7,825810313e-01   -1,763375998e-01
       88850000   -7,807345390e-01   -1,719844341e-01
       88925000   -7,803054452e-01   -1,713514030e-01
       89000000   -7,808338404e-01   -1,688047051e-01
       89075000   -7,792254090e-01   -1,677299887e-01
       89150000   -7,783414721e-01   -1,645239443e-01
       89225000   -7,768288255e-01   -1,617936939e-01
       89300000   -7,776939869e-01   -1,608390063e-01
       89375000   -7,765006423e-01   -1,587740630e-01
       89450000   -7,763416767e-01   -1,571347117e-01
       89525000   -7,761263847e-01   -1,554628164e-01
       89600000   -7,742730379e-01   -1,542256474e-01
       89675000   -7,740350962e-01   -1,525519639e-01
       89750000   -7,744812369e-01   -1,489383876e-01
       89825000   -7,733659744e-01   -1,481347084e-01
       89900000   -7,725171447e-01   -1,474182457e-01
       89975000   -7,728201151e-01   -1,454371661e-01
       90050000   -7,724344134e-01   -1,456953585e-01
       90125000   -7,729546428e-01   -1,444002986e-01
       90200000   -7,712323666e-01   -1,426977366e-01
       90275000   -7,719105482e-01   -1,421030313e-01
       90350000   -7,725828290e-01   -1,386856288e-01
       90425000   -7,717830539e-01   -1,393790543e-01
       90500000   -7,735859156e-01   -1,380863041e-01
       90575000   -7,745243907e-01   -1,355206221e-01
       90650000   -7,733880281e-01   -1,348195523e-01
       90725000   -7,753052711e-01   -1,345728189e-01
       90800000   -7,770761847e-01   -1,322361827e-01
       90875000   -7,771443129e-01   -1,317115724e-01
       90950000   -7,783125043e-01   -1,290833801e-01
       91025000   -7,788034678e-01   -1,288677156e-01
       91100000   -7,805098295e-01   -1,260668337e-01
       91175000   -7,807322741e-01   -1,256323606e-01
       91250000   -7,821787596e-01   -1,227684692e-01
       91325000   -7,822393775e-01   -1,207582802e-01
       91400000   -7,845944762e-01   -1,181194335e-01
       91475000   -7,861914635e-01   -1,157703325e-01
       91550000   -7,866817713e-01   -1,139134020e-01
       91625000   -7,887817025e-01   -1,122577339e-01
       91700000   -7,893376946e-01   -1,099285483e-01
       91775000   -7,902349830e-01   -1,062583476e-01
       91850000   -7,915321589e-01   -1,048765928e-01
       91925000   -7,919664979e-01   -1,008868143e-01
