! NanoVNA-App
! Date: 2025-08-09 12:57:43
! Start: 65MHz Stop: 95MHz Points: 401
! S-Parameter data: F S11
# Hz S RI R 50
!     Frequency           S11_Real           S11_Imag
       65000000    5,628292561e-01   -1,891528070e-01
       65075000    5,658203363e-01   -1,895110756e-01
       65150000    5,642029047e-01   -1,927459836e-01
       65225000    5,635570884e-01   -1,946535558e-01
       65300000    5,594193935e-01   -1,969786286e-01
       65375000    5,586289167e-01   -1,994029135e-01
       65450000    5,551190972e-01   -2,021419853e-01
       65525000    5,533618331e-01   -2,048209906e-01
       65600000    5,510380268e-01   -2,083081454e-01
       65675000    5,491769314e-01   -2,112149298e-01
       65750000    5,478153825e-01   -2,130764127e-01
       65825000    5,468590856e-01   -2,161371261e-01
       65900000    5,436428189e-01   -2,172307223e-01
       65975000    5,430151820e-01   -2,207368016e-01
       66050000    5,398087502e-01   -2,222993374e-01
       66125000    5,386657715e-01   -2,257606536e-01
       66200000    5,371026993e-01   -2,282245457e-01
       66275000    5,331787467e-01   -2,307735682e-01
       66350000    5,327769518e-01   -2,333448529e-01
       66425000    5,316643715e-01   -2,358090430e-01
       66500000    5,292807817e-01   -2,376810461e-01
       66575000    5,278735161e-01   -2,404583991e-01
       66650000    5,248022676e-01   -2,423156053e-01
       66725000    5,241029859e-01   -2,447427958e-01
       66800000    5,216931105e-01   -2,474452108e-01
       66875000    5,212150216e-01   -2,493392825e-01
       66950000    5,182511806e-01   -2,523789704e-01
       67025000    5,169807673e-01   -2,553660572e-01
       67100000    5,167558193e-01   -2,573626637e-01
       67175000    5,146987438e-01   -2,590393424e-01
       67250000    5,124043226e-01   -2,609043121e-01
       67325000    5,114996433e-01   -2,638337314e-01
       67400000    5,096634626e-01   -2,665005922e-01
       67475000    5,074134469e-01   -2,693508863e-01
       67550000    5,061891079e-01   -2,714527547e-01
       67625000    5,054886341e-01   -2,741643190e-01
       67700000    5,026244521e-01   -2,759476602e-01
       67775000    5,017724633e-01   -2,791873217e-01
       67850000    5,003044009e-01   -2,830416262e-01
       67925000    4,988872111e-01   -2,834877670e-01
       68000000    4,968849421e-01   -2,866296172e-01
       68075000    4,935888350e-01   -2,892736495e-01
       68150000    4,928275645e-01   -2,921093404e-01
       68225000    4,897789657e-01   -2,961300910e-01
       68300000    4,889896214e-01   -2,978805304e-01
       68375000    4,864246845e-01   -3,016715646e-01
       68450000    4,859775901e-01   -3,023578525e-01
       68525000    4,825216234e-01   -3,055903316e-01
       68600000    4,792056978e-01   -3,076466620e-01
       68675000    4,770354927e-01   -3,099904358e-01
       68750000    4,760964215e-01   -3,115209937e-01
       68825000    4,735925496e-01   -3,152578175e-01
       68900000    4,703676701e-01   -3,178187609e-01
       68975000    4,673432410e-01   -3,197354674e-01
       69050000    4,646143615e-01   -3,235460222e-01
       69125000    4,642739296e-01   -3,247624040e-01
       69200000    4,609599710e-01   -3,270837367e-01
       69275000    4,590514302e-01   -3,287415504e-01
       69350000    4,547424316e-01   -3,319686651e-01
       69425000    4,528502226e-01   -3,324488401e-01
       69500000    4,507786334e-01   -3,352012336e-01
       69575000    4,482511282e-01   -3,362022042e-01
       69650000    4,452218413e-01   -3,381729722e-01
       69725000    4,422170818e-01   -3,385175169e-01
       69800000    4,405491650e-01   -3,410889506e-01
       69875000    4,370024502e-01   -3,414706886e-01
       69950000    4,346156418e-01   -3,435077071e-01
       70025000    4,337442219e-01   -3,446285427e-01
       70100000    4,282197654e-01   -3,467023969e-01
       70175000    4,262249172e-01   -3,466778994e-01
       70250000    4,260427952e-01   -3,482603729e-01
       70325000    4,207224548e-01   -3,487390876e-01
       70400000    4,190924168e-01   -3,495975733e-01
       70475000    4,156675637e-01   -3,505989909e-01
       70550000    4,148751795e-01   -3,514513969e-01
       70625000    4,124138653e-01   -3,525961936e-01
       70700000    4,099658132e-01   -3,522534966e-01
       70775000    4,067285657e-01   -3,531648517e-01
       70850000    4,041835070e-01   -3,541260362e-01
       70925000    4,023130238e-01   -3,535054028e-01
       71000000    4,014747441e-01   -3,544782102e-01
       71075000    3,985031545e-01   -3,552749157e-01
       71150000    3,970876932e-01   -3,553411067e-01
       71225000    3,964227438e-01   -3,559944630e-01
       71300000    3,934709132e-01   -3,578872383e-01
       71375000    3,914669752e-01   -3,568191528e-01
       71450000    3,903972208e-01   -3,574935496e-01
       71525000    3,891230226e-01   -3,580272496e-01
       71600000    3,871454597e-01   -3,596824706e-01
       71675000    3,846353889e-01   -3,586657047e-01
       71750000    3,841799200e-01   -3,596180975e-01
       71825000    3,819488287e-01   -3,600562811e-01
       71900000    3,811290860e-01   -3,607585132e-01
       71975000    3,796654046e-01   -3,610917330e-01
       72050000    3,770934045e-01   -3,631194532e-01
       72125000    3,755800426e-01   -3,620319366e-01
       72200000    3,762110174e-01   -3,638930023e-01
       72275000    3,728546202e-01   -3,631975055e-01
       72350000    3,731733859e-01   -3,632767498e-01
       72425000    3,695429265e-01   -3,635832965e-01
       72500000    3,701195717e-01   -3,662369847e-01
       72575000    3,680465221e-01   -3,659495115e-01
       72650000    3,680512011e-01   -3,655298054e-01
       72725000    3,659032285e-01   -3,665818870e-01
       72800000    3,641538024e-01   -3,670212924e-01
       72875000    3,636021912e-01   -3,675425351e-01
       72950000    3,613350391e-01   -3,678570092e-01
       73025000    3,601957858e-01   -3,676927090e-01
       73100000    3,593989313e-01   -3,686571419e-01
       73175000    3,582715392e-01   -3,692763448e-01
       73250000    3,562009633e-01   -3,704192936e-01
       73325000    3,540480733e-01   -3,687840402e-01
       73400000    3,549762368e-01   -3,699553311e-01
       73475000    3,526712656e-01   -3,713051081e-01
       73550000    3,531604409e-01   -3,711433113e-01
       73625000    3,510606885e-01   -3,725033700e-01
       73700000    3,505545855e-01   -3,721717894e-01
       73775000    3,495088518e-01   -3,734643459e-01
       73850000    3,482885659e-01   -3,735090196e-01
       73925000    3,475385904e-01   -3,744422495e-01
       74000000    3,442468941e-01   -3,746852875e-01
       74075000    3,452714682e-01   -3,752871156e-01
       74150000    3,451071084e-01   -3,749919236e-01
       74225000    3,441481888e-01   -3,755822182e-01
       74300000    3,421889842e-01   -3,766383231e-01
       74375000    3,414740562e-01   -3,774350286e-01
       74450000    3,388727009e-01   -3,791857362e-01
       74525000    3,397034705e-01   -3,791019022e-01
       74600000    3,381833136e-01   -3,808779120e-01
       74675000    3,376136124e-01   -3,795173764e-01
       74750000    3,366647661e-01   -3,807672560e-01
       74825000    3,330796063e-01   -3,809251487e-01
       74900000    3,353159726e-01   -3,817439377e-01
       74975000    3,328098655e-01   -3,835566640e-01
       75050000    3,322903216e-01   -3,828511238e-01
       75125000    3,315356672e-01   -3,843334913e-01
       75200000    3,298814893e-01   -3,839825392e-01
       75275000    3,295207620e-01   -3,855461478e-01
       75350000    3,285782337e-01   -3,851253688e-01
       75425000    3,276412785e-01   -3,852912486e-01
       75500000    3,250110149e-01   -3,856426179e-01
       75575000    3,261091113e-01   -3,862863183e-01
       75650000    3,230118454e-01   -3,863511086e-01
       75725000    3,230046630e-01   -3,868019581e-01
       75800000    3,209896386e-01   -3,878992498e-01
       75875000    3,211025894e-01   -3,875793219e-01
       75950000    3,193466365e-01   -3,887729049e-01
       76025000    3,188405633e-01   -3,881550431e-01
       76100000    3,180868626e-01   -3,889247179e-01
       76175000    3,159804940e-01   -3,888005912e-01
       76250000    3,161315024e-01   -3,899197280e-01
       76325000    3,140856028e-01   -3,900385797e-01
       76400000    3,139830530e-01   -3,896132708e-01
       76475000    3,140764236e-01   -3,907948136e-01
       76550000    3,125616610e-01   -3,926542103e-01
       76625000    3,102641404e-01   -3,910324872e-01
       76700000    3,102059364e-01   -3,918123543e-01
       76775000    3,079738021e-01   -3,919788599e-01
       76850000    3,079987168e-01   -3,909204304e-01
       76925000    3,078078032e-01   -3,910837173e-01
       77000000    3,052425981e-01   -3,915977180e-01
       77075000    3,047101200e-01   -3,902327120e-01
       77150000    3,042783141e-01   -3,913763463e-01
       77225000    3,034098744e-01   -3,909341097e-01
       77300000    3,031552136e-01   -3,906225562e-01
       77375000    3,022315502e-01   -3,907231092e-01
       77450000    3,012154996e-01   -3,911598921e-01
       77525000    3,001544178e-01   -3,910238147e-01
       77600000    2,998051941e-01   -3,888419271e-01
       77675000    3,000193834e-01   -3,889953196e-01
       77750000    2,976216674e-01   -3,879446685e-01
       77825000    2,977199256e-01   -3,870424926e-01
       77900000    2,975381613e-01   -3,864403069e-01
       77975000    2,966710329e-01   -3,860518038e-01
       78050000    2,970496714e-01   -3,847468495e-01
       78125000    2,981547713e-01   -3,836557269e-01
       78200000    2,970509827e-01   -3,826037049e-01
       78275000    2,992078662e-01   -3,807522655e-01
       78350000    3,003473878e-01   -3,800467551e-01
       78425000    3,016383350e-01   -3,798438013e-01
       78500000    3,021934032e-01   -3,802579939e-01
       78575000    3,036049306e-01   -3,813851178e-01
       78650000    3,050888181e-01   -3,827312887e-01
       78725000    3,050850928e-01   -3,822154403e-01
       78800000    3,071572483e-01   -3,834044039e-01
       78875000    3,074602485e-01   -3,842532635e-01
       78950000    3,079077005e-01   -3,835549355e-01
       79025000    3,093305528e-01   -3,839667737e-01
       79100000    3,093274832e-01   -3,840469122e-01
       79175000    3,094338179e-01   -3,837996423e-01
       79250000    3,093119860e-01   -3,850687742e-01
       79325000    3,114114404e-01   -3,851482868e-01
       79400000    3,135098815e-01   -3,870356679e-01
       79475000    3,135565817e-01   -3,858132660e-01
       79550000    3,146308362e-01   -3,868105710e-01
       79625000    3,138174415e-01   -3,880580366e-01
       79700000    3,159532845e-01   -3,883713186e-01
       79775000    3,175539076e-01   -3,895798028e-01
       79850000    3,167901337e-01   -3,897147775e-01
       79925000    3,190532327e-01   -3,902938664e-01
       80000000    3,212517500e-01   -3,905824721e-01
       80075000    3,227893710e-01   -3,918913305e-01
       80150000    3,223428726e-01   -3,932886720e-01
       80225000    3,244816363e-01   -3,944009244e-01
       80300000    3,280075788e-01   -3,971610367e-01
       80375000    3,270329833e-01   -3,968526423e-01
       80450000    3,269968033e-01   -3,995031714e-01
       80525000    3,290997148e-01   -3,999451697e-01
       80600000    3,304111660e-01   -4,027051628e-01
       80675000    3,312077522e-01   -4,030842185e-01
       80750000    3,326800168e-01   -4,044495821e-01
       80825000    3,325207233e-01   -4,078471363e-01
       80900000    3,337150514e-01   -4,080731273e-01
       80975000    3,363304138e-01   -4,093874991e-01
       81050000    3,353846967e-01   -4,131728709e-01
       81125000    3,373771012e-01   -4,144257903e-01
       81200000    3,361471891e-01   -4,165792763e-01
       81275000    3,382602930e-01   -4,181596637e-01
       81350000    3,391079903e-01   -4,219985902e-01
       81425000    3,400085568e-01   -4,208869934e-01
       81500000    3,415611684e-01   -4,239960611e-01
       81575000    3,416388929e-01   -4,263976514e-01
       81650000    3,424977660e-01   -4,290101826e-01
       81725000    3,425272405e-01   -4,305491447e-01
       81800000    3,419253230e-01   -4,341028631e-01
       81875000    3,444415927e-01   -4,360861778e-01
       81950000    3,453626931e-01   -4,388356805e-01
       82025000    3,453716934e-01   -4,404188395e-01
       82100000    3,468526900e-01   -4,422763288e-01
       82175000    3,455693126e-01   -4,443026781e-01
       82250000    3,467812538e-01   -4,473492503e-01
       82325000    3,452099264e-01   -4,493534863e-01
       82400000    3,468289673e-01   -4,522458911e-01
       82475000    3,469193280e-01   -4,567393959e-01
       82550000    3,479325771e-01   -4,582596719e-01
       82625000    3,485044539e-01   -4,611190557e-01
       82700000    3,483048677e-01   -4,630196989e-01
       82775000    3,484354615e-01   -4,670013487e-01
       82850000    3,485086858e-01   -4,681572020e-01
       82925000    3,489535749e-01   -4,723061323e-01
       83000000    3,493781090e-01   -4,732343853e-01
       83075000    3,488214016e-01   -4,777508378e-01
       83150000    3,483555317e-01   -4,795195162e-01
       83225000    3,495178521e-01   -4,823926091e-01
       83300000    3,483809829e-01   -4,852925837e-01
       83375000    3,506712914e-01   -4,887226820e-01
       83450000    3,466280103e-01   -4,920460880e-01
       83525000    3,471462727e-01   -4,941485226e-01
       83600000    3,459467590e-01   -4,977566600e-01
       83675000    3,462020457e-01   -4,992334545e-01
       83750000    3,474056721e-01   -5,023809671e-01
       83825000    3,437291384e-01   -5,068006516e-01
       83900000    3,445394039e-01   -5,097088814e-01
       83975000    3,446815312e-01   -5,140300989e-01
       84050000    3,438335955e-01   -5,150991678e-01
       84125000    3,440637589e-01   -5,187805295e-01
       84200000    3,401525915e-01   -5,209713578e-01
       84275000    3,409024477e-01   -5,248125792e-01
       84350000    3,404408693e-01   -5,290040374e-01
       84425000    3,397019804e-01   -5,309888721e-01
       84500000    3,391790390e-01   -5,347658992e-01
       84575000    3,347965479e-01   -5,361521840e-01
       84650000    3,363033831e-01   -5,402873158e-01
       84725000    3,355762661e-01   -5,434131026e-01
       84800000    3,339999914e-01   -5,453709960e-01
       84875000    3,325765431e-01   -5,490429401e-01
       84950000    3,286741972e-01   -5,528606772e-01
       85025000    3,284914792e-01   -5,534346104e-01
       85100000    3,263966441e-01   -5,582774282e-01
       85175000    3,266743720e-01   -5,624847412e-01
       85250000    3,236818910e-01   -5,639323592e-01
       85325000    3,226518929e-01   -5,660200119e-01
       85400000    3,189826012e-01   -5,685617924e-01
       85475000    3,176665008e-01   -5,718525052e-01
       85550000    3,170134723e-01   -5,749714375e-01
       85625000    3,138018548e-01   -5,798861980e-01
       85700000    3,126437664e-01   -5,809412003e-01
       85775000    3,098191023e-01   -5,834127665e-01
       85850000    3,095421791e-01   -5,875898004e-01
       85925000    3,045160770e-01   -5,912366509e-01
       86000000    3,025443256e-01   -5,928819180e-01
       86075000    3,017234504e-01   -5,965243578e-01
       86150000    2,983652055e-01   -5,952605009e-01
       86225000    2,969061136e-01   -5,988768339e-01
       86300000    2,935687900e-01   -6,015074253e-01
       86375000    2,893200517e-01   -6,038414240e-01
       86450000    2,861782610e-01   -6,071265340e-01
       86525000    2,861350179e-01   -6,071401834e-01
       86600000    2,819256783e-01   -6,102664471e-01
       86675000    2,793701589e-01   -6,136388779e-01
       86750000    2,777217627e-01   -6,157087684e-01
       86825000    2,752850652e-01   -6,167104244e-01
       86900000    2,745436430e-01   -6,173287630e-01
       86975000    2,721072137e-01   -6,208281517e-01
       87050000    2,646248043e-01   -6,223892570e-01
       87125000    2,653730512e-01   -6,230355501e-01
       87200000    2,634123266e-01   -6,259608269e-01
       87275000    2,578378916e-01   -6,261190176e-01
       87350000    2,577880621e-01   -6,281620860e-01
       87425000    2,549596429e-01   -6,305056810e-01
       87500000    2,513900995e-01   -6,315082908e-01
       87575000    2,500422001e-01   -6,325318813e-01
       87650000    2,469007224e-01   -6,324272156e-01
       87725000    2,423347384e-01   -6,346665621e-01
       87800000    2,391326427e-01   -6,376213431e-01
       87875000    2,374550402e-01   -6,383315325e-01
       87950000    2,364177555e-01   -6,370894313e-01
       88025000    2,337380201e-01   -6,413445473e-01
       88100000    2,307392955e-01   -6,387922168e-01
       88175000    2,263484448e-01   -6,419427395e-01
       88250000    2,223455012e-01   -6,436732411e-01
       88325000    2,229400575e-01   -6,426177621e-01
       88400000    2,207057923e-01   -6,434966922e-01
       88475000    2,169050276e-01   -6,435149312e-01
       88550000    2,146060020e-01   -6,447669268e-01
       88625000    2,125691473e-01   -6,495944262e-01
       88700000    2,073322088e-01   -6,477667093e-01
       88775000    2,074024677e-01   -6,474708915e-01
       88850000    2,026001364e-01   -6,494654417e-01
       88925000    2,018443942e-01   -6,517124176e-01
       89000000    1,994892359e-01   -6,517351866e-01
       89075000    1,971960068e-01   -6,514063478e-01
       89150000    1,940790564e-01   -6,499837637e-01
       89225000    1,907974929e-01   -6,508859992e-01
       89300000    1,868237406e-01   -6,496105194e-01
       89375000    1,847549826e-01   -6,501480937e-01
       89450000    1,792217642e-01   -6,497101188e-01
       89525000    1,818381250e-01   -6,525992155e-01
       89600000    1,794112474e-01   -6,534199715e-01
       89675000    1,739038676e-01   -6,531077027e-01
       89750000    1,733071953e-01   -6,515595913e-01
       89825000    1,699915081e-01   -6,491981745e-01
       89900000    1,664229482e-01   -6,501378417e-01
       89975000    1,657589674e-01   -6,489336491e-01
       90050000    1,628411412e-01   -6,495119333e-01
       90125000    1,647935063e-01   -6,473885775e-01
       90200000    1,637538224e-01   -6,460704207e-01
       90275000    1,603086144e-01   -6,465167403e-01
       90350000    1,603959501e-01   -6,454575062e-01
       90425000    1,611675620e-01   -6,436015964e-01
       90500000    1,604880095e-01   -6,413908005e-01
       90575000    1,579991132e-01   -6,429050565e-01
       90650000    1,593167037e-01   -6,435683370e-01
       90725000    1,561862975e-01   -6,410868168e-01
       90800000    1,572338939e-01   -6,409490108e-01
       90875000    1,566643715e-01   -6,424649954e-01
       90950000    1,588676423e-01   -6,419996619e-01
       91025000    1,587475091e-01   -6,435719728e-01
       91100000    1,593258679e-01   -6,432775259e-01
       91175000    1,612763554e-01   -6,434215903e-01
       91250000    1,608386487e-01   -6,424865127e-01
       91325000    1,618666053e-01   -6,445924640e-01
       91400000    1,595019996e-01   -6,429218650e-01
       91475000    1,606576890e-01   -6,454144716e-01
       91550000    1,583691388e-01   -6,467654109e-01
       91625000    1,606561691e-01   -6,498711109e-01
       91700000    1,591117382e-01   -6,515733004e-01
       91775000    1,621875316e-01   -6,536257267e-01
       91850000    1,612777859e-01   -6,567922235e-01
       91925000    1,617116630e-01   -6,569870114e-01
