! NanoVNA-App
! Date: 2025-08-02 16:17:02
! Start: 65MHz Stop: 95MHz Points: 401
! S-Parameter data: F S11
# Hz S RI R 50
!     Frequency           S11_Real           S11_Imag
       65000000    1,322893947e-01    2,258895487e-01
       65075000    1,410154551e-01    2,191852480e-01
       65150000    1,449142247e-01    2,137519419e-01
       65225000    1,513294727e-01    2,077423185e-01
       65300000    1,575402468e-01    2,027425617e-01
       65375000    1,620937735e-01    1,969222575e-01
       65450000    1,674727350e-01    1,914489418e-01
       65525000    1,714237779e-01    1,851563305e-01
       65600000    1,758200973e-01    1,792793721e-01
       65675000    1,794015020e-01    1,731872559e-01
       65750000    1,830310524e-01    1,672474444e-01
       65825000    1,864851415e-01    1,607772261e-01
       65900000    1,892373413e-01    1,541513950e-01
       65975000    1,923273206e-01    1,483226717e-01
       66050000    1,956341267e-01    1,425286680e-01
       66125000    1,981894374e-01    1,372896284e-01
       66200000    2,010086775e-01    1,308538765e-01
       66275000    2,034711540e-01    1,256340444e-01
       66350000    2,053739429e-01    1,201736480e-01
       66425000    2,075548619e-01    1,141954139e-01
       66500000    2,088935822e-01    1,084870622e-01
       66575000    2,112583220e-01    1,040204540e-01
       66650000    2,132974565e-01    9,772919863e-02
       66725000    2,147398293e-01    9,282885492e-02
       66800000    2,180010229e-01    8,839468658e-02
       66875000    2,194481939e-01    8,331350982e-02
       66950000    2,212593704e-01    7,805934548e-02
       67025000    2,240025401e-01    7,330659032e-02
       67100000    2,250633389e-01    6,685537845e-02
       67175000    2,269450575e-01    6,207088381e-02
       67250000    2,288388461e-01    5,642238632e-02
       67325000    2,307001650e-01    5,000973865e-02
       67400000    2,318120301e-01    4,431850463e-02
       67475000    2,328765392e-01    3,786982968e-02
       67550000    2,338937521e-01    3,130323812e-02
       67625000    2,341197729e-01    2,701444179e-02
       67700000    2,343612015e-01    2,039448172e-02
       67775000    2,336705625e-01    1,413170341e-02
       67850000    2,340005487e-01    9,215871803e-03
       67925000    2,334860861e-01    3,177585313e-03
       68000000    2,335898429e-01   -3,014961723e-03
       68075000    2,326235920e-01   -6,835244130e-03
       68150000    2,324496359e-01   -1,145967096e-02
       68225000    2,315188944e-01   -1,650822349e-02
       68300000    2,304175347e-01   -2,159687132e-02
       68375000    2,298843712e-01   -2,591512166e-02
       68450000    2,292256504e-01   -3,215498850e-02
       68525000    2,287034690e-01   -3,502152115e-02
       68600000    2,271331549e-01   -4,103408381e-02
       68675000    2,261064500e-01   -4,410083219e-02
       68750000    2,253373861e-01   -4,864067957e-02
       68825000    2,227190882e-01   -5,237521604e-02
       68900000    2,225240320e-01   -5,736091733e-02
       68975000    2,201468647e-01   -6,095872447e-02
       69050000    2,185681015e-01   -6,537489593e-02
       69125000    2,160742730e-01   -6,894779950e-02
       69200000    2,149443924e-01   -7,228388637e-02
       69275000    2,124418765e-01   -7,634067535e-02
       69350000    2,107676268e-01   -7,979980856e-02
       69425000    2,093298435e-01   -8,289543539e-02
       69500000    2,073531896e-01   -8,588570356e-02
       69575000    2,044242024e-01   -8,917396516e-02
       69650000    2,033224404e-01   -9,244535118e-02
       69725000    2,007347345e-01   -9,539202601e-02
       69800000    1,995769441e-01   -9,751125425e-02
       69875000    1,967772692e-01   -1,003586799e-01
       69950000    1,956170201e-01   -1,006728411e-01
       70025000    1,938308924e-01   -1,043647230e-01
       70100000    1,923267394e-01   -1,063023284e-01
       70175000    1,895018071e-01   -1,068606675e-01
       70250000    1,883057654e-01   -1,098496616e-01
       70325000    1,861333996e-01   -1,126824915e-01
       70400000    1,858603358e-01   -1,131483763e-01
       70475000    1,838538796e-01   -1,151056960e-01
       70550000    1,816029251e-01   -1,164652184e-01
       70625000    1,816906482e-01   -1,178349853e-01
       70700000    1,803376973e-01   -1,198687553e-01
       70775000    1,785861403e-01   -1,207899302e-01
       70850000    1,778708547e-01   -1,230670288e-01
       70925000    1,755261272e-01   -1,251643300e-01
       71000000    1,749080867e-01   -1,267786771e-01
       71075000    1,745375842e-01   -1,279291064e-01
       71150000    1,721811742e-01   -1,302328408e-01
       71225000    1,701003909e-01   -1,307528913e-01
       71300000    1,701520085e-01   -1,322221756e-01
       71375000    1,684198231e-01   -1,339634359e-01
       71450000    1,679796576e-01   -1,355034709e-01
       71525000    1,678488702e-01   -1,371707767e-01
       71600000    1,660588086e-01   -1,386376172e-01
       71675000    1,634743214e-01   -1,414891481e-01
       71750000    1,637954861e-01   -1,427733600e-01
       71825000    1,621306390e-01   -1,437494010e-01
       71900000    1,608220190e-01   -1,446583271e-01
       71975000    1,601005048e-01   -1,470887661e-01
       72050000    1,582806259e-01   -1,476036608e-01
       72125000    1,553215981e-01   -1,489512175e-01
       72200000    1,552408189e-01   -1,510285586e-01
       72275000    1,534311473e-01   -1,534564495e-01
       72350000    1,522006094e-01   -1,539433599e-01
       72425000    1,500441432e-01   -1,554849744e-01
       72500000    1,489113569e-01   -1,571033746e-01
       72575000    1,466904283e-01   -1,576628536e-01
       72650000    1,456734985e-01   -1,576134712e-01
       72725000    1,447342187e-01   -1,594360620e-01
       72800000    1,418060511e-01   -1,597371399e-01
       72875000    1,413880736e-01   -1,604253948e-01
       72950000    1,389539540e-01   -1,620627195e-01
       73025000    1,372937411e-01   -1,620810330e-01
       73100000    1,353407353e-01   -1,600701809e-01
       73175000    1,348221898e-01   -1,627681404e-01
       73250000    1,339382082e-01   -1,626057774e-01
       73325000    1,319683343e-01   -1,625231951e-01
       73400000    1,307253987e-01   -1,635068953e-01
       73475000    1,298622936e-01   -1,642480344e-01
       73550000    1,286398768e-01   -1,612970382e-01
       73625000    1,261661053e-01   -1,642468572e-01
       73700000    1,243879572e-01   -1,637011319e-01
       73775000    1,246933192e-01   -1,622282714e-01
       73850000    1,212750673e-01   -1,652139425e-01
       73925000    1,216320544e-01   -1,645368785e-01
       74000000    1,215362400e-01   -1,634566784e-01
       74075000    1,182727367e-01   -1,629843861e-01
       74150000    1,177465320e-01   -1,651001722e-01
       74225000    1,179946661e-01   -1,633215994e-01
       74300000    1,144827977e-01   -1,637627929e-01
       74375000    1,143855900e-01   -1,638194919e-01
       74450000    1,154269427e-01   -1,631278247e-01
       74525000    1,126633137e-01   -1,623665243e-01
       74600000    1,117849573e-01   -1,625048518e-01
       74675000    1,109871939e-01   -1,621137559e-01
       74750000    1,100461036e-01   -1,620513946e-01
       74825000    1,094483510e-01   -1,630008817e-01
       74900000    1,099277809e-01   -1,621455550e-01
       74975000    1,085779592e-01   -1,615440995e-01
       75050000    1,074883491e-01   -1,589908749e-01
       75125000    1,078885272e-01   -1,605430245e-01
       75200000    1,061443090e-01   -1,589425951e-01
       75275000    1,059398204e-01   -1,587964892e-01
       75350000    1,056931689e-01   -1,584587097e-01
       75425000    1,046001464e-01   -1,589992344e-01
       75500000    1,029434875e-01   -1,581524014e-01
       75575000    1,041613743e-01   -1,585464925e-01
       75650000    1,023645699e-01   -1,578689516e-01
       75725000    1,033210903e-01   -1,565171778e-01
       75800000    1,021226496e-01   -1,568241864e-01
       75875000    1,027364582e-01   -1,561992764e-01
       75950000    1,006940305e-01   -1,555760056e-01
       76025000    9,989236295e-02   -1,540996432e-01
       76100000    1,013590991e-01   -1,537346393e-01
       76175000    9,971320629e-02   -1,526756883e-01
       76250000    1,002677903e-01   -1,526392996e-01
       76325000    1,002170816e-01   -1,537435651e-01
       76400000    1,001915410e-01   -1,506928802e-01
       76475000    9,973672032e-02   -1,498979777e-01
       76550000    9,992870688e-02   -1,511391252e-01
       76625000    9,994673729e-02   -1,480824649e-01
       76700000    9,934074432e-02   -1,479574442e-01
       76775000    9,798233211e-02   -1,482451558e-01
       76850000    9,957403690e-02   -1,449503303e-01
       76925000    9,942315519e-02   -1,438666582e-01
       77000000    9,812989831e-02   -1,436813772e-01
       77075000    9,898743778e-02   -1,411717385e-01
       77150000    9,965516627e-02   -1,402978152e-01
       77225000    9,948749840e-02   -1,411558241e-01
       77300000    9,934488684e-02   -1,392312497e-01
       77375000    1,006346568e-01   -1,369022727e-01
       77450000    1,002303287e-01   -1,367431134e-01
       77525000    1,016880348e-01   -1,345434636e-01
       77600000    1,025620922e-01   -1,321958005e-01
       77675000    1,024923548e-01   -1,321581602e-01
       77750000    1,028191373e-01   -1,300070733e-01
       77825000    1,049735397e-01   -1,290094107e-01
       77900000    1,051297709e-01   -1,279108077e-01
       77975000    1,054669544e-01   -1,270992607e-01
       78050000    1,077198908e-01   -1,251931638e-01
       78125000    1,089829803e-01   -1,238139868e-01
       78200000    1,096438468e-01   -1,225444153e-01
       78275000    1,119587645e-01   -1,202548519e-01
       78350000    1,128984615e-01   -1,192811057e-01
       78425000    1,150751784e-01   -1,182615608e-01
       78500000    1,156826392e-01   -1,167514846e-01
       78575000    1,188662052e-01   -1,165113375e-01
       78650000    1,206464618e-01   -1,164354384e-01
       78725000    1,227476820e-01   -1,133499071e-01
       78800000    1,251235008e-01   -1,132191867e-01
       78875000    1,275130212e-01   -1,134287417e-01
       78950000    1,305257082e-01   -1,118707657e-01
       79025000    1,327155828e-01   -1,118020564e-01
       79100000    1,350887567e-01   -1,102733165e-01
       79175000    1,383319944e-01   -1,095810458e-01
       79250000    1,395233721e-01   -1,097788811e-01
       79325000    1,426350474e-01   -1,093906835e-01
       79400000    1,456602663e-01   -1,106477305e-01
       79475000    1,489008814e-01   -1,101568863e-01
       79550000    1,509602666e-01   -1,104255766e-01
       79625000    1,534556299e-01   -1,101407781e-01
       79700000    1,566297412e-01   -1,119494513e-01
       79775000    1,591736078e-01   -1,118868962e-01
       79850000    1,617588699e-01   -1,114079133e-01
       79925000    1,649531126e-01   -1,133013964e-01
       80000000    1,682446897e-01   -1,137085184e-01
       80075000    1,691808254e-01   -1,142432243e-01
       80150000    1,724787354e-01   -1,162577569e-01
       80225000    1,754601598e-01   -1,159884632e-01
       80300000    1,780193448e-01   -1,173176244e-01
       80375000    1,796559989e-01   -1,191897392e-01
       80450000    1,820570379e-01   -1,212080717e-01
       80525000    1,853065640e-01   -1,226297244e-01
       80600000    1,867524683e-01   -1,247923747e-01
       80675000    1,904312372e-01   -1,248017624e-01
       80750000    1,922310740e-01   -1,271807700e-01
       80825000    1,932244748e-01   -1,285746694e-01
       80900000    1,962147653e-01   -1,298085749e-01
       80975000    1,991137266e-01   -1,321855783e-01
       81050000    1,993830502e-01   -1,335259974e-01
       81125000    2,027923316e-01   -1,356718093e-01
       81200000    2,030159235e-01   -1,378409564e-01
       81275000    2,055732012e-01   -1,402653158e-01
       81350000    2,065721750e-01   -1,422502697e-01
       81425000    2,103209794e-01   -1,445552707e-01
       81500000    2,104751617e-01   -1,476924717e-01
       81575000    2,121369392e-01   -1,487673074e-01
       81650000    2,130568475e-01   -1,518928707e-01
       81725000    2,141927928e-01   -1,532073170e-01
       81800000    2,144295573e-01   -1,547802240e-01
       81875000    2,155691683e-01   -1,580097228e-01
       81950000    2,152442038e-01   -1,608296484e-01
       82025000    2,179466933e-01   -1,626644284e-01
       82100000    2,184755802e-01   -1,656485647e-01
       82175000    2,192100286e-01   -1,656940430e-01
       82250000    2,190240473e-01   -1,690179855e-01
       82325000    2,202342302e-01   -1,689941585e-01
       82400000    2,202428281e-01   -1,706899703e-01
       82475000    2,196601182e-01   -1,716295481e-01
       82550000    2,211680114e-01   -1,742149740e-01
       82625000    2,208007574e-01   -1,747517884e-01
       82700000    2,211999595e-01   -1,768525690e-01
       82775000    2,210129797e-01   -1,778621376e-01
       82850000    2,226025313e-01   -1,792929173e-01
       82925000    2,226692587e-01   -1,803225130e-01
       83000000    2,236073464e-01   -1,822067797e-01
       83075000    2,234821767e-01   -1,829561740e-01
       83150000    2,248508483e-01   -1,839263439e-01
       83225000    2,249363810e-01   -1,848537177e-01
       83300000    2,261790037e-01   -1,862121522e-01
       83375000    2,268820554e-01   -1,878330410e-01
       83450000    2,293435335e-01   -1,875531524e-01
       83525000    2,301502675e-01   -1,891157329e-01
       83600000    2,307619154e-01   -1,888881624e-01
       83675000    2,314924002e-01   -1,921094954e-01
       83750000    2,319692671e-01   -1,933064759e-01
       83825000    2,342846841e-01   -1,922142804e-01
       83900000    2,348239422e-01   -1,942225993e-01
       83975000    2,355241179e-01   -1,948600411e-01
       84050000    2,368779629e-01   -1,962014437e-01
       84125000    2,368031889e-01   -1,975942552e-01
       84200000    2,398403138e-01   -1,983122230e-01
       84275000    2,407251447e-01   -1,992396414e-01
       84350000    2,414014935e-01   -1,997199357e-01
       84425000    2,427234948e-01   -2,019080371e-01
       84500000    2,428581715e-01   -2,022382319e-01
       84575000    2,462135404e-01   -2,048645318e-01
       84650000    2,472950518e-01   -2,056834102e-01
       84725000    2,470286340e-01   -2,053339332e-01
       84800000    2,497252077e-01   -2,079526633e-01
       84875000    2,493678927e-01   -2,086170465e-01
       84950000    2,533041239e-01   -2,101505995e-01
       85025000    2,538605332e-01   -2,126020193e-01
       85100000    2,558762133e-01   -2,134991884e-01
       85175000    2,580530345e-01   -2,126852274e-01
       85250000    2,594902515e-01   -2,155905962e-01
       85325000    2,584103942e-01   -2,165108919e-01
       85400000    2,620477378e-01   -2,186369896e-01
       85475000    2,635245323e-01   -2,202630043e-01
       85550000    2,638913095e-01   -2,208048701e-01
       85625000    2,684404254e-01   -2,216933519e-01
       85700000    2,694747448e-01   -2,232682258e-01
       85775000    2,703567445e-01   -2,270478010e-01
       85850000    2,732580006e-01   -2,266294807e-01
       85925000    2,768705487e-01   -2,290594727e-01
       86000000    2,780612707e-01   -2,320085168e-01
       86075000    2,796992660e-01   -2,323542982e-01
       86150000    2,819337249e-01   -2,350566536e-01
       86225000    2,845477462e-01   -2,367246300e-01
       86300000    2,863231003e-01   -2,413422465e-01
       86375000    2,877352536e-01   -2,439606637e-01
       86450000    2,907115519e-01   -2,452251613e-01
       86525000    2,931044996e-01   -2,475558966e-01
       86600000    2,930486798e-01   -2,518601120e-01
       86675000    2,971891761e-01   -2,533142269e-01
       86750000    2,982766926e-01   -2,574788630e-01
       86825000    2,984775901e-01   -2,600319088e-01
       86900000    3,021107614e-01   -2,604925036e-01
       86975000    3,051010966e-01   -2,641466260e-01
       87050000    3,056488931e-01   -2,689492106e-01
       87125000    3,085363805e-01   -2,714611590e-01
       87200000    3,090912700e-01   -2,742740512e-01
       87275000    3,095809221e-01   -2,778030038e-01
       87350000    3,116697967e-01   -2,829417884e-01
       87425000    3,141212463e-01   -2,845408618e-01
       87500000    3,159365654e-01   -2,877328098e-01
       87575000    3,164108694e-01   -2,911308110e-01
       87650000    3,171083331e-01   -2,960289419e-01
       87725000    3,156446218e-01   -2,984453440e-01
       87800000    3,180418611e-01   -3,034383655e-01
       87875000    3,180741072e-01   -3,067155182e-01
       87950000    3,217703402e-01   -3,078112006e-01
       88025000    3,225603402e-01   -3,129336834e-01
       88100000    3,229044378e-01   -3,174880743e-01
       88175000    3,219559789e-01   -3,194832206e-01
       88250000    3,226931095e-01   -3,238603771e-01
       88325000    3,257795274e-01   -3,284108043e-01
       88400000    3,258672953e-01   -3,304818571e-01
       88475000    3,272720575e-01   -3,357611001e-01
       88550000    3,271127045e-01   -3,370516002e-01
       88625000    3,279420137e-01   -3,426832855e-01
       88700000    3,284307420e-01   -3,451828361e-01
       88775000    3,280695081e-01   -3,508754373e-01
       88850000    3,277471364e-01   -3,516737819e-01
       88925000    3,307340741e-01   -3,579755723e-01
       89000000    3,295848966e-01   -3,628449738e-01
       89075000    3,321259320e-01   -3,652574420e-01
       89150000    3,308730423e-01   -3,709602654e-01
       89225000    3,327530026e-01   -3,712529242e-01
       89300000    3,328658640e-01   -3,780491054e-01
       89375000    3,330316842e-01   -3,802565038e-01
       89450000    3,328036368e-01   -3,851418793e-01
       89525000    3,315281868e-01   -3,907509446e-01
       89600000    3,331845105e-01   -3,940439820e-01
       89675000    3,317060173e-01   -3,980319500e-01
       89750000    3,312562108e-01   -4,027363956e-01
       89825000    3,315407038e-01   -4,049997628e-01
       89900000    3,322601616e-01   -4,106625915e-01
       89975000    3,311886489e-01   -4,141897261e-01
       90050000    3,311923146e-01   -4,202992618e-01
       90125000    3,296189010e-01   -4,257279038e-01
       90200000    3,326046169e-01   -4,305751622e-01
       90275000    3,301208913e-01   -4,333530664e-01
       90350000    3,298360407e-01   -4,370146692e-01
       90425000    3,317014873e-01   -4,440628290e-01
       90500000    3,272508681e-01   -4,490978122e-01
       90575000    3,286130130e-01   -4,503170550e-01
       90650000    3,258555233e-01   -4,575106502e-01
       90725000    3,260525465e-01   -4,619863033e-01
       90800000    3,254640996e-01   -4,644472897e-01
       90875000    3,236670494e-01   -4,707631469e-01
       90950000    3,209340870e-01   -4,751470685e-01
       91025000    3,193443120e-01   -4,801062644e-01
       91100000    3,176546097e-01   -4,827933908e-01
       91175000    3,172218204e-01   -4,910652936e-01
       91250000    3,124510646e-01   -4,950521290e-01
       91325000    3,132509291e-01   -5,000260472e-01
       91400000    3,107658029e-01   -5,051061511e-01
       91475000    3,106021285e-01   -5,076974034e-01
       91550000    3,077405691e-01   -5,150986910e-01
       91625000    3,054953814e-01   -5,164177418e-01
       91700000    3,037182987e-01   -5,218635798e-01
       91775000    3,002634645e-01   -5,243160725e-01
       91850000    2,974220216e-01   -5,295472145e-01
       91925000    2,926266193e-01   -5,331779718e-01
