! NanoVNA-App
! Date: 2025-08-09 13:46:16
! Start: 65MHz Stop: 95MHz Points: 401
! S-Parameter data: F S11
# Hz S RI R 50
!     Frequency           S11_Real           S11_Imag
       65000000   -2,448095828e-01    5,156998634e-01
       65075000   -2,384694368e-01    5,121730566e-01
       65150000   -2,367718667e-01    5,116432905e-01
       65225000   -2,283076048e-01    5,084484220e-01
       65300000   -2,204928696e-01    5,091413260e-01
       65375000   -2,144192159e-01    5,098668337e-01
       65450000   -2,118361443e-01    5,103826523e-01
       65525000   -2,050522119e-01    5,087836385e-01
       65600000   -1,997265071e-01    5,084058046e-01
       65675000   -1,956272125e-01    5,075385571e-01
       65750000   -1,879877895e-01    5,065055490e-01
       65825000   -1,830197424e-01    5,028146505e-01
       65900000   -1,782024354e-01    5,024609566e-01
       65975000   -1,719786525e-01    5,014038086e-01
       66050000   -1,670940667e-01    5,012609363e-01
       66125000   -1,640945375e-01    5,017184615e-01
       66200000   -1,571205109e-01    4,984530210e-01
       66275000   -1,518805474e-01    5,001776218e-01
       66350000   -1,489564776e-01    4,976525605e-01
       66425000   -1,411458403e-01    4,952697456e-01
       66500000   -1,363011152e-01    4,944199026e-01
       66575000   -1,301817000e-01    4,931828678e-01
       66650000   -1,254559606e-01    4,932979047e-01
       66725000   -1,222561374e-01    4,936076105e-01
       66800000   -1,169657633e-01    4,933427870e-01
       66875000   -1,134245619e-01    4,918417633e-01
       66950000   -1,079602018e-01    4,905305505e-01
       67025000   -1,038406193e-01    4,889431894e-01
       67100000   -9,770061821e-02    4,872659147e-01
       67175000   -8,958787471e-02    4,861869812e-01
       67250000   -8,499536663e-02    4,859910905e-01
       67325000   -7,955830544e-02    4,842544794e-01
       67400000   -7,451923192e-02    4,827262461e-01
       67475000   -7,294417173e-02    4,831810594e-01
       67550000   -6,471066177e-02    4,788471460e-01
       67625000   -5,921982974e-02    4,787374437e-01
       67700000   -5,431639403e-02    4,773282409e-01
       67775000   -5,162470788e-02    4,738623202e-01
       67850000   -4,525492713e-02    4,726058841e-01
       67925000   -4,078880325e-02    4,726368487e-01
       68000000   -3,531752154e-02    4,702510834e-01
       68075000   -2,974954620e-02    4,703735113e-01
       68150000   -2,504621446e-02    4,692877233e-01
       68225000   -2,132191323e-02    4,628295600e-01
       68300000   -1,739023440e-02    4,622107446e-01
       68375000   -1,086078677e-02    4,598664045e-01
       68450000   -4,758245777e-03    4,581981599e-01
       68525000   -4,353800032e-04    4,566078782e-01
       68600000    5,164884031e-03    4,536646008e-01
       68675000    7,902261801e-03    4,531051815e-01
       68750000    1,151580550e-02    4,506832957e-01
       68825000    1,655816101e-02    4,460497797e-01
       68900000    1,980089024e-02    4,433086216e-01
       68975000    2,377286553e-02    4,402612448e-01
       69050000    2,972332202e-02    4,359264374e-01
       69125000    3,337830678e-02    4,342832565e-01
       69200000    3,731620312e-02    4,310456812e-01
       69275000    4,095940664e-02    4,283352494e-01
       69350000    4,587924853e-02    4,247783720e-01
       69425000    4,937429354e-02    4,224413931e-01
       69500000    5,275321752e-02    4,185924232e-01
       69575000    5,680213496e-02    4,153912663e-01
       69650000    5,951660872e-02    4,139559865e-01
       69725000    6,359419227e-02    4,110258818e-01
       69800000    6,614362448e-02    4,093511105e-01
       69875000    6,937225908e-02    4,058969617e-01
       69950000    7,000762224e-02    4,032542109e-01
       70025000    7,486157119e-02    4,009709954e-01
       70100000    7,600129396e-02    3,957685530e-01
       70175000    8,008166403e-02    3,938929737e-01
       70250000    8,227555454e-02    3,929121196e-01
       70325000    8,380391449e-02    3,900711536e-01
       70400000    8,626715094e-02    3,887325525e-01
       70475000    8,746320009e-02    3,833715916e-01
       70550000    9,168548882e-02    3,815238476e-01
       70625000    9,472137690e-02    3,806515038e-01
       70700000    9,497015923e-02    3,764454424e-01
       70775000    9,791187942e-02    3,752736151e-01
       70850000    1,004993916e-01    3,728597462e-01
       70925000    1,037025601e-01    3,715565801e-01
       71000000    1,062689647e-01    3,697263598e-01
       71075000    1,085779518e-01    3,654696047e-01
       71150000    1,121876761e-01    3,646139503e-01
       71225000    1,158626154e-01    3,614865243e-01
       71300000    1,188553125e-01    3,596122563e-01
       71375000    1,202666387e-01    3,577103615e-01
       71450000    1,223569959e-01    3,534194529e-01
       71525000    1,250756234e-01    3,508487940e-01
       71600000    1,288506836e-01    3,479725122e-01
       71675000    1,292292029e-01    3,448670506e-01
       71750000    1,316193044e-01    3,420112729e-01
       71825000    1,330625713e-01    3,380655050e-01
       71900000    1,354066133e-01    3,344458938e-01
       71975000    1,370883286e-01    3,324096799e-01
       72050000    1,396257132e-01    3,299078643e-01
       72125000    1,402913332e-01    3,263591826e-01
       72200000    1,406947672e-01    3,238765597e-01
       72275000    1,408735663e-01    3,207763731e-01
       72350000    1,413996816e-01    3,182804286e-01
       72425000    1,425140500e-01    3,150846660e-01
       72500000    1,428170949e-01    3,123351932e-01
       72575000    1,441200376e-01    3,104902804e-01
       72650000    1,462993175e-01    3,105629086e-01
       72725000    1,455793381e-01    3,071695268e-01
       72800000    1,469364464e-01    3,054378033e-01
       72875000    1,473269165e-01    3,048394918e-01
       72950000    1,482465416e-01    3,027851880e-01
       73025000    1,492247581e-01    3,012111187e-01
       73100000    1,492981166e-01    3,012016118e-01
       73175000    1,517247260e-01    2,987643182e-01
       73250000    1,529014409e-01    2,997431755e-01
       73325000    1,542235911e-01    2,972163558e-01
       73400000    1,549382657e-01    2,965778708e-01
       73475000    1,568271667e-01    2,954640388e-01
       73550000    1,563272476e-01    2,945166826e-01
       73625000    1,573799253e-01    2,936731577e-01
       73700000    1,586703360e-01    2,908466458e-01
       73775000    1,603594273e-01    2,898244858e-01
       73850000    1,624010801e-01    2,888813019e-01
       73925000    1,642367691e-01    2,890170515e-01
       74000000    1,651956737e-01    2,889704108e-01
       74075000    1,666932702e-01    2,868649065e-01
       74150000    1,687593758e-01    2,845231593e-01
       74225000    1,695067436e-01    2,830362618e-01
       74300000    1,716160178e-01    2,826085687e-01
       74375000    1,732634306e-01    2,820617557e-01
       74450000    1,734739095e-01    2,826117873e-01
       74525000    1,753770411e-01    2,790312767e-01
       74600000    1,768298149e-01    2,780488729e-01
       74675000    1,792191863e-01    2,773329914e-01
       74750000    1,806225777e-01    2,752172053e-01
       74825000    1,828824282e-01    2,755762935e-01
       74900000    1,841281950e-01    2,743574977e-01
       74975000    1,838509291e-01    2,730002701e-01
       75050000    1,864317358e-01    2,700760961e-01
       75125000    1,876104027e-01    2,693543434e-01
       75200000    1,894473284e-01    2,680357695e-01
       75275000    1,902550012e-01    2,673753798e-01
       75350000    1,924140751e-01    2,666210830e-01
       75425000    1,934801638e-01    2,660237253e-01
       75500000    1,956845671e-01    2,653859556e-01
       75575000    1,960478574e-01    2,637545764e-01
       75650000    1,975437999e-01    2,629190981e-01
       75725000    1,988608986e-01    2,611665726e-01
       75800000    2,004564703e-01    2,612282336e-01
       75875000    2,013582140e-01    2,594861686e-01
       75950000    2,024740279e-01    2,591494918e-01
       76025000    2,049291581e-01    2,574847937e-01
       76100000    2,061867118e-01    2,571733892e-01
       76175000    2,071537822e-01    2,561168671e-01
       76250000    2,074744403e-01    2,546700835e-01
       76325000    2,090973854e-01    2,537516356e-01
       76400000    2,098952532e-01    2,527450621e-01
       76475000    2,124077380e-01    2,512758374e-01
       76550000    2,135187387e-01    2,500024140e-01
       76625000    2,143527865e-01    2,486177385e-01
       76700000    2,154438943e-01    2,482327670e-01
       76775000    2,168090940e-01    2,483963072e-01
       76850000    2,191380113e-01    2,460651845e-01
       76925000    2,193838656e-01    2,468115538e-01
       77000000    2,216319293e-01    2,456784695e-01
       77075000    2,232868224e-01    2,446839064e-01
       77150000    2,236198038e-01    2,428825796e-01
       77225000    2,250467837e-01    2,410784513e-01
       77300000    2,259398997e-01    2,412413806e-01
       77375000    2,279174477e-01    2,411496341e-01
       77450000    2,291914970e-01    2,403206825e-01
       77525000    2,302819937e-01    2,390575856e-01
       77600000    2,312072515e-01    2,390725464e-01
       77675000    2,322563678e-01    2,383272499e-01
       77750000    2,323079109e-01    2,384858876e-01
       77825000    2,341750264e-01    2,374991030e-01
       77900000    2,347296625e-01    2,376650721e-01
       77975000    2,356405258e-01    2,363830805e-01
       78050000    2,376626432e-01    2,362413704e-01
       78125000    2,374088615e-01    2,367046028e-01
       78200000    2,375883907e-01    2,367238998e-01
       78275000    2,398634255e-01    2,387807667e-01
       78350000    2,408320308e-01    2,380660325e-01
       78425000    2,425784618e-01    2,389556170e-01
       78500000    2,451245934e-01    2,397109121e-01
       78575000    2,484245747e-01    2,392919213e-01
       78650000    2,504585683e-01    2,391883880e-01
       78725000    2,522926331e-01    2,397176027e-01
       78800000    2,555384338e-01    2,393915206e-01
       78875000    2,574171722e-01    2,392595261e-01
       78950000    2,600347102e-01    2,390049845e-01
       79025000    2,621652782e-01    2,386472821e-01
       79100000    2,640697360e-01    2,396938354e-01
       79175000    2,662583590e-01    2,383401245e-01
       79250000    2,683559358e-01    2,386320084e-01
       79325000    2,720862925e-01    2,378165573e-01
       79400000    2,743056715e-01    2,374980003e-01
       79475000    2,756138742e-01    2,380003184e-01
       79550000    2,778965831e-01    2,368647158e-01
       79625000    2,805763483e-01    2,367900014e-01
       79700000    2,840116620e-01    2,376632094e-01
       79775000    2,854501009e-01    2,365611792e-01
       79850000    2,881830335e-01    2,356541455e-01
       79925000    2,914756536e-01    2,354687303e-01
       80000000    2,946184576e-01    2,355586737e-01
       80075000    2,964110374e-01    2,340431809e-01
       80150000    2,999964952e-01    2,353910804e-01
       80225000    3,018065095e-01    2,346799225e-01
       80300000    3,041493297e-01    2,346630692e-01
       80375000    3,079234064e-01    2,330892533e-01
       80450000    3,111879528e-01    2,329757810e-01
       80525000    3,146521449e-01    2,327846140e-01
       80600000    3,171474040e-01    2,328172475e-01
       80675000    3,200897574e-01    2,327603400e-01
       80750000    3,233339190e-01    2,311942875e-01
       80825000    3,268898427e-01    2,304136306e-01
       80900000    3,306857049e-01    2,308335155e-01
       80975000    3,336023390e-01    2,283292860e-01
       81050000    3,370485008e-01    2,275186926e-01
       81125000    3,412674367e-01    2,271461934e-01
       81200000    3,444835246e-01    2,253691405e-01
       81275000    3,480268717e-01    2,262139171e-01
       81350000    3,516423404e-01    2,245303392e-01
       81425000    3,544216454e-01    2,224798054e-01
       81500000    3,578030765e-01    2,206367701e-01
       81575000    3,613213003e-01    2,206790298e-01
       81650000    3,655189872e-01    2,203207165e-01
       81725000    3,694131970e-01    2,174776495e-01
       81800000    3,728599846e-01    2,161154598e-01
       81875000    3,760097027e-01    2,150368989e-01
       81950000    3,792217672e-01    2,131883800e-01
       82025000    3,829091191e-01    2,122570723e-01
       82100000    3,870815635e-01    2,097513676e-01
       82175000    3,902004957e-01    2,083902359e-01
       82250000    3,944094777e-01    2,058630437e-01
       82325000    3,986626565e-01    2,047900259e-01
       82400000    4,031066597e-01    2,022442371e-01
       82475000    4,055602849e-01    1,996179372e-01
       82550000    4,100775421e-01    1,991073638e-01
       82625000    4,134643674e-01    1,957797259e-01
       82700000    4,176313281e-01    1,939963549e-01
       82775000    4,204886258e-01    1,906654686e-01
       82850000    4,245317876e-01    1,882654876e-01
       82925000    4,284130037e-01    1,851800531e-01
       83000000    4,323414564e-01    1,842329055e-01
       83075000    4,355035424e-01    1,798820645e-01
       83150000    4,395810664e-01    1,791121662e-01
       83225000    4,427574873e-01    1,738708019e-01
       83300000    4,471874237e-01    1,715832651e-01
       83375000    4,511979222e-01    1,688458771e-01
       83450000    4,537837207e-01    1,659445465e-01
       83525000    4,577103257e-01    1,630440354e-01
       83600000    4,612889588e-01    1,590966284e-01
       83675000    4,652884007e-01    1,557854116e-01
       83750000    4,684243798e-01    1,511427164e-01
       83825000    4,712336361e-01    1,482757926e-01
       83900000    4,752587080e-01    1,455467343e-01
       83975000    4,785951376e-01    1,412183046e-01
       84050000    4,812388122e-01    1,373061240e-01
       84125000    4,847725034e-01    1,329445988e-01
       84200000    4,872529209e-01    1,288525462e-01
       84275000    4,904053509e-01    1,250563860e-01
       84350000    4,934571683e-01    1,206122562e-01
       84425000    4,963892698e-01    1,171771735e-01
       84500000    4,996745288e-01    1,120427847e-01
       84575000    5,019605160e-01    1,090058461e-01
       84650000    5,056654811e-01    1,057814285e-01
       84725000    5,080219507e-01    9,954568744e-02
       84800000    5,105376244e-01    9,592255205e-02
       84875000    5,130925775e-01    9,017371386e-02
       84950000    5,146292448e-01    8,635938168e-02
       85025000    5,174986720e-01    8,130057901e-02
       85100000    5,207514167e-01    7,674683630e-02
       85175000    5,222740769e-01    7,093091309e-02
       85250000    5,243167877e-01    6,766121835e-02
       85325000    5,265262723e-01    6,244141236e-02
       85400000    5,270119309e-01    5,702131987e-02
       85475000    5,299187899e-01    5,242133141e-02
       85550000    5,315072536e-01    4,711170867e-02
       85625000    5,321703553e-01    4,074380174e-02
       85700000    5,335139632e-01    3,690128401e-02
       85775000    5,352585912e-01    3,220876679e-02
       85850000    5,368120074e-01    2,628256381e-02
       85925000    5,365273356e-01    2,065620385e-02
       86000000    5,375206470e-01    1,673965156e-02
       86075000    5,392746329e-01    1,076664310e-02
       86150000    5,395754576e-01    7,996551692e-03
       86225000    5,393411517e-01    1,516799210e-03
       86300000    5,401424766e-01   -3,276813077e-03
       86375000    5,406777263e-01   -8,372788318e-03
       86450000    5,408779979e-01   -1,315536536e-02
       86525000    5,408499241e-01   -1,789286733e-02
       86600000    5,408993959e-01   -2,324410155e-02
       86675000    5,399160385e-01   -2,866452560e-02
       86750000    5,403998494e-01   -3,250681981e-02
       86825000    5,392957926e-01   -3,753923997e-02
       86900000    5,404113531e-01   -4,124834016e-02
       86975000    5,395536423e-01   -4,613056034e-02
       87050000    5,378161669e-01   -5,180018768e-02
       87125000    5,373789668e-01   -5,478522554e-02
       87200000    5,365872383e-01   -5,991278961e-02
       87275000    5,349098444e-01   -6,332916766e-02
       87350000    5,357109904e-01   -6,698868424e-02
       87425000    5,354732275e-01   -7,200515270e-02
       87500000    5,328917503e-01   -7,363132387e-02
       87575000    5,339907408e-01   -7,849411666e-02
       87650000    5,313907266e-01   -8,187343180e-02
       87725000    5,302852988e-01   -8,642783016e-02
       87800000    5,285953879e-01   -9,123589844e-02
       87875000    5,288257003e-01   -9,384908527e-02
       87950000    5,271455646e-01   -9,727185220e-02
       88025000    5,277431607e-01   -1,017755717e-01
       88100000    5,250070095e-01   -1,036596447e-01
       88175000    5,251342654e-01   -1,083795130e-01
       88250000    5,226767063e-01   -1,128642559e-01
       88325000    5,209162235e-01   -1,151417717e-01
       88400000    5,213357806e-01   -1,177474931e-01
       88475000    5,191698670e-01   -1,212572753e-01
       88550000    5,171908140e-01   -1,255367845e-01
       88625000    5,180976987e-01   -1,299485415e-01
       88700000    5,142374635e-01   -1,330948770e-01
       88775000    5,138759613e-01   -1,346839815e-01
       88850000    5,126944184e-01   -1,393489689e-01
       88925000    5,121256113e-01   -1,422873735e-01
       89000000    5,085980296e-01   -1,442807317e-01
       89075000    5,076234341e-01   -1,476309150e-01
       89150000    5,040321350e-01   -1,499956846e-01
       89225000    5,018491745e-01   -1,523161381e-01
       89300000    4,985386729e-01   -1,554418802e-01
       89375000    4,975138009e-01   -1,576354802e-01
       89450000    4,937781692e-01   -1,605652422e-01
       89525000    4,937200248e-01   -1,611120552e-01
       89600000    4,906857312e-01   -1,632880270e-01
       89675000    4,881086349e-01   -1,658125073e-01
       89750000    4,857295454e-01   -1,645045131e-01
       89825000    4,836662114e-01   -1,668662131e-01
       89900000    4,810718894e-01   -1,683475524e-01
       89975000    4,786536992e-01   -1,671663970e-01
       90050000    4,776969254e-01   -1,688376069e-01
       90125000    4,755428433e-01   -1,668581665e-01
       90200000    4,745262563e-01   -1,669208705e-01
       90275000    4,733984768e-01   -1,675090343e-01
       90350000    4,719008505e-01   -1,670037061e-01
       90425000    4,719495773e-01   -1,635937393e-01
       90500000    4,703997076e-01   -1,641356945e-01
       90575000    4,718850255e-01   -1,641973406e-01
       90650000    4,711856544e-01   -1,632072926e-01
       90725000    4,704049528e-01   -1,629841477e-01
       90800000    4,720817506e-01   -1,617828608e-01
       90875000    4,734849334e-01   -1,618677974e-01
       90950000    4,755757451e-01   -1,599521786e-01
       91025000    4,764200747e-01   -1,610406637e-01
       91100000    4,786554575e-01   -1,581413001e-01
       91175000    4,809041619e-01   -1,587570906e-01
       91250000    4,814473391e-01   -1,592129469e-01
       91325000    4,841021895e-01   -1,590570658e-01
       91400000    4,848531783e-01   -1,617903709e-01
       91475000    4,906321764e-01   -1,609228551e-01
       91550000    4,922203422e-01   -1,629762948e-01
       91625000    4,960329235e-01   -1,625300795e-01
       91700000    4,987867773e-01   -1,648804545e-01
       91775000    5,016545057e-01   -1,653297991e-01
       91850000    5,050902367e-01   -1,686511338e-01
       91925000    5,073214769e-01   -1,686764956e-01
