! NanoVNA-App
! Date: 2025-08-09 13:34:36
! Start: 65MHz Stop: 95MHz Points: 401
! S-Parameter data: F S11
# Hz S RI R 50
!     Frequency           S11_Real           S11_Imag
       65000000    6,296398044e-01    5,666302145e-02
       65075000    6,322559118e-01    5,530012026e-02
       65150000    6,301485300e-01    5,087047815e-02
       65225000    6,301959157e-01    4,876838624e-02
       65300000    6,289643645e-01    4,428663477e-02
       65375000    6,272171736e-01    3,878087550e-02
       65450000    6,262506247e-01    3,678745776e-02
       65525000    6,249067783e-01    3,269262984e-02
       65600000    6,250055432e-01    2,831385471e-02
       65675000    6,232340932e-01    2,617897838e-02
       65750000    6,229503155e-01    2,239746973e-02
       65825000    6,209484339e-01    1,891566813e-02
       65900000    6,209033132e-01    1,622656360e-02
       65975000    6,188032627e-01    1,086454280e-02
       66050000    6,199204326e-01    9,350430220e-03
       66125000    6,183056831e-01    4,247734789e-03
       66200000    6,171860695e-01    2,562245587e-03
       66275000    6,154710650e-01   -2,723752055e-03
       66350000    6,156743169e-01   -4,987642635e-03
       66425000    6,129477024e-01   -9,035178460e-03
       66500000    6,133797169e-01   -1,195684448e-02
       66575000    6,122809649e-01   -1,495321468e-02
       66650000    6,125233769e-01   -1,855249330e-02
       66725000    6,114415526e-01   -2,247483283e-02
       66800000    6,110107899e-01   -2,391606569e-02
       66875000    6,098006368e-01   -2,895931900e-02
       66950000    6,092089415e-01   -3,060277924e-02
       67025000    6,093150973e-01   -3,382208571e-02
       67100000    6,081926227e-01   -3,776519001e-02
       67175000    6,072028279e-01   -4,147019610e-02
       67250000    6,070777178e-01   -4,452967644e-02
       67325000    6,062330008e-01   -4,790225998e-02
       67400000    6,044602990e-01   -5,212515593e-02
       67475000    6,050615311e-01   -5,512386933e-02
       67550000    6,045143008e-01   -5,672108755e-02
       67625000    6,032970548e-01   -6,152726337e-02
       67700000    6,031927466e-01   -6,501491368e-02
       67775000    6,017324924e-01   -6,906805933e-02
       67850000    6,002472043e-01   -7,213887572e-02
       67925000    6,006565094e-01   -7,589135319e-02
       68000000    5,994197130e-01   -7,932248712e-02
       68075000    5,989152789e-01   -8,308660239e-02
       68150000    5,966570973e-01   -8,811786771e-02
       68225000    5,965570211e-01   -9,015570581e-02
       68300000    5,963905454e-01   -9,426273406e-02
       68375000    5,942758918e-01   -9,745541215e-02
       68450000    5,929402113e-01   -1,016422585e-01
       68525000    5,911244750e-01   -1,046072245e-01
       68600000    5,893579721e-01   -1,082308516e-01
       68675000    5,886902213e-01   -1,128031984e-01
       68750000    5,891197920e-01   -1,149822176e-01
       68825000    5,868300796e-01   -1,199276000e-01
       68900000    5,844802260e-01   -1,213323623e-01
       68975000    5,825923681e-01   -1,273243874e-01
       69050000    5,811695457e-01   -1,286387295e-01
       69125000    5,797394514e-01   -1,328681111e-01
       69200000    5,780658722e-01   -1,356358677e-01
       69275000    5,760164857e-01   -1,398286670e-01
       69350000    5,740385652e-01   -1,413655728e-01
       69425000    5,724828839e-01   -1,457342058e-01
       69500000    5,706560612e-01   -1,470196992e-01
       69575000    5,684953332e-01   -1,509335488e-01
       69650000    5,660230517e-01   -1,527869850e-01
       69725000    5,638642311e-01   -1,562249213e-01
       69800000    5,608710051e-01   -1,585868001e-01
       69875000    5,600633025e-01   -1,616206616e-01
       69950000    5,569990873e-01   -1,653672308e-01
       70025000    5,563248396e-01   -1,647806764e-01
       70100000    5,538293719e-01   -1,687383503e-01
       70175000    5,509166718e-01   -1,724792421e-01
       70250000    5,482755899e-01   -1,728208959e-01
       70325000    5,458996892e-01   -1,753911227e-01
       70400000    5,443764925e-01   -1,771696210e-01
       70475000    5,424051285e-01   -1,797116101e-01
       70550000    5,394159555e-01   -1,827894598e-01
       70625000    5,394320488e-01   -1,825925112e-01
       70700000    5,357373953e-01   -1,855254769e-01
       70775000    5,336477757e-01   -1,877719164e-01
       70850000    5,328699946e-01   -1,882450432e-01
       70925000    5,311728120e-01   -1,896301210e-01
       71000000    5,283448696e-01   -1,904225498e-01
       71075000    5,282446146e-01   -1,933456808e-01
       71150000    5,260068178e-01   -1,944399178e-01
       71225000    5,244737267e-01   -1,970241070e-01
       71300000    5,210063457e-01   -1,981623322e-01
       71375000    5,220522881e-01   -1,992350221e-01
       71450000    5,183247328e-01   -2,011307180e-01
       71525000    5,186891556e-01   -2,009195983e-01
       71600000    5,174664259e-01   -2,037013322e-01
       71675000    5,146035552e-01   -2,053811699e-01
       71750000    5,124473572e-01   -2,063160390e-01
       71825000    5,121598840e-01   -2,078332305e-01
       71900000    5,097411275e-01   -2,100441307e-01
       71975000    5,083439946e-01   -2,106579244e-01
       72050000    5,069599152e-01   -2,134928852e-01
       72125000    5,066468120e-01   -2,145426869e-01
       72200000    5,043032765e-01   -2,143846005e-01
       72275000    5,035306811e-01   -2,170269638e-01
       72350000    5,007712245e-01   -2,179885954e-01
       72425000    4,997360706e-01   -2,190700322e-01
       72500000    4,988373220e-01   -2,186144590e-01
       72575000    4,957000315e-01   -2,211905122e-01
       72650000    4,962530732e-01   -2,242546231e-01
       72725000    4,927973449e-01   -2,238287926e-01
       72800000    4,928227365e-01   -2,246766388e-01
       72875000    4,900022745e-01   -2,261396050e-01
       72950000    4,899097979e-01   -2,269949019e-01
       73025000    4,887507260e-01   -2,273253053e-01
       73100000    4,893090725e-01   -2,296528071e-01
       73175000    4,856688678e-01   -2,304398566e-01
       73250000    4,868602157e-01   -2,308573872e-01
       73325000    4,857681990e-01   -2,324530929e-01
       73400000    4,822810292e-01   -2,350120544e-01
       73475000    4,821007252e-01   -2,348211557e-01
       73550000    4,817994833e-01   -2,366282940e-01
       73625000    4,812259972e-01   -2,360966057e-01
       73700000    4,801204205e-01   -2,369266748e-01
       73775000    4,795354307e-01   -2,372472882e-01
       73850000    4,783804417e-01   -2,390833646e-01
       73925000    4,751069248e-01   -2,421837896e-01
       74000000    4,765432775e-01   -2,410275489e-01
       74075000    4,759554267e-01   -2,444673926e-01
       74150000    4,740197062e-01   -2,423603535e-01
       74225000    4,732181430e-01   -2,434752434e-01
       74300000    4,732978642e-01   -2,451235801e-01
       74375000    4,705622196e-01   -2,462383807e-01
       74450000    4,714553356e-01   -2,479368597e-01
       74525000    4,720765352e-01   -2,498452663e-01
       74600000    4,702408612e-01   -2,495480627e-01
       74675000    4,701363444e-01   -2,505891919e-01
       74750000    4,675379395e-01   -2,508434355e-01
       74825000    4,665363431e-01   -2,526450753e-01
       74900000    4,640439153e-01   -2,559322715e-01
       74975000    4,656977654e-01   -2,551300526e-01
       75050000    4,662747383e-01   -2,561784387e-01
       75125000    4,639612436e-01   -2,560479343e-01
       75200000    4,643634856e-01   -2,580457330e-01
       75275000    4,617555141e-01   -2,584623098e-01
       75350000    4,606779218e-01   -2,595000863e-01
       75425000    4,587525725e-01   -2,607353628e-01
       75500000    4,603390992e-01   -2,614381909e-01
       75575000    4,575154185e-01   -2,630705535e-01
       75650000    4,571217597e-01   -2,633327544e-01
       75725000    4,556360543e-01   -2,655102611e-01
       75800000    4,570416808e-01   -2,651383281e-01
       75875000    4,534715414e-01   -2,675143480e-01
       75950000    4,554127753e-01   -2,671389878e-01
       76025000    4,542870224e-01   -2,668697238e-01
       76100000    4,521730840e-01   -2,683374882e-01
       76175000    4,537107348e-01   -2,688515186e-01
       76250000    4,521616697e-01   -2,700403929e-01
       76325000    4,521366358e-01   -2,715095282e-01
       76400000    4,507944286e-01   -2,734147906e-01
       76475000    4,511677027e-01   -2,710999250e-01
       76550000    4,511689544e-01   -2,724278867e-01
       76625000    4,518891871e-01   -2,743442059e-01
       76700000    4,496633708e-01   -2,736815512e-01
       76775000    4,489281774e-01   -2,753569186e-01
       76850000    4,496300817e-01   -2,757200003e-01
       76925000    4,467751384e-01   -2,771790326e-01
       77000000    4,469401538e-01   -2,769155204e-01
       77075000    4,472778141e-01   -2,765968740e-01
       77150000    4,479677677e-01   -2,778676152e-01
       77225000    4,479285777e-01   -2,804930508e-01
       77300000    4,459856749e-01   -2,790003121e-01
       77375000    4,461823404e-01   -2,805782259e-01
       77450000    4,441809952e-01   -2,796818018e-01
       77525000    4,438018799e-01   -2,799843848e-01
       77600000    4,451650083e-01   -2,809666097e-01
       77675000    4,431437552e-01   -2,818215787e-01
       77750000    4,430925846e-01   -2,827110887e-01
       77825000    4,438082278e-01   -2,826595902e-01
       77900000    4,410518706e-01   -2,849011123e-01
       77975000    4,428416193e-01   -2,837348580e-01
       78050000    4,436871409e-01   -2,826993763e-01
       78125000    4,412362874e-01   -2,848744690e-01
       78200000    4,424197078e-01   -2,844179571e-01
       78275000    4,431397319e-01   -2,837174237e-01
       78350000    4,438004792e-01   -2,859732807e-01
       78425000    4,451700747e-01   -2,854132056e-01
       78500000    4,473074973e-01   -2,849272490e-01
       78575000    4,493660331e-01   -2,864744365e-01
       78650000    4,502398968e-01   -2,861119807e-01
       78725000    4,477841556e-01   -2,886549532e-01
       78800000    4,501859248e-01   -2,903793454e-01
       78875000    4,510170817e-01   -2,895406783e-01
       78950000    4,517605305e-01   -2,912920415e-01
       79025000    4,500138164e-01   -2,910778522e-01
       79100000    4,516964555e-01   -2,922509611e-01
       79175000    4,518328607e-01   -2,964642644e-01
       79250000    4,529156983e-01   -2,957904935e-01
       79325000    4,539688230e-01   -2,967593968e-01
       79400000    4,550906122e-01   -2,965529263e-01
       79475000    4,554839730e-01   -2,983497083e-01
       79550000    4,550168514e-01   -3,016270697e-01
       79625000    4,572963715e-01   -3,013827205e-01
       79700000    4,576267898e-01   -3,022367954e-01
       79775000    4,561991692e-01   -3,022512197e-01
       79850000    4,581995308e-01   -3,057133555e-01
       79925000    4,597935677e-01   -3,052075803e-01
       80000000    4,566637278e-01   -3,046869636e-01
       80075000    4,619745612e-01   -3,092741966e-01
       80150000    4,621129632e-01   -3,110692799e-01
       80225000    4,587482512e-01   -3,136225045e-01
       80300000    4,626340568e-01   -3,140671551e-01
       80375000    4,632559121e-01   -3,176133335e-01
       80450000    4,648237228e-01   -3,153655231e-01
       80525000    4,677621126e-01   -3,181850910e-01
       80600000    4,669417143e-01   -3,188001812e-01
       80675000    4,686492085e-01   -3,204278648e-01
       80750000    4,634527862e-01   -3,242944777e-01
       80825000    4,704675078e-01   -3,248166740e-01
       80900000    4,719277918e-01   -3,277346492e-01
       80975000    4,694659412e-01   -3,311430514e-01
       81050000    4,729649723e-01   -3,317105770e-01
       81125000    4,738861322e-01   -3,352988958e-01
       81200000    4,740566015e-01   -3,354173601e-01
       81275000    4,753078520e-01   -3,388109505e-01
       81350000    4,756486714e-01   -3,385690451e-01
       81425000    4,750084281e-01   -3,428948522e-01
       81500000    4,752033651e-01   -3,459442258e-01
       81575000    4,768935442e-01   -3,469228745e-01
       81650000    4,779703021e-01   -3,483895063e-01
       81725000    4,796868265e-01   -3,534553647e-01
       81800000    4,795853794e-01   -3,534934521e-01
       81875000    4,797583520e-01   -3,557558060e-01
       81950000    4,789738059e-01   -3,576866090e-01
       82025000    4,809573591e-01   -3,607966304e-01
       82100000    4,788318872e-01   -3,657700419e-01
       82175000    4,796177447e-01   -3,668206334e-01
       82250000    4,794793129e-01   -3,709895611e-01
       82325000    4,838238060e-01   -3,723314404e-01
       82400000    4,841441810e-01   -3,767633140e-01
       82475000    4,838765264e-01   -3,761973679e-01
       82550000    4,842335284e-01   -3,796577454e-01
       82625000    4,839359522e-01   -3,808421493e-01
       82700000    4,853956997e-01   -3,850232065e-01
       82775000    4,827151597e-01   -3,873126805e-01
       82850000    4,838223755e-01   -3,911214173e-01
       82925000    4,843344390e-01   -3,931326568e-01
       83000000    4,856010973e-01   -3,966392577e-01
       83075000    4,843284786e-01   -4,015198350e-01
       83150000    4,848008454e-01   -4,033271968e-01
       83225000    4,820100069e-01   -4,074448645e-01
       83300000    4,853880107e-01   -4,102392793e-01
       83375000    4,830290079e-01   -4,145192504e-01
       83450000    4,874276817e-01   -4,164394438e-01
       83525000    4,871301651e-01   -4,197796881e-01
       83600000    4,846745729e-01   -4,213576019e-01
       83675000    4,832484424e-01   -4,272691011e-01
       83750000    4,828823507e-01   -4,333246350e-01
       83825000    4,863966703e-01   -4,332222044e-01
       83900000    4,852799773e-01   -4,374701083e-01
       83975000    4,819758534e-01   -4,374814630e-01
       84050000    4,811132848e-01   -4,423759878e-01
       84125000    4,788911343e-01   -4,468630850e-01
       84200000    4,814533889e-01   -4,499711692e-01
       84275000    4,802632034e-01   -4,515141845e-01
       84350000    4,781434834e-01   -4,541125000e-01
       84425000    4,778291881e-01   -4,581505656e-01
       84500000    4,741887152e-01   -4,623265564e-01
       84575000    4,760943651e-01   -4,680112600e-01
       84650000    4,764447808e-01   -4,692719579e-01
       84725000    4,719773233e-01   -4,724552929e-01
       84800000    4,719356000e-01   -4,756994247e-01
       84875000    4,681023955e-01   -4,795164764e-01
       84950000    4,714842737e-01   -4,839533567e-01
       85025000    4,673186243e-01   -4,878050387e-01
       85100000    4,683203101e-01   -4,913281202e-01
       85175000    4,653753042e-01   -4,910057187e-01
       85250000    4,638272822e-01   -4,945524335e-01
       85325000    4,613489509e-01   -5,020781755e-01
       85400000    4,609398842e-01   -5,044069290e-01
       85475000    4,590030015e-01   -5,096772909e-01
       85550000    4,527644217e-01   -5,104599595e-01
       85625000    4,537912309e-01   -5,095428824e-01
       85700000    4,529115260e-01   -5,143666267e-01
       85775000    4,513536990e-01   -5,217819810e-01
       85850000    4,470956624e-01   -5,189313293e-01
       85925000    4,485828876e-01   -5,239688754e-01
       86000000    4,461578131e-01   -5,281783938e-01
       86075000    4,432387650e-01   -5,281969309e-01
       86150000    4,401146770e-01   -5,333895683e-01
       86225000    4,385378659e-01   -5,346159935e-01
       86300000    4,372866154e-01   -5,416110158e-01
       86375000    4,324463308e-01   -5,451379418e-01
       86450000    4,312834144e-01   -5,448619127e-01
       86525000    4,267869890e-01   -5,456829071e-01
       86600000    4,249621928e-01   -5,522011518e-01
       86675000    4,256323576e-01   -5,504927039e-01
       86750000    4,228200316e-01   -5,542684793e-01
       86825000    4,192215204e-01   -5,601558089e-01
       86900000    4,122115970e-01   -5,560968518e-01
       86975000    4,099547565e-01   -5,571364164e-01
       87050000    4,111042619e-01   -5,629669428e-01
       87125000    4,095268548e-01   -5,615878701e-01
       87200000    4,033191204e-01   -5,625934005e-01
       87275000    4,028657675e-01   -5,684148073e-01
       87350000    4,014418721e-01   -5,680585504e-01
       87425000    3,965248168e-01   -5,680320263e-01
       87500000    3,927809596e-01   -5,685678720e-01
       87575000    3,905646205e-01   -5,713788867e-01
       87650000    3,914628029e-01   -5,740467906e-01
       87725000    3,856246173e-01   -5,856224895e-01
       87800000    3,869036138e-01   -5,809953213e-01
       87875000    3,853206635e-01   -5,832310915e-01
       87950000    3,745882213e-01   -5,812400579e-01
       88025000    3,775373101e-01   -5,803305507e-01
       88100000    3,750484884e-01   -5,839225650e-01
       88175000    3,721428216e-01   -5,896946192e-01
       88250000    3,712655306e-01   -5,893573761e-01
       88325000    3,671244383e-01   -5,887582898e-01
       88400000    3,627801538e-01   -5,892502069e-01
       88475000    3,608258367e-01   -5,908628702e-01
       88550000    3,558046520e-01   -5,947592258e-01
       88625000    3,600248098e-01   -5,932117701e-01
       88700000    3,541179299e-01   -5,963261127e-01
       88775000    3,537033796e-01   -5,954586864e-01
       88850000    3,474239409e-01   -6,008027792e-01
       88925000    3,479292691e-01   -5,968728065e-01
       89000000    3,464044034e-01   -5,992887020e-01
       89075000    3,406248093e-01   -5,966714621e-01
       89150000    3,397132456e-01   -5,994148850e-01
       89225000    3,330985010e-01   -6,014110446e-01
       89300000    3,339669406e-01   -6,019905806e-01
       89375000    3,270201087e-01   -6,030204892e-01
       89450000    3,273349404e-01   -6,022893786e-01
       89525000    3,283962607e-01   -6,009386182e-01
       89600000    3,238220215e-01   -5,981451273e-01
       89675000    3,241608739e-01   -6,028534770e-01
       89750000    3,218316436e-01   -6,022233963e-01
       89825000    3,168798685e-01   -6,042426229e-01
       89900000    3,184258342e-01   -6,027786732e-01
       89975000    3,138474524e-01   -6,036332250e-01
       90050000    3,151012063e-01   -5,989608765e-01
       90125000    3,126023412e-01   -5,975035429e-01
       90200000    3,075155020e-01   -5,971553326e-01
       90275000    3,120369315e-01   -5,974918008e-01
       90350000    3,097713888e-01   -5,992289186e-01
       90425000    3,054351807e-01   -5,948121548e-01
       90500000    3,078480363e-01   -5,946513414e-01
       90575000    3,083475828e-01   -5,997034907e-01
       90650000    3,058852255e-01   -5,925707817e-01
       90725000    3,078884482e-01   -5,972002149e-01
       90800000    3,068780005e-01   -6,002575159e-01
       90875000    3,104265332e-01   -5,965591669e-01
       90950000    3,108468950e-01   -5,977972150e-01
       91025000    3,095756471e-01   -5,947926044e-01
       91100000    3,114630282e-01   -5,976429582e-01
       91175000    3,075771630e-01   -5,957917571e-01
       91250000    3,105343282e-01   -5,981062651e-01
       91325000    3,084298670e-01   -5,986665487e-01
       91400000    3,110246658e-01   -6,022785306e-01
       91475000    3,104274273e-01   -6,067244411e-01
       91550000    3,132080734e-01   -6,072145700e-01
       91625000    3,132359684e-01   -6,106196642e-01
       91700000    3,149189353e-01   -6,097056866e-01
       91775000    3,153578937e-01   -6,120642424e-01
       91850000    3,153432906e-01   -6,119027734e-01
       91925000    3,148694336e-01   -6,141260266e-01
