! NanoVNA-App
! Date: 2025-08-02 16:22:02
! Start: 65MHz Stop: 95MHz Points: 401
! S-Parameter data: F S11
# Hz S RI R 50
!     Frequency           S11_Real           S11_Imag
       65000000   -5,650676489e-01   -6,968260556e-02
       65075000   -5,661782622e-01   -7,053600252e-02
       65150000   -5,628181696e-01   -6,610775739e-02
       65225000   -5,583447814e-01   -6,123099849e-02
       65300000   -5,522353053e-01   -5,695875362e-02
       65375000   -5,483220816e-01   -5,311686918e-02
       65450000   -5,431559682e-01   -4,872469231e-02
       65525000   -5,377555490e-01   -4,496122897e-02
       65600000   -5,333788991e-01   -4,096503556e-02
       65675000   -5,278650522e-01   -3,762173280e-02
       65750000   -5,237514377e-01   -3,512514010e-02
       65825000   -5,184157491e-01   -3,064142354e-02
       65900000   -5,135607123e-01   -2,805981040e-02
       65975000   -5,085976124e-01   -2,533873543e-02
       66050000   -5,029060245e-01   -2,292755805e-02
       66125000   -4,977850020e-01   -2,015775628e-02
       66200000   -4,938762784e-01   -1,757353730e-02
       66275000   -4,874005318e-01   -1,548808813e-02
       66350000   -4,830765426e-01   -1,327791158e-02
       66425000   -4,790625274e-01   -1,032695733e-02
       66500000   -4,740167856e-01   -8,524756879e-03
       66575000   -4,697432220e-01   -6,971787661e-03
       66650000   -4,651199281e-01   -5,711701699e-03
       66725000   -4,628994465e-01   -7,665701210e-03
       66800000   -4,549927115e-01   -2,026984235e-03
       66875000   -4,515167475e-01   -1,409177057e-04
       66950000   -4,461229742e-01    1,880476368e-03
       67025000   -4,415020049e-01    3,591025714e-03
       67100000   -4,373996854e-01    5,436701700e-03
       67175000   -4,324552119e-01    8,287794888e-03
       67250000   -4,261781573e-01    8,666643873e-03
       67325000   -4,222257733e-01    1,037589367e-02
       67400000   -4,165220261e-01    1,253954507e-02
       67475000   -4,107280672e-01    1,337418146e-02
       67550000   -4,055038989e-01    1,430502906e-02
       67625000   -4,002599120e-01    1,481114980e-02
       67700000   -3,949977756e-01    1,482635457e-02
       67775000   -3,890616894e-01    1,456310879e-02
       67850000   -3,838360608e-01    1,428836584e-02
       67925000   -3,797233701e-01    1,419160422e-02
       68000000   -3,745964468e-01    1,389667299e-02
       68075000   -3,702810705e-01    1,282540243e-02
       68150000   -3,660432100e-01    1,293368451e-02
       68225000   -3,615102768e-01    1,169746462e-02
       68300000   -3,575965464e-01    1,121530402e-02
       68375000   -3,527773023e-01    1,078466512e-02
       68450000   -3,492779136e-01    9,755572304e-03
       68525000   -3,445899785e-01    8,886053227e-03
       68600000   -3,413697183e-01    8,336036466e-03
       68675000   -3,371479809e-01    6,899517030e-03
       68750000   -3,332000077e-01    4,517489113e-03
       68825000   -3,292552531e-01    3,600026481e-03
       68900000   -3,254609406e-01    1,747166854e-03
       68975000   -3,230089843e-01    1,779126324e-04
       69050000   -3,189196587e-01   -1,370364917e-03
       69125000   -3,173132539e-01   -3,064324381e-03
       69200000   -3,138650656e-01   -4,608561751e-03
       69275000   -3,120301962e-01   -5,919643678e-03
       69350000   -3,083675206e-01   -7,518035360e-03
       69425000   -3,068293333e-01   -9,290502407e-03
       69500000   -3,040570915e-01   -1,079184655e-02
       69575000   -3,028447032e-01   -1,191695873e-02
       69650000   -3,008337021e-01   -1,343094558e-02
       69725000   -2,983571887e-01   -1,555924863e-02
       69800000   -2,967286110e-01   -1,642371714e-02
       69875000   -2,958458960e-01   -1,822272129e-02
       69950000   -2,940056324e-01   -1,898802631e-02
       70025000   -2,921461761e-01   -2,026319318e-02
       70100000   -2,909330130e-01   -2,140076458e-02
       70175000   -2,895585597e-01   -2,217390575e-02
       70250000   -2,883121669e-01   -2,315338701e-02
       70325000   -2,873535454e-01   -2,451080270e-02
       70400000   -2,855454683e-01   -2,513321303e-02
       70475000   -2,852312624e-01   -2,552482113e-02
       70550000   -2,832558155e-01   -2,578869648e-02
       70625000   -2,810965776e-01   -2,784622833e-02
       70700000   -2,802458405e-01   -2,750932425e-02
       70775000   -2,791633904e-01   -2,753707767e-02
       70850000   -2,785867155e-01   -2,897452936e-02
       70925000   -2,767731547e-01   -2,974906377e-02
       71000000   -2,753230631e-01   -2,991713956e-02
       71075000   -2,742239535e-01   -3,088122234e-02
       71150000   -2,726625204e-01   -3,135897592e-02
       71225000   -2,712690532e-01   -3,180977702e-02
       71300000   -2,697549164e-01   -3,269089013e-02
       71375000   -2,685831785e-01   -3,258450702e-02
       71450000   -2,670855522e-01   -3,319670632e-02
       71525000   -2,663422823e-01   -3,503833711e-02
       71600000   -2,646714747e-01   -3,547564149e-02
       71675000   -2,636516690e-01   -3,561580181e-02
       71750000   -2,624869943e-01   -3,676230460e-02
       71825000   -2,614747286e-01   -3,708877787e-02
       71900000   -2,593801618e-01   -3,797708824e-02
       71975000   -2,591725886e-01   -3,901223093e-02
       72050000   -2,582963109e-01   -4,031266645e-02
       72125000   -2,569074631e-01   -3,972205520e-02
       72200000   -2,560162246e-01   -4,151931033e-02
       72275000   -2,559995353e-01   -4,226546362e-02
       72350000   -2,539377809e-01   -4,372690991e-02
       72425000   -2,544543445e-01   -4,420530796e-02
       72500000   -2,540329099e-01   -4,505099356e-02
       72575000   -2,530451417e-01   -4,634927958e-02
       72650000   -2,528092563e-01   -4,626150802e-02
       72725000   -2,534246147e-01   -4,815330356e-02
       72800000   -2,526247501e-01   -4,887746647e-02
       72875000   -2,516463399e-01   -4,987199605e-02
       72950000   -2,528811693e-01   -4,984080419e-02
       73025000   -2,523633242e-01   -5,088028684e-02
       73100000   -2,519501746e-01   -5,102685466e-02
       73175000   -2,519518733e-01   -5,104993284e-02
       73250000   -2,519861460e-01   -5,252081156e-02
       73325000   -2,516374290e-01   -5,271977559e-02
       73400000   -2,525779605e-01   -5,204483867e-02
       73475000   -2,519260049e-01   -5,413080379e-02
       73550000   -2,525959313e-01   -5,326310918e-02
       73625000   -2,533181012e-01   -5,264953151e-02
       73700000   -2,525819838e-01   -5,349124223e-02
       73775000   -2,526762187e-01   -5,412670970e-02
       73850000   -2,533919811e-01   -5,298087746e-02
       73925000   -2,529431880e-01   -5,349694937e-02
       74000000   -2,538061142e-01   -5,376495048e-02
       74075000   -2,540166080e-01   -5,231538787e-02
       74150000   -2,543987334e-01   -5,303550884e-02
       74225000   -2,542245984e-01   -5,370114744e-02
       74300000   -2,546589375e-01   -5,175727606e-02
       74375000   -2,549432218e-01   -5,186598003e-02
       74450000   -2,559702396e-01   -5,228755251e-02
       74525000   -2,556712329e-01   -5,058636889e-02
       74600000   -2,557607293e-01   -4,984050617e-02
       74675000   -2,568828166e-01   -5,035027117e-02
       74750000   -2,555412352e-01   -5,041123182e-02
       74825000   -2,564630806e-01   -4,813179746e-02
       74900000   -2,568632364e-01   -4,909779876e-02
       74975000   -2,569026053e-01   -4,807951301e-02
       75050000   -2,560658157e-01   -4,611297324e-02
       75125000   -2,574402094e-01   -4,697987065e-02
       75200000   -2,580049932e-01   -4,585767910e-02
       75275000   -2,568051517e-01   -4,396998882e-02
       75350000   -2,582558393e-01   -4,402001947e-02
       75425000   -2,578495741e-01   -4,414565861e-02
       75500000   -2,569310963e-01   -4,191855341e-02
       75575000   -2,580943704e-01   -4,205419123e-02
       75650000   -2,586379051e-01   -4,080116004e-02
       75725000   -2,573541105e-01   -4,038340226e-02
       75800000   -2,593892515e-01   -3,923641890e-02
       75875000   -2,587805986e-01   -3,830942139e-02
       75950000   -2,586608827e-01   -3,734882176e-02
       76025000   -2,595783472e-01   -3,610698506e-02
       76100000   -2,591030300e-01   -3,515214846e-02
       76175000   -2,596604824e-01   -3,452631459e-02
       76250000   -2,596541047e-01   -3,313254938e-02
       76325000   -2,605924010e-01   -3,191998601e-02
       76400000   -2,594448328e-01   -3,170520812e-02
       76475000   -2,609117627e-01   -2,942827903e-02
       76550000   -2,612536848e-01   -2,835315466e-02
       76625000   -2,601814866e-01   -2,765204385e-02
       76700000   -2,609677911e-01   -2,536459267e-02
       76775000   -2,621287704e-01   -2,424127422e-02
       76850000   -2,609691918e-01   -2,340532653e-02
       76925000   -2,619484961e-01   -2,191467769e-02
       77000000   -2,622423768e-01   -1,975516230e-02
       77075000   -2,621971071e-01   -1,809668541e-02
       77150000   -2,626636028e-01   -1,637190580e-02
       77225000   -2,629054785e-01   -1,497070212e-02
       77300000   -2,634730339e-01   -1,331254002e-02
       77375000   -2,634624541e-01   -1,116397977e-02
       77450000   -2,638513744e-01   -8,472885005e-03
       77525000   -2,638843954e-01   -7,095491514e-03
       77600000   -2,636775970e-01   -4,318242893e-03
       77675000   -2,642861307e-01   -2,059961902e-03
       77750000   -2,633848488e-01   -1,285240287e-04
       77825000   -2,635838985e-01    1,798893441e-03
       77900000   -2,636354566e-01    4,986257758e-03
       77975000   -2,630941570e-01    7,235467434e-03
       78050000   -2,629640996e-01    9,083943442e-03
       78125000   -2,625418007e-01    1,233426668e-02
       78200000   -2,621677816e-01    1,556914020e-02
       78275000   -2,617238462e-01    1,792558469e-02
       78350000   -2,605925202e-01    2,011167072e-02
       78425000   -2,605727613e-01    2,319314703e-02
       78500000   -2,599830329e-01    2,582894452e-02
       78575000   -2,581734657e-01    2,925944701e-02
       78650000   -2,576017380e-01    3,251120821e-02
       78725000   -2,574545443e-01    3,453095257e-02
       78800000   -2,550997436e-01    3,683883697e-02
       78875000   -2,543545067e-01    4,130444676e-02
       78950000   -2,527485490e-01    4,368925467e-02
       79025000   -2,510892153e-01    4,736658931e-02
       79100000   -2,493380755e-01    4,998673499e-02
       79175000   -2,488719821e-01    5,302645266e-02
       79250000   -2,459887266e-01    5,645377561e-02
       79325000   -2,432912290e-01    5,903838202e-02
       79400000   -2,424855679e-01    6,217379496e-02
       79475000   -2,393014878e-01    6,469856203e-02
       79550000   -2,377992570e-01    6,764768064e-02
       79625000   -2,357030362e-01    7,056657970e-02
       79700000   -2,327697277e-01    7,301059365e-02
       79775000   -2,299879044e-01    7,548177987e-02
       79850000   -2,276757210e-01    7,827298343e-02
       79925000   -2,249367088e-01    8,077158034e-02
       80000000   -2,225728482e-01    8,391654491e-02
       80075000   -2,191073895e-01    8,554037660e-02
       80150000   -2,160062194e-01    8,757061511e-02
       80225000   -2,138917297e-01    9,095050395e-02
       80300000   -2,097364366e-01    9,247659147e-02
       80375000   -2,069156021e-01    9,497676790e-02
       80450000   -2,037612200e-01    9,683384001e-02
       80525000   -2,003157288e-01    9,794736654e-02
       80600000   -1,973772198e-01    9,991832823e-02
       80675000   -1,944441348e-01    1,028385162e-01
       80750000   -1,904211044e-01    1,035082787e-01
       80825000   -1,873481721e-01    1,053476632e-01
       80900000   -1,837578714e-01    1,066883653e-01
       80975000   -1,801410019e-01    1,074476168e-01
       81050000   -1,766436100e-01    1,094270200e-01
       81125000   -1,732974052e-01    1,105429828e-01
       81200000   -1,700587422e-01    1,110399738e-01
       81275000   -1,664735526e-01    1,118648648e-01
       81350000   -1,625419557e-01    1,126060188e-01
       81425000   -1,590057462e-01    1,130168736e-01
       81500000   -1,558017582e-01    1,137425154e-01
       81575000   -1,527080834e-01    1,139488593e-01
       81650000   -1,496198922e-01    1,141214669e-01
       81725000   -1,465097368e-01    1,150372103e-01
       81800000   -1,428844631e-01    1,150120869e-01
       81875000   -1,400918216e-01    1,150780171e-01
       81950000   -1,375754923e-01    1,147374734e-01
       82025000   -1,340677589e-01    1,145431474e-01
       82100000   -1,316550523e-01    1,150753126e-01
       82175000   -1,290988475e-01    1,141798869e-01
       82250000   -1,261601448e-01    1,143676266e-01
       82325000   -1,229187250e-01    1,148639023e-01
       82400000   -1,214585006e-01    1,141245365e-01
       82475000   -1,190977246e-01    1,141397133e-01
       82550000   -1,172710136e-01    1,148601472e-01
       82625000   -1,153585240e-01    1,149402633e-01
       82700000   -1,133114100e-01    1,153707579e-01
       82775000   -1,103477925e-01    1,158044860e-01
       82850000   -1,087469980e-01    1,155863702e-01
       82925000   -1,072495505e-01    1,159633473e-01
       83000000   -1,043341309e-01    1,158993691e-01
       83075000   -1,032187864e-01    1,166745722e-01
       83150000   -1,008729935e-01    1,174326390e-01
       83225000   -9,810620546e-02    1,177869886e-01
       83300000   -9,728058428e-02    1,183276027e-01
       83375000   -9,454353154e-02    1,188860387e-01
       83450000   -9,228999168e-02    1,190148741e-01
       83525000   -8,982173353e-02    1,200024113e-01
       83600000   -8,772114664e-02    1,209373772e-01
       83675000   -8,586236089e-02    1,210066304e-01
       83750000   -8,424348384e-02    1,226781309e-01
       83825000   -8,090104908e-02    1,228583604e-01
       83900000   -7,942103595e-02    1,233789250e-01
       83975000   -7,597815990e-02    1,247322410e-01
       84050000   -7,464336604e-02    1,262329966e-01
       84125000   -7,208561897e-02    1,266084909e-01
       84200000   -6,929852813e-02    1,271695942e-01
       84275000   -6,666085124e-02    1,278457791e-01
       84350000   -6,440534443e-02    1,283614188e-01
       84425000   -6,179338321e-02    1,300119162e-01
       84500000   -5,953193456e-02    1,312888116e-01
       84575000   -5,671033636e-02    1,311911047e-01
       84650000   -5,420751125e-02    1,318598688e-01
       84725000   -5,110034719e-02    1,333159357e-01
       84800000   -4,849912599e-02    1,340727061e-01
       84875000   -4,594188929e-02    1,347419024e-01
       84950000   -4,250525683e-02    1,351747513e-01
       85025000   -4,109116271e-02    1,366629750e-01
       85100000   -3,736431152e-02    1,377068907e-01
       85175000   -3,453060985e-02    1,379109621e-01
       85250000   -3,199052066e-02    1,390692294e-01
       85325000   -2,837000415e-02    1,406741291e-01
       85400000   -2,548871376e-02    1,418822259e-01
       85475000   -2,266727202e-02    1,421834677e-01
       85550000   -1,939167082e-02    1,438384354e-01
       85625000   -1,551136281e-02    1,439199001e-01
       85700000   -1,262123790e-02    1,454166621e-01
       85775000   -9,387812577e-03    1,464210302e-01
       85850000   -4,708589986e-03    1,478128880e-01
       85925000   -2,081210027e-03    1,476753354e-01
       86000000    1,831270289e-03    1,495316476e-01
       86075000    6,679513026e-03    1,501788348e-01
       86150000    1,041108649e-02    1,504969597e-01
       86225000    1,342207100e-02    1,518023461e-01
       86300000    1,888306811e-02    1,526607275e-01
       86375000    2,205957100e-02    1,526087672e-01
       86450000    2,698636614e-02    1,536146253e-01
       86525000    3,133383393e-02    1,533322632e-01
       86600000    3,585109115e-02    1,535448879e-01
       86675000    4,006090015e-02    1,544212103e-01
       86750000    4,491740465e-02    1,542908698e-01
       86825000    4,922963679e-02    1,542415172e-01
       86900000    5,404204875e-02    1,543321609e-01
       86975000    5,854636431e-02    1,543907374e-01
       87050000    6,318944693e-02    1,535916477e-01
       87125000    6,736411154e-02    1,533163041e-01
       87200000    7,278943062e-02    1,527828574e-01
       87275000    7,734748721e-02    1,517892182e-01
       87350000    8,158991486e-02    1,514801085e-01
       87425000    8,685420454e-02    1,503479481e-01
       87500000    9,131439775e-02    1,515003592e-01
       87575000    9,671235085e-02    1,487242579e-01
       87650000    1,007067412e-01    1,482684463e-01
       87725000    1,062237844e-01    1,474750191e-01
       87800000    1,107720882e-01    1,452928334e-01
       87875000    1,155537665e-01    1,450936794e-01
       87950000    1,202713475e-01    1,434651017e-01
       88025000    1,249679253e-01    1,415789574e-01
       88100000    1,293556839e-01    1,402938813e-01
       88175000    1,346786022e-01    1,390331239e-01
       88250000    1,388705522e-01    1,372558624e-01
       88325000    1,434165686e-01    1,354920566e-01
       88400000    1,490010023e-01    1,343343556e-01
       88475000    1,531092674e-01    1,315563917e-01
       88550000    1,587024182e-01    1,307442933e-01
       88625000    1,627102643e-01    1,290154606e-01
       88700000    1,672058254e-01    1,262254715e-01
       88775000    1,721577793e-01    1,247684583e-01
       88850000    1,767339855e-01    1,226824895e-01
       88925000    1,815549880e-01    1,200865284e-01
       89000000    1,861295998e-01    1,178694218e-01
       89075000    1,912449598e-01    1,157358140e-01
       89150000    1,959091425e-01    1,128257737e-01
       89225000    2,008719742e-01    1,106327027e-01
       89300000    2,058369517e-01    1,085453331e-01
       89375000    2,109857649e-01    1,049829796e-01
       89450000    2,159050852e-01    1,018576846e-01
       89525000    2,208776176e-01    9,948789328e-02
       89600000    2,251998037e-01    9,658825397e-02
       89675000    2,298549861e-01    9,310325980e-02
       89750000    2,347501069e-01    9,048023075e-02
       89825000    2,402838916e-01    8,668877929e-02
       89900000    2,446344346e-01    8,309112489e-02
       89975000    2,499968112e-01    7,997890562e-02
       90050000    2,538532615e-01    7,533691078e-02
       90125000    2,586744726e-01    7,158624381e-02
       90200000    2,642047107e-01    6,759571284e-02
       90275000    2,685864270e-01    6,285890192e-02
       90350000    2,716628909e-01    5,912245438e-02
       90425000    2,839131355e-01    5,464028567e-02
       90500000    2,817748785e-01    5,025657266e-02
       90575000    2,868999541e-01    4,591603205e-02
       90650000    2,910751402e-01    4,035748169e-02
       90725000    2,952455580e-01    3,625435010e-02
       90800000    2,999874651e-01    3,095027618e-02
       90875000    3,034917712e-01    2,561282739e-02
       90950000    3,081259727e-01    2,041105554e-02
       91025000    3,110917509e-01    1,499823947e-02
       91100000    3,153278232e-01    8,807533421e-03
       91175000    3,200949132e-01    2,771756146e-03
       91250000    3,232933879e-01   -2,837975277e-03
       91325000    3,262489140e-01   -9,804521687e-03
       91400000    3,298186362e-01   -1,463538501e-02
       91475000    3,328746259e-01   -2,134634554e-02
       91550000    3,348190188e-01   -2,726493776e-02
       91625000    3,387902379e-01   -3,404273465e-02
       91700000    3,404807448e-01   -3,963638470e-02
       91775000    3,436303437e-01   -4,711250961e-02
       91850000    3,446589112e-01   -5,318357795e-02
       91925000    3,476942480e-01   -6,019239500e-02
