! NanoVNA-App
! Date: 2025-08-02 15:41:37
! Start: 65MHz Stop: 95MHz Points: 401
! S-Parameter data: F S11
# Hz S RI R 50
!     Frequency           S11_Real           S11_Imag
       65000000    2,798038125e-01    1,840688139e-01
       65075000    2,864395380e-01    1,832688898e-01
       65150000    2,895816565e-01    1,738211066e-01
       65225000    2,927123904e-01    1,687856168e-01
       65300000    2,977172434e-01    1,629483104e-01
       65375000    2,997052670e-01    1,561043113e-01
       65450000    3,018463850e-01    1,508041173e-01
       65525000    3,050672710e-01    1,443175822e-01
       65600000    3,067221344e-01    1,368529797e-01
       65675000    3,087467253e-01    1,314349473e-01
       65750000    3,106933236e-01    1,233243197e-01
       65825000    3,107274771e-01    1,173256561e-01
       65900000    3,135900795e-01    1,097459197e-01
       65975000    3,137590885e-01    1,051177382e-01
       66050000    3,151580095e-01    9,828611463e-02
       66125000    3,159495592e-01    9,328329563e-02
       66200000    3,155827224e-01    8,763738722e-02
       66275000    3,177401125e-01    8,109265566e-02
       66350000    3,173847198e-01    7,563908398e-02
       66425000    3,177036345e-01    7,167027891e-02
       66500000    3,191566169e-01    6,531282514e-02
       66575000    3,183641136e-01    6,084123626e-02
       66650000    3,196038604e-01    5,492728949e-02
       66725000    3,192126751e-01    5,113765970e-02
       66800000    3,215353787e-01    4,674765840e-02
       66875000    3,203489482e-01    4,181382060e-02
       66950000    3,227446377e-01    3,716667742e-02
       67025000    3,230521977e-01    3,257139772e-02
       67100000    3,225225210e-01    2,696497366e-02
       67175000    3,236379325e-01    2,237345278e-02
       67250000    3,253125250e-01    1,656314731e-02
       67325000    3,256909549e-01    1,055152807e-02
       67400000    3,258337379e-01    6,900208071e-03
       67475000    3,262225688e-01    5,045947037e-04
       67550000    3,255616426e-01   -5,792796612e-03
       67625000    3,258782029e-01   -9,718080051e-03
       67700000    3,257412016e-01   -1,747282408e-02
       67775000    3,242923617e-01   -2,017724700e-02
       67850000    3,250056505e-01   -2,542223781e-02
       67925000    3,226191103e-01   -3,287508339e-02
       68000000    3,225828707e-01   -3,615605459e-02
       68075000    3,219069242e-01   -4,262636602e-02
       68150000    3,210313916e-01   -4,611550272e-02
       68225000    3,204036355e-01   -4,969379306e-02
       68300000    3,174222410e-01   -5,446799845e-02
       68375000    3,173650205e-01   -6,095387042e-02
       68450000    3,145802021e-01   -6,533201039e-02
       68525000    3,142778575e-01   -6,925843656e-02
       68600000    3,107313216e-01   -7,543741167e-02
       68675000    3,114413917e-01   -7,926373184e-02
       68750000    3,083529472e-01   -8,550115675e-02
       68825000    3,069077730e-01   -8,713223040e-02
       68900000    3,053631783e-01   -9,273815155e-02
       68975000    3,025414646e-01   -9,491405636e-02
       69050000    3,003514111e-01   -1,007799059e-01
       69125000    2,976304889e-01   -1,025246531e-01
       69200000    2,955429554e-01   -1,066527143e-01
       69275000    2,923238277e-01   -1,087995097e-01
       69350000    2,903028131e-01   -1,129428074e-01
       69425000    2,871997952e-01   -1,141320467e-01
       69500000    2,852851152e-01   -1,185730770e-01
       69575000    2,829365432e-01   -1,195057482e-01
       69650000    2,805559635e-01   -1,233901456e-01
       69725000    2,767036259e-01   -1,236828268e-01
       69800000    2,753010690e-01   -1,271591038e-01
       69875000    2,722620070e-01   -1,280515343e-01
       69950000    2,709901333e-01   -1,329167634e-01
       70025000    2,678203583e-01   -1,338169277e-01
       70100000    2,656216323e-01   -1,378427893e-01
       70175000    2,650496364e-01   -1,367062926e-01
       70250000    2,621595263e-01   -1,392380446e-01
       70325000    2,602106631e-01   -1,388244480e-01
       70400000    2,590108812e-01   -1,418710053e-01
       70475000    2,545480430e-01   -1,438463926e-01
       70550000    2,557076812e-01   -1,450701952e-01
       70625000    2,548332810e-01   -1,472628415e-01
       70700000    2,496688217e-01   -1,490783989e-01
       70775000    2,511986494e-01   -1,509639919e-01
       70850000    2,472566217e-01   -1,510655880e-01
       70925000    2,481056899e-01   -1,518991590e-01
       71000000    2,480594516e-01   -1,542774886e-01
       71075000    2,436955422e-01   -1,549308449e-01
       71150000    2,439295501e-01   -1,565518081e-01
       71225000    2,418602556e-01   -1,597246379e-01
       71300000    2,381796092e-01   -1,626830548e-01
       71375000    2,395459712e-01   -1,631148756e-01
       71450000    2,384291738e-01   -1,628160328e-01
       71525000    2,382655889e-01   -1,657825857e-01
       71600000    2,318360955e-01   -1,676903367e-01
       71675000    2,347556800e-01   -1,673748940e-01
       71750000    2,335432023e-01   -1,710559428e-01
       71825000    2,307986021e-01   -1,692184061e-01
       71900000    2,300802469e-01   -1,729486138e-01
       71975000    2,289860696e-01   -1,759853065e-01
       72050000    2,234303057e-01   -1,748524308e-01
       72125000    2,249322236e-01   -1,778724045e-01
       72200000    2,224685848e-01   -1,809272617e-01
       72275000    2,220223546e-01   -1,793122143e-01
       72350000    2,193889469e-01   -1,832516342e-01
       72425000    2,185229361e-01   -1,831738800e-01
       72500000    2,161680907e-01   -1,860622317e-01
       72575000    2,146043777e-01   -1,831512004e-01
       72650000    2,122356743e-01   -1,855732054e-01
       72725000    2,103944570e-01   -1,888198853e-01
       72800000    2,095042318e-01   -1,861620545e-01
       72875000    2,066995800e-01   -1,896906048e-01
       72950000    2,063747793e-01   -1,876762807e-01
       73025000    2,037087679e-01   -1,882378459e-01
       73100000    2,013882995e-01   -1,893310994e-01
       73175000    1,990822256e-01   -1,914133281e-01
       73250000    1,993169338e-01   -1,871933788e-01
       73325000    1,975979358e-01   -1,897177547e-01
       73400000    1,967369616e-01   -1,918132007e-01
       73475000    1,956084371e-01   -1,889420897e-01
       73550000    1,930047274e-01   -1,906184703e-01
       73625000    1,910214275e-01   -1,888216436e-01
       73700000    1,903175861e-01   -1,898465157e-01
       73775000    1,864504665e-01   -1,898613572e-01
       73850000    1,868127137e-01   -1,919564009e-01
       73925000    1,860878170e-01   -1,929214448e-01
       74000000    1,863065958e-01   -1,908238977e-01
       74075000    1,842389703e-01   -1,913117915e-01
       74150000    1,807641685e-01   -1,908282936e-01
       74225000    1,801761389e-01   -1,884587109e-01
       74300000    1,796304882e-01   -1,900576800e-01
       74375000    1,771414727e-01   -1,900892556e-01
       74450000    1,809375435e-01   -1,895105243e-01
       74525000    1,773670912e-01   -1,910969913e-01
       74600000    1,779137403e-01   -1,893591285e-01
       74675000    1,780791730e-01   -1,890462488e-01
       74750000    1,749017090e-01   -1,862036437e-01
       74825000    1,735790074e-01   -1,884826869e-01
       74900000    1,731650084e-01   -1,891393065e-01
       74975000    1,737927198e-01   -1,887051761e-01
       75050000    1,718799621e-01   -1,894458979e-01
       75125000    1,741471887e-01   -1,888374090e-01
       75200000    1,712361723e-01   -1,896667182e-01
       75275000    1,717918068e-01   -1,872912496e-01
       75350000    1,710657179e-01   -1,894502491e-01
       75425000    1,681338400e-01   -1,843717843e-01
       75500000    1,685943007e-01   -1,857454777e-01
       75575000    1,690608710e-01   -1,848287284e-01
       75650000    1,682969034e-01   -1,844402105e-01
       75725000    1,664361805e-01   -1,829114854e-01
       75800000    1,669687033e-01   -1,858178824e-01
       75875000    1,664379239e-01   -1,828005761e-01
       75950000    1,661444306e-01   -1,834115237e-01
       76025000    1,662039608e-01   -1,853794456e-01
       76100000    1,669976413e-01   -1,820677817e-01
       76175000    1,661189646e-01   -1,829268932e-01
       76250000    1,652432233e-01   -1,804261059e-01
       76325000    1,656045467e-01   -1,818141490e-01
       76400000    1,635745466e-01   -1,787862778e-01
       76475000    1,650502533e-01   -1,823420227e-01
       76550000    1,631198078e-01   -1,802596897e-01
       76625000    1,626341939e-01   -1,774004996e-01
       76700000    1,636135578e-01   -1,795847416e-01
       76775000    1,644392759e-01   -1,785668135e-01
       76850000    1,612049341e-01   -1,760871410e-01
       76925000    1,649311036e-01   -1,767639071e-01
       77000000    1,633609384e-01   -1,780689955e-01
       77075000    1,621699184e-01   -1,763520688e-01
       77150000    1,620711535e-01   -1,728735566e-01
       77225000    1,641855538e-01   -1,718109697e-01
       77300000    1,648297310e-01   -1,711384654e-01
       77375000    1,640469134e-01   -1,687339693e-01
       77450000    1,649271548e-01   -1,699429154e-01
       77525000    1,654452085e-01   -1,681578755e-01
       77600000    1,651649773e-01   -1,657799631e-01
       77675000    1,669325829e-01   -1,667220592e-01
       77750000    1,667176038e-01   -1,663267761e-01
       77825000    1,702844352e-01   -1,622641236e-01
       77900000    1,699675471e-01   -1,637979448e-01
       77975000    1,717429310e-01   -1,643576622e-01
       78050000    1,741516888e-01   -1,587926447e-01
       78125000    1,733294278e-01   -1,606671065e-01
       78200000    1,745631397e-01   -1,612192392e-01
       78275000    1,770177782e-01   -1,567562521e-01
       78350000    1,784086823e-01   -1,585260183e-01
       78425000    1,805469543e-01   -1,566978991e-01
       78500000    1,808581948e-01   -1,557137668e-01
       78575000    1,857987195e-01   -1,554352343e-01
       78650000    1,874610782e-01   -1,568396240e-01
       78725000    1,877049357e-01   -1,536352783e-01
       78800000    1,912383288e-01   -1,548817605e-01
       78875000    1,934662759e-01   -1,567153484e-01
       78950000    1,977787316e-01   -1,543337852e-01
       79025000    1,991720051e-01   -1,555080712e-01
       79100000    2,018357962e-01   -1,535191536e-01
       79175000    2,036662847e-01   -1,548277289e-01
       79250000    2,038070858e-01   -1,544357240e-01
       79325000    2,092781812e-01   -1,570533514e-01
       79400000    2,092840075e-01   -1,589082628e-01
       79475000    2,143402547e-01   -1,563093364e-01
       79550000    2,147090882e-01   -1,575855315e-01
       79625000    2,159777582e-01   -1,564945877e-01
       79700000    2,205875069e-01   -1,606949270e-01
       79775000    2,213777304e-01   -1,633321047e-01
       79850000    2,245908678e-01   -1,607116461e-01
       79925000    2,272311747e-01   -1,641129255e-01
       80000000    2,269778103e-01   -1,688793600e-01
       80075000    2,303533852e-01   -1,636179686e-01
       80150000    2,330719084e-01   -1,683517545e-01
       80225000    2,358196378e-01   -1,711847186e-01
       80300000    2,397743464e-01   -1,696655601e-01
       80375000    2,405610979e-01   -1,733839512e-01
       80450000    2,393609881e-01   -1,739957929e-01
       80525000    2,432084531e-01   -1,768272072e-01
       80600000    2,449813485e-01   -1,780489534e-01
       80675000    2,479369789e-01   -1,811322570e-01
       80750000    2,486499548e-01   -1,850653738e-01
       80825000    2,501283884e-01   -1,829640120e-01
       80900000    2,528425455e-01   -1,872939169e-01
       80975000    2,543650866e-01   -1,916865408e-01
       81050000    2,572205663e-01   -1,899440587e-01
       81125000    2,579902112e-01   -1,958273798e-01
       81200000    2,590924501e-01   -1,949328631e-01
       81275000    2,606320083e-01   -2,000834942e-01
       81350000    2,606141567e-01   -1,993200779e-01
       81425000    2,611753047e-01   -2,053640485e-01
       81500000    2,600333393e-01   -2,084628344e-01
       81575000    2,626342475e-01   -2,103921175e-01
       81650000    2,641638219e-01   -2,127097398e-01
       81725000    2,646406591e-01   -2,175198793e-01
       81800000    2,644886076e-01   -2,157233804e-01
       81875000    2,651405931e-01   -2,207178324e-01
       81950000    2,647619545e-01   -2,189067602e-01
       82025000    2,655184269e-01   -2,228156030e-01
       82100000    2,625849843e-01   -2,236587256e-01
       82175000    2,653827965e-01   -2,279831022e-01
       82250000    2,616539299e-01   -2,275412977e-01
       82325000    2,649257183e-01   -2,320684344e-01
       82400000    2,619011700e-01   -2,349079847e-01
       82475000    2,658994794e-01   -2,344020009e-01
       82550000    2,650287449e-01   -2,387229651e-01
       82625000    2,662412226e-01   -2,379553169e-01
       82700000    2,636072040e-01   -2,413101792e-01
       82775000    2,657323182e-01   -2,395730764e-01
       82850000    2,637955248e-01   -2,446644008e-01
       82925000    2,660163343e-01   -2,419469655e-01
       83000000    2,651320994e-01   -2,466954440e-01
       83075000    2,654717267e-01   -2,445083708e-01
       83150000    2,645517290e-01   -2,480519414e-01
       83225000    2,667002082e-01   -2,468303293e-01
       83300000    2,650900781e-01   -2,498615533e-01
       83375000    2,678173184e-01   -2,469525933e-01
       83450000    2,670126855e-01   -2,505618930e-01
       83525000    2,641408443e-01   -2,498697340e-01
       83600000    2,674319148e-01   -2,520999312e-01
       83675000    2,691111565e-01   -2,542702258e-01
       83750000    2,708278596e-01   -2,535650432e-01
       83825000    2,710447311e-01   -2,548530102e-01
       83900000    2,701309621e-01   -2,543652058e-01
       83975000    2,726197243e-01   -2,586781979e-01
       84050000    2,696720958e-01   -2,603859007e-01
       84125000    2,744042873e-01   -2,612724602e-01
       84200000    2,756184042e-01   -2,613406181e-01
       84275000    2,740088999e-01   -2,600003779e-01
       84350000    2,768788636e-01   -2,644448876e-01
       84425000    2,740954459e-01   -2,653858662e-01
       84500000    2,786570191e-01   -2,671698332e-01
       84575000    2,805516720e-01   -2,703468502e-01
       84650000    2,817401588e-01   -2,669864595e-01
       84725000    2,818057835e-01   -2,706342041e-01
       84800000    2,804461420e-01   -2,708687782e-01
       84875000    2,843437791e-01   -2,740315199e-01
       84950000    2,868415117e-01   -2,770523727e-01
       85025000    2,858518660e-01   -2,793408930e-01
       85100000    2,907021046e-01   -2,774108052e-01
       85175000    2,901160419e-01   -2,804416418e-01
       85250000    2,908148766e-01   -2,793622315e-01
       85325000    2,934729159e-01   -2,847602367e-01
       85400000    2,911366820e-01   -2,877224982e-01
       85475000    2,976465523e-01   -2,877380252e-01
       85550000    2,975918651e-01   -2,898162901e-01
       85625000    2,995441854e-01   -2,922044396e-01
       85700000    2,990313470e-01   -2,905024588e-01
       85775000    3,029545248e-01   -2,957574427e-01
       85850000    3,044721186e-01   -2,980499268e-01
       85925000    3,044684529e-01   -3,038247526e-01
       86000000    3,082235754e-01   -3,030162156e-01
       86075000    3,081475496e-01   -3,076502681e-01
       86150000    3,079066277e-01   -3,060374260e-01
       86225000    3,121393025e-01   -3,078945577e-01
       86300000    3,124896288e-01   -3,145588040e-01
       86375000    3,137606084e-01   -3,170582056e-01
       86450000    3,100798428e-01   -3,193384707e-01
       86525000    3,182094395e-01   -3,193106651e-01
       86600000    3,169494271e-01   -3,265256882e-01
       86675000    3,140581250e-01   -3,286521137e-01
       86750000    3,187665641e-01   -3,329592347e-01
       86825000    3,194926381e-01   -3,347781599e-01
       86900000    3,209797144e-01   -3,399649262e-01
       86975000    3,213702738e-01   -3,444747329e-01
       87050000    3,210017979e-01   -3,417200744e-01
       87125000    3,248555362e-01   -3,483571410e-01
       87200000    3,215881884e-01   -3,537929356e-01
       87275000    3,271231055e-01   -3,531644642e-01
       87350000    3,256987929e-01   -3,604205549e-01
       87425000    3,217673600e-01   -3,638547957e-01
       87500000    3,274410963e-01   -3,704072833e-01
       87575000    3,231280744e-01   -3,701060116e-01
       87650000    3,281516135e-01   -3,728607595e-01
       87725000    3,278202415e-01   -3,774948418e-01
       87800000    3,285131752e-01   -3,756490052e-01
       87875000    3,284547329e-01   -3,819405138e-01
       87950000    3,246013522e-01   -3,889230490e-01
       88025000    3,231997788e-01   -3,870515227e-01
       88100000    3,288207948e-01   -3,938431144e-01
       88175000    3,274002373e-01   -3,972762823e-01
       88250000    3,292947114e-01   -3,963616192e-01
       88325000    3,270676732e-01   -4,039038122e-01
       88400000    3,236458302e-01   -4,074671268e-01
       88475000    3,275474608e-01   -4,107265174e-01
       88550000    3,238599598e-01   -4,152422249e-01
       88625000    3,271274269e-01   -4,113504291e-01
       88700000    3,286871016e-01   -4,207105041e-01
       88775000    3,262824714e-01   -4,236367047e-01
       88850000    3,245295882e-01   -4,285660982e-01
       88925000    3,271587193e-01   -4,265848100e-01
       89000000    3,268378377e-01   -4,337762892e-01
       89075000    3,230078220e-01   -4,345203340e-01
       89150000    3,241372108e-01   -4,408175647e-01
       89225000    3,196624815e-01   -4,440378249e-01
       89300000    3,234705031e-01   -4,497294128e-01
       89375000    3,191287816e-01   -4,507727921e-01
       89450000    3,233514428e-01   -4,566360116e-01
       89525000    3,235702515e-01   -4,608113766e-01
       89600000    3,248596489e-01   -4,596633315e-01
       89675000    3,242441714e-01   -4,674601257e-01
       89750000    3,198244870e-01   -4,736420810e-01
       89825000    3,146518171e-01   -4,760936499e-01
       89900000    3,195902109e-01   -4,804258347e-01
       89975000    3,144035041e-01   -4,827965796e-01
       90050000    3,191556036e-01   -4,869528413e-01
       90125000    3,165344596e-01   -4,932518005e-01
       90200000    3,178309202e-01   -4,912393391e-01
       90275000    3,151830733e-01   -4,996912777e-01
       90350000    3,073468506e-01   -5,010435581e-01
       90425000    3,112547696e-01   -5,027663112e-01
       90500000    3,097324669e-01   -5,124370456e-01
       90575000    3,073409200e-01   -5,104044080e-01
       90650000    3,100367785e-01   -5,195318460e-01
       90725000    3,069836497e-01   -5,223844051e-01
       90800000    3,019110560e-01   -5,212702155e-01
       90875000    3,028216362e-01   -5,313316584e-01
       90950000    2,961506248e-01   -5,323040485e-01
       91025000    2,988761365e-01   -5,396641493e-01
       91100000    2,915236950e-01   -5,409363508e-01
       91175000    2,958606482e-01   -5,471894741e-01
       91250000    2,880696356e-01   -5,524655581e-01
       91325000    2,909832597e-01   -5,566613674e-01
       91400000    2,859475017e-01   -5,619807839e-01
       91475000    2,895576656e-01   -5,604633093e-01
       91550000    2,847152352e-01   -5,695208311e-01
       91625000    2,831658721e-01   -5,666930676e-01
       91700000    2,782374322e-01   -5,758204460e-01
       91775000    2,759963274e-01   -5,721982121e-01
       91850000    2,729560137e-01   -5,808284283e-01
       91925000    2,670338154e-01   -5,793519020e-01
