! NanoVNA-App
! Date: 2025-08-09 13:19:47
! Start: 65MHz Stop: 95MHz Points: 401
! S-Parameter data: F S11
# Hz S RI R 50
!     Frequency           S11_Real           S11_Imag
       65000000    6,353998780e-01   -3,764261603e-01
       65075000    6,420915723e-01   -3,774860799e-01
       65150000    6,355636120e-01   -3,777448237e-01
       65225000    6,366294622e-01   -3,806276917e-01
       65300000    6,342319250e-01   -3,820461333e-01
       65375000    6,316013932e-01   -3,837899268e-01
       65450000    6,298789978e-01   -3,852422535e-01
       65525000    6,276141405e-01   -3,874393404e-01
       65600000    6,236628294e-01   -3,878964186e-01
       65675000    6,221289039e-01   -3,900421262e-01
       65750000    6,196933389e-01   -3,924537599e-01
       65825000    6,189153194e-01   -3,925979733e-01
       65900000    6,178177595e-01   -3,954666853e-01
       65975000    6,144427657e-01   -3,970390856e-01
       66050000    6,127068996e-01   -3,990978897e-01
       66125000    6,089620590e-01   -4,014667869e-01
       66200000    6,088153720e-01   -4,015425742e-01
       66275000    6,051439643e-01   -4,031990469e-01
       66350000    6,032652855e-01   -4,061517119e-01
       66425000    6,018568873e-01   -4,059912264e-01
       66500000    6,004101634e-01   -4,087592065e-01
       66575000    5,984069705e-01   -4,096732140e-01
       66650000    5,956227183e-01   -4,114325345e-01
       66725000    5,925688148e-01   -4,136495888e-01
       66800000    5,910053849e-01   -4,134895205e-01
       66875000    5,886410475e-01   -4,158160090e-01
       66950000    5,879164338e-01   -4,171528518e-01
       67025000    5,868030190e-01   -4,188779891e-01
       67100000    5,840283632e-01   -4,224174023e-01
       67175000    5,827896595e-01   -4,215463102e-01
       67250000    5,814802051e-01   -4,235518277e-01
       67325000    5,793838501e-01   -4,251169264e-01
       67400000    5,764573216e-01   -4,265842438e-01
       67475000    5,754308105e-01   -4,295760393e-01
       67550000    5,745541453e-01   -4,317106307e-01
       67625000    5,712589025e-01   -4,316834509e-01
       67700000    5,697805882e-01   -4,332966805e-01
       67775000    5,681232810e-01   -4,379634559e-01
       67850000    5,658621192e-01   -4,384047687e-01
       67925000    5,644685626e-01   -4,407947063e-01
       68000000    5,622128844e-01   -4,418877661e-01
       68075000    5,614280105e-01   -4,432967901e-01
       68150000    5,555897951e-01   -4,454756677e-01
       68225000    5,557461977e-01   -4,478855431e-01
       68300000    5,528388619e-01   -4,519613683e-01
       68375000    5,504159331e-01   -4,519808590e-01
       68450000    5,500478148e-01   -4,533775747e-01
       68525000    5,461228490e-01   -4,544289410e-01
       68600000    5,445775390e-01   -4,568443894e-01
       68675000    5,402957201e-01   -4,582803547e-01
       68750000    5,395072103e-01   -4,589471221e-01
       68825000    5,357158184e-01   -4,630538225e-01
       68900000    5,341201425e-01   -4,637806118e-01
       68975000    5,302311182e-01   -4,661182761e-01
       69050000    5,292091966e-01   -4,668884277e-01
       69125000    5,262826085e-01   -4,697637856e-01
       69200000    5,243549347e-01   -4,700928628e-01
       69275000    5,219352245e-01   -4,724048674e-01
       69350000    5,192429423e-01   -4,726342261e-01
       69425000    5,164462924e-01   -4,747402370e-01
       69500000    5,133576989e-01   -4,748001993e-01
       69575000    5,120043159e-01   -4,764370322e-01
       69650000    5,093759298e-01   -4,764886200e-01
       69725000    5,060710907e-01   -4,776186645e-01
       69800000    5,037142038e-01   -4,784875512e-01
       69875000    5,021411777e-01   -4,787855446e-01
       69950000    4,970007837e-01   -4,809444249e-01
       70025000    4,957295358e-01   -4,797220230e-01
       70100000    4,929269850e-01   -4,823937118e-01
       70175000    4,912227690e-01   -4,839642346e-01
       70250000    4,892273843e-01   -4,819509983e-01
       70325000    4,871174097e-01   -4,835582078e-01
       70400000    4,828552306e-01   -4,829047918e-01
       70475000    4,812919497e-01   -4,844643474e-01
       70550000    4,798256755e-01   -4,862483144e-01
       70625000    4,770615697e-01   -4,847402573e-01
       70700000    4,747366309e-01   -4,862810373e-01
       70775000    4,720591605e-01   -4,875961542e-01
       70850000    4,712494314e-01   -4,868459404e-01
       70925000    4,696794152e-01   -4,865861237e-01
       71000000    4,662876129e-01   -4,860368073e-01
       71075000    4,646279812e-01   -4,874251485e-01
       71150000    4,643557966e-01   -4,877264798e-01
       71225000    4,635545611e-01   -4,895728827e-01
       71300000    4,606914818e-01   -4,887358248e-01
       71375000    4,593800008e-01   -4,890696406e-01
       71450000    4,551519156e-01   -4,910263419e-01
       71525000    4,537050724e-01   -4,912767708e-01
       71600000    4,535603523e-01   -4,915370941e-01
       71675000    4,514006376e-01   -4,910110831e-01
       71750000    4,481026232e-01   -4,921110570e-01
       71825000    4,477750957e-01   -4,912999868e-01
       71900000    4,448986948e-01   -4,932717383e-01
       71975000    4,431660473e-01   -4,925575554e-01
       72050000    4,446255267e-01   -4,933285713e-01
       72125000    4,421193898e-01   -4,943186939e-01
       72200000    4,402522743e-01   -4,933463633e-01
       72275000    4,388898611e-01   -4,935683906e-01
       72350000    4,358596802e-01   -4,947655201e-01
       72425000    4,352957904e-01   -4,953976572e-01
       72500000    4,323437214e-01   -4,985858500e-01
       72575000    4,330190420e-01   -4,932487011e-01
       72650000    4,318137169e-01   -4,987060428e-01
       72725000    4,285937846e-01   -4,972165823e-01
       72800000    4,279053211e-01   -4,967955947e-01
       72875000    4,242797494e-01   -4,980415702e-01
       72950000    4,249370396e-01   -4,984446168e-01
       73025000    4,237227142e-01   -4,976443648e-01
       73100000    4,240916371e-01   -4,992500842e-01
       73175000    4,193304777e-01   -4,998594224e-01
       73250000    4,202601612e-01   -5,005013347e-01
       73325000    4,190529585e-01   -5,014618039e-01
       73400000    4,174873531e-01   -4,996530414e-01
       73475000    4,151040912e-01   -5,000600815e-01
       73550000    4,148540497e-01   -5,022847652e-01
       73625000    4,109767377e-01   -5,037945509e-01
       73700000    4,133513570e-01   -5,044775009e-01
       73775000    4,113968313e-01   -5,051280856e-01
       73850000    4,119122922e-01   -5,034567118e-01
       73925000    4,090211689e-01   -5,032410622e-01
       74000000    4,068105519e-01   -5,039010048e-01
       74075000    4,059059620e-01   -5,057985187e-01
       74150000    4,062689841e-01   -5,059356093e-01
       74225000    4,054162800e-01   -5,077193379e-01
       74300000    4,035840333e-01   -5,057657957e-01
       74375000    4,011774063e-01   -5,056565404e-01
       74450000    4,006948471e-01   -5,107246637e-01
       74525000    4,005954862e-01   -5,091612935e-01
       74600000    3,996145129e-01   -5,109661222e-01
       74675000    3,981574178e-01   -5,085092783e-01
       74750000    3,966563642e-01   -5,100310445e-01
       74825000    3,929143846e-01   -5,108624697e-01
       74900000    3,943657875e-01   -5,123525858e-01
       74975000    3,937731981e-01   -5,114539266e-01
       75050000    3,906018734e-01   -5,109345317e-01
       75125000    3,898763955e-01   -5,115658045e-01
       75200000    3,888355196e-01   -5,123043656e-01
       75275000    3,876819015e-01   -5,121065378e-01
       75350000    3,854891062e-01   -5,128281116e-01
       75425000    3,847545981e-01   -5,154094696e-01
       75500000    3,860171735e-01   -5,152109861e-01
       75575000    3,835226893e-01   -5,145252943e-01
       75650000    3,824211359e-01   -5,156165957e-01
       75725000    3,801728189e-01   -5,155491829e-01
       75800000    3,793182075e-01   -5,163387656e-01
       75875000    3,754603565e-01   -5,172815919e-01
       75950000    3,767535090e-01   -5,175316930e-01
       76025000    3,768461943e-01   -5,174105763e-01
       76100000    3,743461967e-01   -5,190821886e-01
       76175000    3,734584749e-01   -5,201954842e-01
       76250000    3,697676063e-01   -5,216544867e-01
       76325000    3,706886470e-01   -5,207158923e-01
       76400000    3,698607385e-01   -5,232406855e-01
       76475000    3,681931496e-01   -5,194621086e-01
       76550000    3,691842258e-01   -5,209832788e-01
       76625000    3,680908382e-01   -5,220876336e-01
       76700000    3,658567369e-01   -5,204176307e-01
       76775000    3,653310239e-01   -5,238737464e-01
       76850000    3,660553694e-01   -5,218901038e-01
       76925000    3,610980511e-01   -5,247561336e-01
       77000000    3,593631089e-01   -5,224453807e-01
       77075000    3,602392673e-01   -5,211872458e-01
       77150000    3,604030907e-01   -5,231326222e-01
       77225000    3,591938615e-01   -5,245716572e-01
       77300000    3,583131731e-01   -5,235236287e-01
       77375000    3,579701185e-01   -5,235964060e-01
       77450000    3,549813032e-01   -5,223056078e-01
       77525000    3,540655673e-01   -5,221011043e-01
       77600000    3,543184102e-01   -5,246908069e-01
       77675000    3,546236455e-01   -5,245352387e-01
       77750000    3,511599004e-01   -5,224090815e-01
       77825000    3,525241613e-01   -5,251457691e-01
       77900000    3,521892130e-01   -5,248246193e-01
       77975000    3,517954350e-01   -5,229994059e-01
       78050000    3,478251100e-01   -5,237122178e-01
       78125000    3,506584764e-01   -5,236293077e-01
       78200000    3,512795568e-01   -5,213188529e-01
       78275000    3,507733643e-01   -5,249239206e-01
       78350000    3,516612351e-01   -5,214202404e-01
       78425000    3,524424732e-01   -5,225942135e-01
       78500000    3,525650203e-01   -5,239731073e-01
       78575000    3,498019576e-01   -5,234494805e-01
       78650000    3,518093228e-01   -5,247049928e-01
       78725000    3,528003097e-01   -5,274697542e-01
       78800000    3,493737578e-01   -5,283019543e-01
       78875000    3,515239060e-01   -5,284427404e-01
       78950000    3,498623967e-01   -5,309984088e-01
       79025000    3,507344425e-01   -5,292132497e-01
       79100000    3,517949879e-01   -5,279113054e-01
       79175000    3,501806259e-01   -5,322806239e-01
       79250000    3,508753777e-01   -5,314987898e-01
       79325000    3,521345258e-01   -5,321509242e-01
       79400000    3,492459953e-01   -5,302790999e-01
       79475000    3,503624499e-01   -5,339966416e-01
       79550000    3,499168158e-01   -5,364168882e-01
       79625000    3,507816195e-01   -5,357440114e-01
       79700000    3,494165838e-01   -5,348200798e-01
       79775000    3,496955633e-01   -5,369734764e-01
       79850000    3,519096673e-01   -5,390295386e-01
       79925000    3,476908505e-01   -5,401597619e-01
       80000000    3,482419848e-01   -5,424754024e-01
       80075000    3,520608246e-01   -5,400471687e-01
       80150000    3,485595584e-01   -5,398373008e-01
       80225000    3,517355025e-01   -5,438436866e-01
       80300000    3,528051078e-01   -5,481887460e-01
       80375000    3,529217839e-01   -5,452513099e-01
       80450000    3,506384194e-01   -5,444636941e-01
       80525000    3,507501781e-01   -5,457733870e-01
       80600000    3,505484164e-01   -5,477007031e-01
       80675000    3,511181474e-01   -5,504530668e-01
       80750000    3,510700464e-01   -5,530393720e-01
       80825000    3,532942832e-01   -5,549644232e-01
       80900000    3,533875346e-01   -5,549323559e-01
       80975000    3,515805602e-01   -5,579128265e-01
       81050000    3,519067168e-01   -5,590782762e-01
       81125000    3,498624563e-01   -5,630721450e-01
       81200000    3,515474498e-01   -5,626652241e-01
       81275000    3,496519327e-01   -5,658912063e-01
       81350000    3,520112634e-01   -5,635257959e-01
       81425000    3,516621888e-01   -5,685935020e-01
       81500000    3,495221436e-01   -5,726820827e-01
       81575000    3,500197232e-01   -5,724511743e-01
       81650000    3,489015996e-01   -5,715790987e-01
       81725000    3,518129289e-01   -5,735034943e-01
       81800000    3,514984548e-01   -5,746514201e-01
       81875000    3,465113640e-01   -5,777697563e-01
       81950000    3,503040969e-01   -5,804875493e-01
       82025000    3,509178460e-01   -5,835038424e-01
       82100000    3,495349586e-01   -5,832647085e-01
       82175000    3,485906720e-01   -5,854064822e-01
       82250000    3,465823233e-01   -5,921862125e-01
       82325000    3,480054736e-01   -5,897688866e-01
       82400000    3,480028510e-01   -5,936717391e-01
       82475000    3,444874883e-01   -5,942999721e-01
       82550000    3,476702571e-01   -5,977250338e-01
       82625000    3,463088870e-01   -5,996737480e-01
       82700000    3,448896706e-01   -6,007731557e-01
       82775000    3,444882929e-01   -6,032289863e-01
       82850000    3,435955048e-01   -6,063581705e-01
       82925000    3,425292075e-01   -6,075821519e-01
       83000000    3,426831365e-01   -6,108337045e-01
       83075000    3,398186862e-01   -6,112777591e-01
       83150000    3,388587534e-01   -6,171715260e-01
       83225000    3,363900185e-01   -6,204786301e-01
       83300000    3,369069397e-01   -6,208678484e-01
       83375000    3,358166814e-01   -6,254624724e-01
       83450000    3,350487947e-01   -6,230498552e-01
       83525000    3,320246339e-01   -6,256914735e-01
       83600000    3,309000134e-01   -6,276423931e-01
       83675000    3,316264451e-01   -6,343830228e-01
       83750000    3,308109343e-01   -6,361111999e-01
       83825000    3,265305758e-01   -6,341993809e-01
       83900000    3,270950615e-01   -6,374019980e-01
       83975000    3,228017092e-01   -6,423004270e-01
       84050000    3,215646446e-01   -6,464813352e-01
       84125000    3,211999238e-01   -6,466181278e-01
       84200000    3,219663203e-01   -6,472638249e-01
       84275000    3,161356747e-01   -6,492094398e-01
       84350000    3,176464438e-01   -6,507182717e-01
       84425000    3,163153827e-01   -6,530905366e-01
       84500000    3,144218326e-01   -6,544311047e-01
       84575000    3,114309311e-01   -6,603583097e-01
       84650000    3,120766282e-01   -6,624711156e-01
       84725000    3,060798943e-01   -6,616843343e-01
       84800000    3,072899282e-01   -6,639937162e-01
       84875000    3,027150631e-01   -6,659244299e-01
       84950000    2,995793819e-01   -6,693652868e-01
       85025000    3,005419374e-01   -6,692783237e-01
       85100000    2,976787984e-01   -6,739189029e-01
       85175000    2,951473892e-01   -6,794010997e-01
       85250000    2,912495732e-01   -6,809946299e-01
       85325000    2,934258878e-01   -6,804310083e-01
       85400000    2,920927703e-01   -6,832221150e-01
       85475000    2,881771326e-01   -6,818411946e-01
       85550000    2,834949493e-01   -6,851629019e-01
       85625000    2,841014862e-01   -6,873182654e-01
       85700000    2,822957635e-01   -6,881299019e-01
       85775000    2,741227746e-01   -6,940072775e-01
       85850000    2,776955962e-01   -6,918638349e-01
       85925000    2,732117772e-01   -6,976383924e-01
       86000000    2,712230980e-01   -6,981988549e-01
       86075000    2,702717185e-01   -6,997241378e-01
       86150000    2,646839917e-01   -6,997233629e-01
       86225000    2,624149024e-01   -6,998729706e-01
       86300000    2,617202997e-01   -7,053683400e-01
       86375000    2,569626272e-01   -7,074338198e-01
       86450000    2,558217943e-01   -7,081804276e-01
       86525000    2,491016239e-01   -7,079776525e-01
       86600000    2,516475916e-01   -7,088939548e-01
       86675000    2,484569699e-01   -7,093563080e-01
       86750000    2,452996969e-01   -7,090742588e-01
       86825000    2,441076487e-01   -7,115076184e-01
       86900000    2,353712618e-01   -7,146747112e-01
       86975000    2,344285101e-01   -7,155200243e-01
       87050000    2,370458841e-01   -7,167391181e-01
       87125000    2,283329070e-01   -7,152529955e-01
       87200000    2,273602635e-01   -7,152488232e-01
       87275000    2,268205732e-01   -7,204551697e-01
       87350000    2,224527597e-01   -7,184119225e-01
       87425000    2,179570645e-01   -7,208125591e-01
       87500000    2,170173079e-01   -7,194300890e-01
       87575000    2,176520526e-01   -7,239521146e-01
       87650000    2,113499343e-01   -7,230114341e-01
       87725000    2,134051472e-01   -7,217870951e-01
       87800000    2,105673701e-01   -7,238498330e-01
       87875000    2,071697265e-01   -7,217340469e-01
       87950000    2,040018290e-01   -7,260365486e-01
       88025000    1,980069727e-01   -7,252935171e-01
       88100000    1,986253709e-01   -7,266985774e-01
       88175000    1,956045479e-01   -7,229573727e-01
       88250000    1,939664334e-01   -7,239607573e-01
       88325000    1,921466142e-01   -7,299328446e-01
       88400000    1,905177683e-01   -7,273587584e-01
       88475000    1,884213686e-01   -7,268601656e-01
       88550000    1,858848184e-01   -7,269093394e-01
       88625000    1,779271960e-01   -7,317272425e-01
       88700000    1,784730405e-01   -7,259615064e-01
       88775000    1,789301932e-01   -7,292570472e-01
       88850000    1,711851358e-01   -7,278891802e-01
       88925000    1,719093770e-01   -7,305449843e-01
       89000000    1,698242724e-01   -7,320451736e-01
       89075000    1,687298566e-01   -7,282560468e-01
       89150000    1,632830352e-01   -7,257373929e-01
       89225000    1,614529341e-01   -7,276939154e-01
       89300000    1,564105004e-01   -7,269352078e-01
       89375000    1,576855630e-01   -7,266313434e-01
       89450000    1,569491476e-01   -7,271075249e-01
       89525000    1,500917226e-01   -7,307305932e-01
       89600000    1,511836201e-01   -7,284703255e-01
       89675000    1,466275007e-01   -7,284278870e-01
       89750000    1,473786980e-01   -7,267491817e-01
       89825000    1,457535028e-01   -7,254192829e-01
       89900000    1,413529962e-01   -7,240304947e-01
       89975000    1,395773143e-01   -7,258566022e-01
       90050000    1,417729855e-01   -7,250403762e-01
       90125000    1,433809102e-01   -7,258589864e-01
       90200000    1,392635405e-01   -7,205579281e-01
       90275000    1,381842196e-01   -7,246200442e-01
       90350000    1,385050118e-01   -7,221956849e-01
       90425000    1,374855191e-01   -7,195639014e-01
       90500000    1,353439093e-01   -7,177048326e-01
       90575000    1,325485557e-01   -7,221701741e-01
       90650000    1,353742331e-01   -7,188817263e-01
       90725000    1,331364661e-01   -7,199764848e-01
       90800000    1,308231354e-01   -7,199441791e-01
       90875000    1,331549585e-01   -7,229377627e-01
       90950000    1,347103417e-01   -7,204996943e-01
       91025000    1,339802146e-01   -7,235320210e-01
       91100000    1,337225735e-01   -7,211849093e-01
       91175000    1,304475367e-01   -7,199983597e-01
       91250000    1,313060373e-01   -7,230292559e-01
       91325000    1,299470216e-01   -7,214604020e-01
       91400000    1,298724115e-01   -7,257485986e-01
       91475000    1,324728876e-01   -7,278044820e-01
       91550000    1,320819408e-01   -7,293103933e-01
       91625000    1,330491602e-01   -7,284650207e-01
       91700000    1,316348463e-01   -7,321357131e-01
       91775000    1,286469251e-01   -7,309706807e-01
       91850000    1,251248121e-01   -7,315125465e-01
       91925000    1,257281154e-01   -7,340045571e-01
