! NanoVNA-App
! Date: 2025-08-09 13:49:19
! Start: 65MHz Stop: 95MHz Points: 401
! S-Parameter data: F S11
# Hz S RI R 50
!     Frequency           S11_Real           S11_Imag
       65000000   -3,753784299e-01   -8,393385410e-01
       65075000   -3,746798038e-01   -8,540652394e-01
       65150000   -3,783187568e-01   -8,503476381e-01
       65225000   -3,796459734e-01   -8,516426086e-01
       65300000   -3,829448223e-01   -8,503314853e-01
       65375000   -3,856388628e-01   -8,498230577e-01
       65450000   -3,854757547e-01   -8,471470475e-01
       65525000   -3,878313601e-01   -8,471188545e-01
       65600000   -3,910427690e-01   -8,456404805e-01
       65675000   -3,923772275e-01   -8,416717052e-01
       65750000   -3,952780664e-01   -8,402299285e-01
       65825000   -3,992788494e-01   -8,398767114e-01
       65900000   -4,006843567e-01   -8,395630121e-01
       65975000   -4,039053619e-01   -8,389744759e-01
       66050000   -4,041530788e-01   -8,375803828e-01
       66125000   -4,046638012e-01   -8,352993727e-01
       66200000   -4,089986086e-01   -8,327012062e-01
       66275000   -4,082558155e-01   -8,314993382e-01
       66350000   -4,123536646e-01   -8,291220069e-01
       66425000   -4,151655734e-01   -8,293594718e-01
       66500000   -4,172469378e-01   -8,297654390e-01
       66575000   -4,195334911e-01   -8,275336027e-01
       66650000   -4,206327796e-01   -8,269612193e-01
       66725000   -4,215836823e-01   -8,246489167e-01
       66800000   -4,222847223e-01   -8,217436671e-01
       66875000   -4,253791869e-01   -8,212428689e-01
       66950000   -4,265593588e-01   -8,187093139e-01
       67025000   -4,295184612e-01   -8,168556690e-01
       67100000   -4,321766794e-01   -8,180341721e-01
       67175000   -4,353558719e-01   -8,180745840e-01
       67250000   -4,343940020e-01   -8,148741126e-01
       67325000   -4,372406006e-01   -8,161818981e-01
       67400000   -4,415315986e-01   -8,119944930e-01
       67475000   -4,412983060e-01   -8,090904951e-01
       67550000   -4,444316328e-01   -8,105629683e-01
       67625000   -4,467628896e-01   -8,093791008e-01
       67700000   -4,474186301e-01   -8,067726493e-01
       67775000   -4,502722025e-01   -8,034246564e-01
       67850000   -4,537650943e-01   -8,032647371e-01
       67925000   -4,545065165e-01   -8,033843637e-01
       68000000   -4,568447173e-01   -8,019972444e-01
       68075000   -4,559133649e-01   -7,998216152e-01
       68150000   -4,598084986e-01   -7,977675200e-01
       68225000   -4,625241160e-01   -7,942547202e-01
       68300000   -4,636473656e-01   -7,947267294e-01
       68375000   -4,666842520e-01   -7,925863266e-01
       68450000   -4,669389725e-01   -7,945774198e-01
       68525000   -4,699321091e-01   -7,939782739e-01
       68600000   -4,698242545e-01   -7,926499248e-01
       68675000   -4,725551903e-01   -7,881996036e-01
       68750000   -4,733776450e-01   -7,860733867e-01
       68825000   -4,766437113e-01   -7,841756344e-01
       68900000   -4,785449207e-01   -7,820691466e-01
       68975000   -4,811700284e-01   -7,834001184e-01
       69050000   -4,832696915e-01   -7,780197859e-01
       69125000   -4,848647118e-01   -7,776598334e-01
       69200000   -4,872328937e-01   -7,754549384e-01
       69275000   -4,884664714e-01   -7,763077021e-01
       69350000   -4,911167920e-01   -7,742283940e-01
       69425000   -4,925197959e-01   -7,745597959e-01
       69500000   -4,949271083e-01   -7,722927928e-01
       69575000   -4,952829182e-01   -7,719688416e-01
       69650000   -4,990486503e-01   -7,677813768e-01
       69725000   -4,982822239e-01   -7,683098316e-01
       69800000   -5,025987029e-01   -7,666022778e-01
       69875000   -5,018721223e-01   -7,640751600e-01
       69950000   -5,036037564e-01   -7,626246810e-01
       70025000   -5,064299107e-01   -7,637441158e-01
       70100000   -5,085510612e-01   -7,565298080e-01
       70175000   -5,102743506e-01   -7,558242083e-01
       70250000   -5,122519135e-01   -7,554387450e-01
       70325000   -5,118780732e-01   -7,553822398e-01
       70400000   -5,155882239e-01   -7,527369857e-01
       70475000   -5,165406466e-01   -7,482098341e-01
       70550000   -5,191604495e-01   -7,488088608e-01
       70625000   -5,211644173e-01   -7,501739264e-01
       70700000   -5,217754245e-01   -7,454999089e-01
       70775000   -5,237288475e-01   -7,445896268e-01
       70850000   -5,253813863e-01   -7,403045297e-01
       70925000   -5,255628824e-01   -7,433385849e-01
       71000000   -5,290062428e-01   -7,416073084e-01
       71075000   -5,309793949e-01   -7,353325486e-01
       71150000   -5,317890048e-01   -7,370725274e-01
       71225000   -5,344818830e-01   -7,358376384e-01
       71300000   -5,375519991e-01   -7,348769903e-01
       71375000   -5,362346768e-01   -7,347151041e-01
       71450000   -5,397572517e-01   -7,316570878e-01
       71525000   -5,410041213e-01   -7,297964692e-01
       71600000   -5,447683334e-01   -7,265158296e-01
       71675000   -5,439298749e-01   -7,239091992e-01
       71750000   -5,461711287e-01   -7,243344188e-01
       71825000   -5,476253629e-01   -7,208006382e-01
       71900000   -5,500509739e-01   -7,215980291e-01
       71975000   -5,521746278e-01   -7,194151878e-01
       72050000   -5,553861856e-01   -7,197622657e-01
       72125000   -5,539173484e-01   -7,147505879e-01
       72200000   -5,570165515e-01   -7,155586481e-01
       72275000   -5,572963953e-01   -7,111349106e-01
       72350000   -5,590053201e-01   -7,123796344e-01
       72425000   -5,614880323e-01   -7,081193328e-01
       72500000   -5,625963807e-01   -7,074190378e-01
       72575000   -5,655267835e-01   -7,052236795e-01
       72650000   -5,654756427e-01   -7,070333958e-01
       72725000   -5,684161186e-01   -7,030656338e-01
       72800000   -5,693684220e-01   -6,985521317e-01
       72875000   -5,706331730e-01   -6,978173852e-01
       72950000   -5,730088353e-01   -6,974540353e-01
       73025000   -5,742288828e-01   -6,954953671e-01
       73100000   -5,745704174e-01   -6,963701844e-01
       73175000   -5,777730942e-01   -6,923329830e-01
       73250000   -5,802491307e-01   -6,905894876e-01
       73325000   -5,824785233e-01   -6,885381937e-01
       73400000   -5,827220678e-01   -6,891682744e-01
       73475000   -5,852581263e-01   -6,854802370e-01
       73550000   -5,842685699e-01   -6,848716736e-01
       73625000   -5,880379677e-01   -6,829571724e-01
       73700000   -5,874254107e-01   -6,814110279e-01
       73775000   -5,903622508e-01   -6,787654757e-01
       73850000   -5,913078785e-01   -6,769276261e-01
       73925000   -5,939505100e-01   -6,771364808e-01
       74000000   -5,966191292e-01   -6,755631566e-01
       74075000   -5,953316689e-01   -6,737130880e-01
       74150000   -5,984480977e-01   -6,727650762e-01
       74225000   -5,994356275e-01   -6,690107584e-01
       74300000   -6,010003090e-01   -6,665302515e-01
       74375000   -6,027113199e-01   -6,670091748e-01
       74450000   -6,057193279e-01   -6,648364663e-01
       74525000   -6,044354439e-01   -6,642635465e-01
       74600000   -6,080541015e-01   -6,605419517e-01
       74675000   -6,086727977e-01   -6,561840773e-01
       74750000   -6,101000905e-01   -6,564884186e-01
       74825000   -6,137170792e-01   -6,545370221e-01
       74900000   -6,134948134e-01   -6,545686126e-01
       74975000   -6,162706614e-01   -6,535679102e-01
       75050000   -6,155403256e-01   -6,512678266e-01
       75125000   -6,183211207e-01   -6,490234733e-01
       75200000   -6,182473898e-01   -6,451375484e-01
       75275000   -6,215003729e-01   -6,444525719e-01
       75350000   -6,221634746e-01   -6,416109204e-01
       75425000   -6,237734556e-01   -6,421961188e-01
       75500000   -6,277050972e-01   -6,385239363e-01
       75575000   -6,275233626e-01   -6,362935901e-01
       75650000   -6,306992173e-01   -6,352161169e-01
       75725000   -6,302545071e-01   -6,349971294e-01
       75800000   -6,336168647e-01   -6,325119734e-01
       75875000   -6,328323483e-01   -6,316894889e-01
       75950000   -6,364002228e-01   -6,293488145e-01
       76025000   -6,376982331e-01   -6,258783340e-01
       76100000   -6,380406022e-01   -6,257959008e-01
       76175000   -6,403726935e-01   -6,218162775e-01
       76250000   -6,402734518e-01   -6,231790185e-01
       76325000   -6,437005997e-01   -6,212802529e-01
       76400000   -6,420858502e-01   -6,222948432e-01
       76475000   -6,445704103e-01   -6,173800230e-01
       76550000   -6,472239494e-01   -6,159537435e-01
       76625000   -6,461133361e-01   -6,108586788e-01
       76700000   -6,497627497e-01   -6,112628579e-01
       76775000   -6,516619921e-01   -6,110334992e-01
       76850000   -6,507794857e-01   -6,071015596e-01
       76925000   -6,531072855e-01   -6,063721180e-01
       77000000   -6,565644741e-01   -6,025327444e-01
       77075000   -6,568228006e-01   -5,997209549e-01
       77150000   -6,571364999e-01   -6,005924940e-01
       77225000   -6,582717299e-01   -5,981220603e-01
       77300000   -6,606519222e-01   -5,963810682e-01
       77375000   -6,603663564e-01   -5,954633951e-01
       77450000   -6,635921597e-01   -5,929871202e-01
       77525000   -6,646556258e-01   -5,912174582e-01
       77600000   -6,653561592e-01   -5,880783200e-01
       77675000   -6,675140858e-01   -5,867081285e-01
       77750000   -6,696023345e-01   -5,844321251e-01
       77825000   -6,690273285e-01   -5,835385919e-01
       77900000   -6,705031395e-01   -5,820831656e-01
       77975000   -6,735868454e-01   -5,797272921e-01
       78050000   -6,726146936e-01   -5,759632587e-01
       78125000   -6,750827432e-01   -5,763850808e-01
       78200000   -6,779633164e-01   -5,750541687e-01
       78275000   -6,782546639e-01   -5,691792369e-01
       78350000   -6,790038943e-01   -5,728286505e-01
       78425000   -6,808388233e-01   -5,711365938e-01
       78500000   -6,835914850e-01   -5,670422912e-01
       78575000   -6,823262572e-01   -5,642701387e-01
       78650000   -6,851933002e-01   -5,649239421e-01
       78725000   -6,881744266e-01   -5,611862540e-01
       78800000   -6,871733665e-01   -5,603706837e-01
       78875000   -6,894872785e-01   -5,583863854e-01
       78950000   -6,892710924e-01   -5,539510250e-01
       79025000   -6,906704307e-01   -5,532336831e-01
       79100000   -6,934509277e-01   -5,505141020e-01
       79175000   -6,934823990e-01   -5,511332750e-01
       79250000   -6,969480515e-01   -5,486154556e-01
       79325000   -6,963695884e-01   -5,464915037e-01
       79400000   -6,987224817e-01   -5,456406474e-01
       79475000   -7,000730038e-01   -5,407488346e-01
       79550000   -7,004584670e-01   -5,399696827e-01
       79625000   -7,037706971e-01   -5,384943485e-01
       79700000   -7,032180429e-01   -5,361546278e-01
       79775000   -7,053254843e-01   -5,356813073e-01
       79850000   -7,076830864e-01   -5,340931416e-01
       79925000   -7,084716558e-01   -5,291432142e-01
       80000000   -7,111698389e-01   -5,274899006e-01
       80075000   -7,119743228e-01   -5,280050635e-01
       80150000   -7,110584378e-01   -5,252433419e-01
       80225000   -7,128739357e-01   -5,230731368e-01
       80300000   -7,156941295e-01   -5,193644762e-01
       80375000   -7,146911025e-01   -5,178772807e-01
       80450000   -7,180454135e-01   -5,201907754e-01
       80525000   -7,183702588e-01   -5,129413605e-01
       80600000   -7,208341360e-01   -5,146158338e-01
       80675000   -7,218769789e-01   -5,093143582e-01
       80750000   -7,227704525e-01   -5,092222691e-01
       80825000   -7,242100835e-01   -5,073266029e-01
       80900000   -7,250256538e-01   -5,042493343e-01
       80975000   -7,261249423e-01   -5,026637912e-01
       81050000   -7,286121249e-01   -5,022073984e-01
       81125000   -7,280569673e-01   -4,983243346e-01
       81200000   -7,316614389e-01   -4,974519610e-01
       81275000   -7,308703661e-01   -4,937086701e-01
       81350000   -7,334964275e-01   -4,926807880e-01
       81425000   -7,353984118e-01   -4,880411923e-01
       81500000   -7,353239059e-01   -4,883338213e-01
       81575000   -7,378946543e-01   -4,848773479e-01
       81650000   -7,373480201e-01   -4,835749269e-01
       81725000   -7,382319570e-01   -4,798550308e-01
       81800000   -7,409198880e-01   -4,799008071e-01
       81875000   -7,415013909e-01   -4,749736488e-01
       81950000   -7,423883677e-01   -4,739971161e-01
       82025000   -7,446448207e-01   -4,716438353e-01
       82100000   -7,462133169e-01   -4,724904001e-01
       82175000   -7,473013401e-01   -4,668850601e-01
       82250000   -7,477924824e-01   -4,654516578e-01
       82325000   -7,494229674e-01   -4,617666006e-01
       82400000   -7,498325706e-01   -4,621786475e-01
       82475000   -7,521294355e-01   -4,603634179e-01
       82550000   -7,517090440e-01   -4,576690495e-01
       82625000   -7,547200918e-01   -4,561262727e-01
       82700000   -7,539985180e-01   -4,502935708e-01
       82775000   -7,559031844e-01   -4,495581388e-01
       82850000   -7,566660643e-01   -4,456758499e-01
       82925000   -7,588782907e-01   -4,461293817e-01
       83000000   -7,593387365e-01   -4,426194727e-01
       83075000   -7,607002258e-01   -4,408724606e-01
       83150000   -7,622898221e-01   -4,357942343e-01
       83225000   -7,629004121e-01   -4,363161325e-01
       83300000   -7,646891475e-01   -4,326258898e-01
       83375000   -7,655170560e-01   -4,314216971e-01
       83450000   -7,681187391e-01   -4,318491817e-01
       83525000   -7,674430013e-01   -4,279438555e-01
       83600000   -7,696928382e-01   -4,255746603e-01
       83675000   -7,714723349e-01   -4,197690785e-01
       83750000   -7,709629536e-01   -4,191201031e-01
       83825000   -7,733393312e-01   -4,179436564e-01
       83900000   -7,726081610e-01   -4,159848392e-01
       83975000   -7,744189501e-01   -4,139647782e-01
       84050000   -7,762173414e-01   -4,090379775e-01
       84125000   -7,763117552e-01   -4,073870778e-01
       84200000   -7,778897882e-01   -4,053466022e-01
       84275000   -7,788749933e-01   -4,015256464e-01
       84350000   -7,799097896e-01   -4,016173780e-01
       84425000   -7,808203697e-01   -3,964338303e-01
       84500000   -7,815538645e-01   -3,959013522e-01
       84575000   -7,832146287e-01   -3,915702105e-01
       84650000   -7,815412879e-01   -3,893466592e-01
       84725000   -7,842300534e-01   -3,872252405e-01
       84800000   -7,857245207e-01   -3,842370510e-01
       84875000   -7,863346338e-01   -3,833890259e-01
       84950000   -7,887708545e-01   -3,814381659e-01
       85025000   -7,886873484e-01   -3,763974607e-01
       85100000   -7,873333097e-01   -3,736978769e-01
       85175000   -7,890970707e-01   -3,717293441e-01
       85250000   -7,900547385e-01   -3,684589267e-01
       85325000   -7,907941341e-01   -3,686567545e-01
       85400000   -7,935138345e-01   -3,634828329e-01
       85475000   -7,925902009e-01   -3,632818162e-01
       85550000   -7,929394245e-01   -3,594821393e-01
       85625000   -7,939091921e-01   -3,569600284e-01
       85700000   -7,951234579e-01   -3,532639444e-01
       85775000   -7,950805426e-01   -3,513911366e-01
       85850000   -7,959344387e-01   -3,490104377e-01
       85925000   -7,965271473e-01   -3,470249176e-01
       86000000   -7,974169254e-01   -3,444397748e-01
       86075000   -7,980327010e-01   -3,416021764e-01
       86150000   -7,993283868e-01   -3,378898501e-01
       86225000   -8,001567125e-01   -3,349286318e-01
       86300000   -7,993480563e-01   -3,344000578e-01
       86375000   -8,001699448e-01   -3,320777714e-01
       86450000   -8,007416129e-01   -3,286043704e-01
       86525000   -8,013194799e-01   -3,226930201e-01
       86600000   -8,009396195e-01   -3,226665258e-01
       86675000   -8,020537496e-01   -3,207110465e-01
       86750000   -8,017374277e-01   -3,164465427e-01
       86825000   -8,021834493e-01   -3,154419363e-01
       86900000   -8,030261397e-01   -3,140083253e-01
       86975000   -8,040369749e-01   -3,118932545e-01
       87050000   -8,049441576e-01   -3,074356914e-01
       87125000   -8,046793938e-01   -3,031951785e-01
       87200000   -8,047618866e-01   -3,029681146e-01
       87275000   -8,069862127e-01   -3,000841439e-01
       87350000   -8,069635630e-01   -2,981252670e-01
       87425000   -8,060067296e-01   -2,971937060e-01
       87500000   -8,049351573e-01   -2,923753858e-01
       87575000   -8,055041432e-01   -2,912313044e-01
       87650000   -8,069865704e-01   -2,850365639e-01
       87725000   -8,058777452e-01   -2,870272100e-01
       87800000   -8,074961305e-01   -2,835561931e-01
       87875000   -8,065048456e-01   -2,797110379e-01
       87950000   -8,077366948e-01   -2,788362503e-01
       88025000   -8,080981374e-01   -2,775374949e-01
       88100000   -8,096241951e-01   -2,729021013e-01
       88175000   -8,067072034e-01   -2,695267797e-01
       88250000   -8,089312315e-01   -2,683712542e-01
       88325000   -8,092684150e-01   -2,664933205e-01
       88400000   -8,085746765e-01   -2,643693388e-01
       88475000   -8,100243211e-01   -2,604762018e-01
       88550000   -8,079805970e-01   -2,591222525e-01
       88625000   -8,093233705e-01   -2,561214566e-01
       88700000   -8,104335070e-01   -2,549010515e-01
       88775000   -8,101038933e-01   -2,524325252e-01
       88850000   -8,074002862e-01   -2,484347373e-01
       88925000   -8,093879223e-01   -2,476907372e-01
       89000000   -8,099426031e-01   -2,440887839e-01
       89075000   -8,085842133e-01   -2,425663173e-01
       89150000   -8,095283508e-01   -2,386690080e-01
       89225000   -8,077175021e-01   -2,373471558e-01
       89300000   -8,100221157e-01   -2,366206199e-01
       89375000   -8,080939651e-01   -2,353805155e-01
       89450000   -8,098534346e-01   -2,321934551e-01
       89525000   -8,093392849e-01   -2,305005342e-01
       89600000   -8,067631721e-01   -2,281674743e-01
       89675000   -8,083445430e-01   -2,275097072e-01
       89750000   -8,087285161e-01   -2,227523774e-01
       89825000   -8,077104688e-01   -2,220477015e-01
       89900000   -8,083849549e-01   -2,211133242e-01
       89975000   -8,075413704e-01   -2,176489383e-01
       90050000   -8,087581992e-01   -2,183489203e-01
       90125000   -8,084985614e-01   -2,148388475e-01
       90200000   -8,075447083e-01   -2,144771814e-01
       90275000   -8,078948259e-01   -2,137306035e-01
       90350000   -8,087420464e-01   -2,098105699e-01
       90425000   -8,086428046e-01   -2,107396126e-01
       90500000   -8,100692630e-01   -2,089663744e-01
       90575000   -8,091036081e-01   -2,066441923e-01
       90650000   -8,099967837e-01   -2,058826983e-01
       90725000   -8,113396764e-01   -2,042162418e-01
       90800000   -8,111877441e-01   -2,015918195e-01
       90875000   -8,122547269e-01   -2,012662888e-01
       90950000   -8,134174347e-01   -1,982983649e-01
       91025000   -8,137645721e-01   -1,978288591e-01
       91100000   -8,162215948e-01   -1,967753470e-01
       91175000   -8,157237768e-01   -1,948048472e-01
       91250000   -8,174448013e-01   -1,914055943e-01
       91325000   -8,175958395e-01   -1,922872663e-01
       91400000   -8,193547726e-01   -1,890638918e-01
       91475000   -8,196442127e-01   -1,870291978e-01
       91550000   -8,210209608e-01   -1,841590255e-01
       91625000   -8,215669990e-01   -1,817753911e-01
       91700000   -8,231160045e-01   -1,807563156e-01
       91775000   -8,237746954e-01   -1,769646555e-01
       91850000   -8,257814646e-01   -1,777480096e-01
       91925000   -8,253023624e-01   -1,718813926e-01
