! NanoVNA-App
! Date: 2025-08-02 15:54:08
! Start: 65MHz Stop: 95MHz Points: 401
! S-Parameter data: F S11
# Hz S RI R 50
!     Frequency           S11_Real           S11_Imag
       65000000   -5,933141708e-01   -9,684352577e-02
       65075000   -5,946806669e-01   -9,820479900e-02
       65150000   -5,913521051e-01   -9,436652064e-02
       65225000   -5,881964564e-01   -8,914314955e-02
       65300000   -5,822296739e-01   -8,510833234e-02
       65375000   -5,800186396e-01   -8,025638014e-02
       65450000   -5,751200318e-01   -7,513092458e-02
       65525000   -5,702291131e-01   -7,112120837e-02
       65600000   -5,661680102e-01   -6,744064391e-02
       65675000   -5,616523623e-01   -6,272360682e-02
       65750000   -5,573662519e-01   -6,079208106e-02
       65825000   -5,532529950e-01   -5,682922527e-02
       65900000   -5,479521155e-01   -5,357751623e-02
       65975000   -5,442885160e-01   -4,977794737e-02
       66050000   -5,381199121e-01   -4,782675952e-02
       66125000   -5,350950956e-01   -4,446604103e-02
       66200000   -5,303034186e-01   -4,144603387e-02
       66275000   -5,253531933e-01   -3,895894065e-02
       66350000   -5,229324698e-01   -3,654575348e-02
       66425000   -5,171824098e-01   -3,302199766e-02
       66500000   -5,124399066e-01   -3,137212619e-02
       66575000   -5,086208582e-01   -2,829112858e-02
       66650000   -5,044180751e-01   -2,660363540e-02
       66725000   -5,004442334e-01   -2,417782322e-02
       66800000   -4,958683550e-01   -2,096652240e-02
       66875000   -4,922082424e-01   -1,966872811e-02
       66950000   -4,878202975e-01   -1,622018777e-02
       67025000   -4,840781987e-01   -1,420719642e-02
       67100000   -4,803203940e-01   -1,202465128e-02
       67175000   -4,757041931e-01   -9,113312699e-03
       67250000   -4,704985619e-01   -7,356526796e-03
       67325000   -4,663538337e-01   -6,431460846e-03
       67400000   -4,619356692e-01   -2,448214684e-03
       67475000   -4,558202922e-01   -1,351930201e-03
       67550000   -4,521044195e-01   -6,451549707e-04
       67625000   -4,467678070e-01    1,948509715e-03
       67700000   -4,407195151e-01    3,339486895e-03
       67775000   -4,374224842e-01    3,172684694e-03
       67850000   -4,323004484e-01    4,844665527e-03
       67925000   -4,286024272e-01    4,874120001e-03
       68000000   -4,226862788e-01    6,301928312e-03
       68075000   -4,182302654e-01    5,899454001e-03
       68150000   -4,135344028e-01    6,392004434e-03
       68225000   -4,083685875e-01    5,863568746e-03
       68300000   -4,044632912e-01    6,805475801e-03
       68375000   -3,991635144e-01    6,780591793e-03
       68450000   -3,969552815e-01    6,498381030e-03
       68525000   -3,925485611e-01    6,821624469e-03
       68600000   -3,883078396e-01    5,603787955e-03
       68675000   -3,839485049e-01    5,751276389e-03
       68750000   -3,796907067e-01    4,544422962e-03
       68825000   -3,760483265e-01    4,033685662e-03
       68900000   -3,717751801e-01    2,614887664e-03
       68975000   -3,692589700e-01    2,182386583e-03
       69050000   -3,646025062e-01    1,817832119e-03
       69125000   -3,622077703e-01    8,010595920e-04
       69200000   -3,582685590e-01   -6,042089663e-04
       69275000   -3,560251892e-01   -2,025356283e-03
       69350000   -3,525041938e-01   -3,018155927e-03
       69425000   -3,511189818e-01   -4,302876070e-03
       69500000   -3,474864960e-01   -5,340029020e-03
       69575000   -3,457635641e-01   -6,428697146e-03
       69650000   -3,425328434e-01   -7,448044140e-03
       69725000   -3,408456147e-01   -8,506410755e-03
       69800000   -3,384248316e-01   -9,514244273e-03
       69875000   -3,375023603e-01   -1,027621049e-02
       69950000   -3,355544806e-01   -1,096058264e-02
       70025000   -3,328528106e-01   -1,199214440e-02
       70100000   -3,319714367e-01   -1,297267620e-02
       70175000   -3,308188021e-01   -1,393700857e-02
       70250000   -3,281036913e-01   -1,446764637e-02
       70325000   -3,278667629e-01   -1,526905596e-02
       70400000   -3,250900507e-01   -1,484317612e-02
       70475000   -3,245295584e-01   -1,714603789e-02
       70550000   -3,234792352e-01   -1,631251350e-02
       70625000   -3,207883835e-01   -1,734102331e-02
       70700000   -3,207296133e-01   -1,793544367e-02
       70775000   -3,183868825e-01   -1,670171507e-02
       70850000   -3,172573745e-01   -1,759958826e-02
       70925000   -3,151957095e-01   -1,888702251e-02
       71000000   -3,140525222e-01   -1,802035235e-02
       71075000   -3,128479719e-01   -1,843847334e-02
       71150000   -3,119350374e-01   -2,033206075e-02
       71225000   -3,099288940e-01   -1,878532581e-02
       71300000   -3,073075116e-01   -1,957994513e-02
       71375000   -3,077766299e-01   -2,062858827e-02
       71450000   -3,040662110e-01   -1,929482259e-02
       71525000   -3,033873141e-01   -2,052390948e-02
       71600000   -3,026769757e-01   -2,170995995e-02
       71675000   -3,004352152e-01   -2,073627338e-02
       71750000   -2,989942431e-01   -2,188029513e-02
       71825000   -2,986493409e-01   -2,270870470e-02
       71900000   -2,961034179e-01   -2,312485687e-02
       71975000   -2,949807048e-01   -2,340026386e-02
       72050000   -2,948935032e-01   -2,470482700e-02
       72125000   -2,925196290e-01   -2,310588583e-02
       72200000   -2,914656997e-01   -2,482210472e-02
       72275000   -2,912594080e-01   -2,558801882e-02
       72350000   -2,887614965e-01   -2,643372677e-02
       72425000   -2,886542082e-01   -2,728127129e-02
       72500000   -2,871081829e-01   -2,827987075e-02
       72575000   -2,871868014e-01   -2,876485139e-02
       72650000   -2,868042886e-01   -2,901854552e-02
       72725000   -2,847126722e-01   -3,038782626e-02
       72800000   -2,857619822e-01   -3,073639981e-02
       72875000   -2,852177918e-01   -3,186875954e-02
       72950000   -2,843239605e-01   -3,287957236e-02
       73025000   -2,846323848e-01   -3,241449967e-02
       73100000   -2,848570645e-01   -3,187160939e-02
       73175000   -2,833633423e-01   -3,340844065e-02
       73250000   -2,836239338e-01   -3,308720887e-02
       73325000   -2,842161655e-01   -3,288481385e-02
       73400000   -2,821801603e-01   -3,381971270e-02
       73475000   -2,824140787e-01   -3,466638178e-02
       73550000   -2,829921544e-01   -3,367216513e-02
       73625000   -2,825784981e-01   -3,445231915e-02
       73700000   -2,825818062e-01   -3,394103423e-02
       73775000   -2,829741538e-01   -3,421261907e-02
       73850000   -2,824132144e-01   -3,362172469e-02
       73925000   -2,814669907e-01   -3,511766344e-02
       74000000   -2,825919092e-01   -3,365840763e-02
       74075000   -2,819410563e-01   -3,246273845e-02
       74150000   -2,824236453e-01   -3,384298459e-02
       74225000   -2,824133337e-01   -3,381242603e-02
       74300000   -2,816610038e-01   -3,064753674e-02
       74375000   -2,821973860e-01   -3,294603154e-02
       74450000   -2,823951542e-01   -3,232613578e-02
       74525000   -2,822244763e-01   -3,094908223e-02
       74600000   -2,829728425e-01   -3,178386018e-02
       74675000   -2,825021148e-01   -3,019518405e-02
       74750000   -2,830153704e-01   -2,914857119e-02
       74825000   -2,833858132e-01   -2,966956235e-02
       74900000   -2,825044394e-01   -2,924292535e-02
       74975000   -2,823279500e-01   -2,755903639e-02
       75050000   -2,824359536e-01   -2,798450738e-02
       75125000   -2,830761969e-01   -2,694194205e-02
       75200000   -2,815177441e-01   -2,592061460e-02
       75275000   -2,834690213e-01   -2,539897151e-02
       75350000   -2,827692032e-01   -2,502765879e-02
       75425000   -2,823960781e-01   -2,424269542e-02
       75500000   -2,825428247e-01   -2,210527845e-02
       75575000   -2,836538255e-01   -2,314329706e-02
       75650000   -2,815980017e-01   -2,093169838e-02
       75725000   -2,832140923e-01   -2,123264968e-02
       75800000   -2,827927470e-01   -1,947849803e-02
       75875000   -2,819982767e-01   -1,973993890e-02
       75950000   -2,829917967e-01   -1,708072610e-02
       76025000   -2,829918563e-01   -1,657871902e-02
       76100000   -2,829801738e-01   -1,686640084e-02
       76175000   -2,832006514e-01   -1,451447140e-02
       76250000   -2,829113305e-01   -1,429704018e-02
       76325000   -2,826739252e-01   -1,289740298e-02
       76400000   -2,830411494e-01   -1,235995162e-02
       76475000   -2,834363878e-01   -1,058403403e-02
       76550000   -2,837259769e-01   -9,251330979e-03
       76625000   -2,835554183e-01   -8,494649082e-03
       76700000   -2,848037481e-01   -5,919047166e-03
       76775000   -2,845384777e-01   -5,540813319e-03
       76850000   -2,844783068e-01   -5,082564428e-03
       76925000   -2,853896320e-01   -3,180411644e-03
       77000000   -2,843101919e-01   -1,461197855e-03
       77075000   -2,844765484e-01   -1,523214509e-03
       77150000   -2,854211926e-01    1,126571326e-03
       77225000   -2,863215804e-01    2,512763487e-03
       77300000   -2,854243219e-01    4,866102710e-03
       77375000   -2,871854007e-01    6,384549662e-03
       77450000   -2,873210907e-01    9,629238397e-03
       77525000   -2,872673273e-01    1,091327518e-02
       77600000   -2,861160934e-01    1,301042736e-02
       77675000   -2,874013484e-01    1,655502245e-02
       77750000   -2,859462798e-01    1,733285934e-02
       77825000   -2,864713967e-01    1,999500580e-02
       77900000   -2,868397236e-01    2,324458398e-02
       77975000   -2,854628861e-01    2,512172051e-02
       78050000   -2,862848341e-01    2,749605849e-02
       78125000   -2,853657901e-01    3,147691861e-02
       78200000   -2,849364579e-01    3,330946341e-02
       78275000   -2,844445705e-01    3,573855385e-02
       78350000   -2,838433385e-01    3,827357665e-02
       78425000   -2,840431929e-01    4,145086929e-02
       78500000   -2,824563086e-01    4,497965053e-02
       78575000   -2,828029692e-01    4,703809693e-02
       78650000   -2,814395130e-01    5,091254786e-02
       78725000   -2,793421447e-01    5,339172110e-02
       78800000   -2,787729800e-01    5,665967986e-02
       78875000   -2,772173285e-01    6,022946537e-02
       78950000   -2,764247656e-01    6,343363225e-02
       79025000   -2,737905085e-01    6,620168686e-02
       79100000   -2,728194892e-01    6,829826534e-02
       79175000   -2,701294124e-01    7,193634659e-02
       79250000   -2,681749165e-01    7,462488860e-02
       79325000   -2,675634623e-01    7,755012810e-02
       79400000   -2,648013830e-01    8,128619194e-02
       79475000   -2,623957396e-01    8,291353285e-02
       79550000   -2,601601183e-01    8,649905771e-02
       79625000   -2,574882805e-01    8,838766068e-02
       79700000   -2,553965449e-01    9,142101556e-02
       79775000   -2,534826696e-01    9,496869892e-02
       79850000   -2,498701066e-01    9,608576447e-02
       79925000   -2,482698411e-01    9,900627285e-02
       80000000   -2,462136149e-01    1,029670462e-01
       80075000   -2,418111563e-01    1,029304266e-01
       80150000   -2,398798764e-01    1,066383943e-01
       80225000   -2,368986458e-01    1,093772277e-01
       80300000   -2,340399921e-01    1,102073714e-01
       80375000   -2,309977412e-01    1,128711477e-01
       80450000   -2,276007086e-01    1,163051426e-01
       80525000   -2,243010849e-01    1,172246337e-01
       80600000   -2,212449312e-01    1,194915771e-01
       80675000   -2,191561013e-01    1,219457015e-01
       80750000   -2,149227113e-01    1,234082356e-01
       80825000   -2,117450088e-01    1,245311201e-01
       80900000   -2,080093622e-01    1,261081398e-01
       80975000   -2,053966373e-01    1,277027428e-01
       81050000   -2,011539489e-01    1,289071441e-01
       81125000   -1,981733143e-01    1,308270842e-01
       81200000   -1,936210543e-01    1,304730326e-01
       81275000   -1,912806034e-01    1,316638291e-01
       81350000   -1,865282655e-01    1,336007565e-01
       81425000   -1,847644597e-01    1,346818656e-01
       81500000   -1,810820252e-01    1,354933679e-01
       81575000   -1,777539700e-01    1,359263211e-01
       81650000   -1,741758883e-01    1,351308972e-01
       81725000   -1,715380400e-01    1,359523237e-01
       81800000   -1,676448137e-01    1,357963979e-01
       81875000   -1,646196842e-01    1,365027875e-01
       81950000   -1,614939719e-01    1,363948584e-01
       82025000   -1,589597464e-01    1,361903846e-01
       82100000   -1,560824215e-01    1,369217038e-01
       82175000   -1,534934789e-01    1,376233399e-01
       82250000   -1,504509747e-01    1,375907660e-01
       82325000   -1,500666738e-01    1,370674223e-01
       82400000   -1,470232606e-01    1,374748200e-01
       82475000   -1,439676732e-01    1,367260218e-01
       82550000   -1,417196989e-01    1,378516853e-01
       82625000   -1,400332153e-01    1,376212686e-01
       82700000   -1,377644390e-01    1,386313140e-01
       82775000   -1,356728524e-01    1,378404647e-01
       82850000   -1,332296878e-01    1,385053992e-01
       82925000   -1,315227151e-01    1,396926641e-01
       83000000   -1,302748621e-01    1,402521431e-01
       83075000   -1,268668771e-01    1,398847252e-01
       83150000   -1,257126331e-01    1,410526782e-01
       83225000   -1,237507313e-01    1,413614899e-01
       83300000   -1,213086620e-01    1,425417364e-01
       83375000   -1,188924387e-01    1,429164410e-01
       83450000   -1,182391495e-01    1,446590275e-01
       83525000   -1,152273938e-01    1,453788579e-01
       83600000   -1,136244014e-01    1,459189206e-01
       83675000   -1,103452817e-01    1,463583559e-01
       83750000   -1,083307639e-01    1,474062353e-01
       83825000   -1,071502566e-01    1,500199139e-01
       83900000   -1,046817005e-01    1,502361596e-01
       83975000   -1,034180894e-01    1,510315388e-01
       84050000   -1,002142653e-01    1,521315277e-01
       84125000   -9,775507450e-02    1,526199281e-01
       84200000   -9,451624006e-02    1,543789208e-01
       84275000   -9,243714809e-02    1,566080153e-01
       84350000   -9,078522772e-02    1,561171860e-01
       84425000   -8,789990097e-02    1,584628075e-01
       84500000   -8,521592617e-02    1,587987840e-01
       84575000   -8,183779567e-02    1,598862857e-01
       84650000   -7,921361178e-02    1,618120968e-01
       84725000   -7,676828653e-02    1,624439359e-01
       84800000   -7,429020852e-02    1,639782935e-01
       84875000   -7,135949284e-02    1,645889580e-01
       84950000   -6,798866391e-02    1,663768440e-01
       85025000   -6,567471474e-02    1,668714136e-01
       85100000   -6,130678207e-02    1,685470641e-01
       85175000   -6,029761955e-02    1,704298109e-01
       85250000   -5,635406449e-02    1,714090556e-01
       85325000   -5,299457908e-02    1,728981137e-01
       85400000   -4,982623085e-02    1,732400656e-01
       85475000   -4,652593657e-02    1,742042154e-01
       85550000   -4,357460514e-02    1,758768409e-01
       85625000   -3,942373395e-02    1,774768829e-01
       85700000   -3,606690839e-02    1,797821224e-01
       85775000   -3,222392872e-02    1,789727956e-01
       85850000   -2,798211761e-02    1,823531091e-01
       85925000   -2,376882546e-02    1,820862591e-01
       86000000   -2,000896260e-02    1,837358326e-01
       86075000   -1,549226884e-02    1,849638224e-01
       86150000   -1,217014715e-02    1,860583425e-01
       86225000   -7,056040689e-03    1,877542734e-01
       86300000   -2,493554959e-03    1,870907843e-01
       86375000    8,281554328e-04    1,879879087e-01
       86450000    5,938833579e-03    1,892449707e-01
       86525000    1,106834412e-02    1,897971779e-01
       86600000    1,520078070e-02    1,895144582e-01
       86675000    2,037538216e-02    1,896075606e-01
       86750000    2,620179020e-02    1,896510869e-01
       86825000    3,029103763e-02    1,902185529e-01
       86900000    3,534213826e-02    1,905489415e-01
       86975000    4,114335775e-02    1,906138659e-01
       87050000    4,440038279e-02    1,905264705e-01
       87125000    5,093216151e-02    1,895333081e-01
       87200000    5,643906444e-02    1,887704581e-01
       87275000    5,974552780e-02    1,896614581e-01
       87350000    6,597539783e-02    1,882756054e-01
       87425000    6,996095926e-02    1,865961701e-01
       87500000    7,619273663e-02    1,865835041e-01
       87575000    8,032938093e-02    1,851858199e-01
       87650000    8,545797318e-02    1,839913726e-01
       87725000    8,852395415e-02    1,836194098e-01
       87800000    9,353369474e-02    1,834283769e-01
       87875000    9,909303486e-02    1,803030968e-01
       87950000    1,045052707e-01    1,801889241e-01
       88025000    1,093098447e-01    1,778968871e-01
       88100000    1,144764945e-01    1,758687347e-01
       88175000    1,180357113e-01    1,751974225e-01
       88250000    1,218439266e-01    1,742911786e-01
       88325000    1,283057779e-01    1,720529944e-01
       88400000    1,324388236e-01    1,705293357e-01
       88475000    1,385914087e-01    1,698487699e-01
       88550000    1,418040097e-01    1,681016386e-01
       88625000    1,459102035e-01    1,648350954e-01
       88700000    1,513214558e-01    1,643202454e-01
       88775000    1,569590867e-01    1,611257344e-01
       88850000    1,600387990e-01    1,598027647e-01
       88925000    1,651862115e-01    1,574921608e-01
       89000000    1,702994853e-01    1,545979083e-01
       89075000    1,757318974e-01    1,517651528e-01
       89150000    1,812598705e-01    1,506939530e-01
       89225000    1,852265298e-01    1,482289881e-01
       89300000    1,904124618e-01    1,467089653e-01
       89375000    1,950946152e-01    1,435266882e-01
       89450000    2,003173381e-01    1,415461302e-01
       89525000    2,047550380e-01    1,374893039e-01
       89600000    2,094110847e-01    1,351976544e-01
       89675000    2,138031274e-01    1,332355440e-01
       89750000    2,192340493e-01    1,293618232e-01
       89825000    2,240983099e-01    1,262941957e-01
       89900000    2,287696153e-01    1,240573749e-01
       89975000    2,337462455e-01    1,196248829e-01
       90050000    2,397477329e-01    1,168175861e-01
       90125000    2,436390519e-01    1,118304357e-01
       90200000    2,484234869e-01    1,087081209e-01
       90275000    2,540330589e-01    1,049316600e-01
       90350000    2,577306032e-01    1,008551717e-01
       90425000    2,619045079e-01    9,761916101e-02
       90500000    2,685699761e-01    9,213510901e-02
       90575000    2,725810111e-01    8,768191934e-02
       90650000    2,772812843e-01    8,405174315e-02
       90725000    2,827281952e-01    7,836128026e-02
       90800000    2,862763107e-01    7,384420186e-02
       90875000    2,910631895e-01    6,896437705e-02
       90950000    2,941068411e-01    6,315259635e-02
       91025000    2,992143333e-01    5,846528336e-02
       91100000    3,021467626e-01    5,202597380e-02
       91175000    3,068688810e-01    4,668319225e-02
       91250000    3,112683296e-01    4,057808593e-02
       91325000    3,143536747e-01    3,646797314e-02
       91400000    3,185479045e-01    2,973001823e-02
       91475000    3,213464320e-01    2,480752394e-02
       91550000    3,251423836e-01    1,818879135e-02
       91625000    3,273025751e-01    1,243284345e-02
       91700000    3,314321041e-01    6,155412178e-03
       91775000    3,323216438e-01   -7,057305775e-04
       91850000    3,360086977e-01   -6,378226448e-03
       91925000    3,376342654e-01   -1,410914306e-02
