! NanoVNA-App
! Date: 2025-08-09 13:29:00
! Start: 65MHz Stop: 95MHz Points: 401
! S-Parameter data: F S11
# Hz S RI R 50
!     Frequency           S11_Real           S11_Imag
       65000000   -7,111333013e-01   -2,284664959e-01
       65075000   -7,090788484e-01   -2,246772945e-01
       65150000   -7,082050443e-01   -2,202324122e-01
       65225000   -7,070702314e-01   -2,173151374e-01
       65300000   -7,054756880e-01   -2,124084234e-01
       65375000   -7,040622830e-01   -2,079711407e-01
       65450000   -7,033793330e-01   -2,037487626e-01
       65525000   -7,027968168e-01   -2,004525065e-01
       65600000   -6,994916797e-01   -1,952128410e-01
       65675000   -6,993748546e-01   -1,913025081e-01
       65750000   -6,973061562e-01   -1,877555847e-01
       65825000   -6,958186626e-01   -1,850306690e-01
       65900000   -6,947934628e-01   -1,803827882e-01
       65975000   -6,925714016e-01   -1,768655181e-01
       66050000   -6,915684938e-01   -1,719692796e-01
       66125000   -6,900435090e-01   -1,672834158e-01
       66200000   -6,882029772e-01   -1,644308120e-01
       66275000   -6,881945133e-01   -1,617438495e-01
       66350000   -6,860381365e-01   -1,564432979e-01
       66425000   -6,840839982e-01   -1,538275629e-01
       66500000   -6,825475097e-01   -1,491053551e-01
       66575000   -6,799548864e-01   -1,463242322e-01
       66650000   -6,790952086e-01   -1,419707090e-01
       66725000   -6,779773235e-01   -1,378326714e-01
       66800000   -6,757631898e-01   -1,341802329e-01
       66875000   -6,743971109e-01   -1,302350461e-01
       66950000   -6,733604074e-01   -1,275224835e-01
       67025000   -6,718381047e-01   -1,236996055e-01
       67100000   -6,699796319e-01   -1,185963079e-01
       67175000   -6,670367122e-01   -1,159050614e-01
       67250000   -6,673457623e-01   -1,124129742e-01
       67325000   -6,644884944e-01   -1,084695607e-01
       67400000   -6,621362567e-01   -1,046596840e-01
       67475000   -6,617103219e-01   -1,011078805e-01
       67550000   -6,593774557e-01   -9,742756933e-02
       67625000   -6,567106843e-01   -9,411386400e-02
       67700000   -6,547423005e-01   -9,004065394e-02
       67775000   -6,531881094e-01   -8,558779955e-02
       67850000   -6,507275701e-01   -8,343941718e-02
       67925000   -6,495072246e-01   -7,941433042e-02
       68000000   -6,466130614e-01   -7,587233931e-02
       68075000   -6,449307203e-01   -7,152837515e-02
       68150000   -6,420481205e-01   -6,788810343e-02
       68225000   -6,407191753e-01   -6,502947956e-02
       68300000   -6,383847594e-01   -6,064101681e-02
       68375000   -6,348924041e-01   -5,823496729e-02
       68450000   -6,333708763e-01   -5,432811379e-02
       68525000   -6,294915080e-01   -5,208966509e-02
       68600000   -6,275424361e-01   -4,772531241e-02
       68675000   -6,246200204e-01   -4,386715591e-02
       68750000   -6,233223081e-01   -4,107644409e-02
       68825000   -6,192574501e-01   -3,746683523e-02
       68900000   -6,166609526e-01   -3,452033177e-02
       68975000   -6,148027778e-01   -3,174694255e-02
       69050000   -6,117932200e-01   -2,956856042e-02
       69125000   -6,082785130e-01   -2,557281777e-02
       69200000   -6,055200100e-01   -2,388763987e-02
       69275000   -6,030616164e-01   -2,005678974e-02
       69350000   -5,990979075e-01   -1,964248903e-02
       69425000   -5,971370339e-01   -1,585846022e-02
       69500000   -5,935382247e-01   -1,411597058e-02
       69575000   -5,909121633e-01   -1,118610613e-02
       69650000   -5,876702070e-01   -9,638459422e-03
       69725000   -5,852674246e-01   -7,952614687e-03
       69800000   -5,810169578e-01   -5,710467696e-03
       69875000   -5,795322657e-01   -3,955975175e-03
       69950000   -5,763615370e-01   -1,638502814e-03
       70025000   -5,727109909e-01   -5,233387928e-04
       70100000   -5,725220442e-01    1,533975010e-03
       70175000   -5,683416724e-01    4,012967926e-03
       70250000   -5,661012530e-01    3,505522152e-03
       70325000   -5,635496974e-01    6,726447027e-03
       70400000   -5,609472394e-01    7,631227840e-03
       70475000   -5,592553020e-01    9,299798869e-03
       70550000   -5,562316775e-01    1,110700238e-02
       70625000   -5,536598563e-01    1,091697533e-02
       70700000   -5,526304841e-01    1,314595621e-02
       70775000   -5,497967005e-01    1,561574824e-02
       70850000   -5,482015014e-01    1,563121937e-02
       70925000   -5,460076332e-01    1,695707813e-02
       71000000   -5,446157455e-01    1,740323007e-02
       71075000   -5,436118841e-01    1,974326000e-02
       71150000   -5,408244729e-01    2,175089531e-02
       71225000   -5,395957828e-01    2,322697453e-02
       71300000   -5,368240476e-01    2,393233590e-02
       71375000   -5,353764892e-01    2,528485097e-02
       71450000   -5,337624550e-01    2,746034600e-02
       71525000   -5,314877033e-01    2,893694676e-02
       71600000   -5,301961899e-01    3,025341220e-02
       71675000   -5,288363695e-01    3,193444386e-02
       71750000   -5,273447037e-01    3,274077550e-02
       71825000   -5,251513124e-01    3,502652794e-02
       71900000   -5,227838159e-01    3,631686047e-02
       71975000   -5,217371583e-01    3,834758699e-02
       72050000   -5,201572180e-01    3,873385116e-02
       72125000   -5,178879499e-01    4,079620540e-02
       72200000   -5,167341232e-01    4,087671638e-02
       72275000   -5,149723887e-01    4,431439564e-02
       72350000   -5,133012533e-01    4,506632313e-02
       72425000   -5,119792223e-01    4,691284522e-02
       72500000   -5,101168752e-01    4,765233025e-02
       72575000   -5,094950795e-01    5,003913864e-02
       72650000   -5,077956319e-01    5,093575642e-02
       72725000   -5,054014325e-01    5,218031257e-02
       72800000   -5,049461722e-01    5,359295756e-02
       72875000   -5,026634336e-01    5,492996052e-02
       72950000   -5,018261671e-01    5,625830218e-02
       73025000   -5,008125305e-01    5,779578537e-02
       73100000   -4,991268814e-01    5,890719965e-02
       73175000   -4,974586070e-01    6,138200685e-02
       73250000   -4,967141747e-01    6,182844192e-02
       73325000   -4,954135418e-01    6,356023997e-02
       73400000   -4,929687381e-01    6,608568877e-02
       73475000   -4,922962189e-01    6,720913202e-02
       73550000   -4,898479879e-01    6,914866716e-02
       73625000   -4,882906973e-01    7,033059746e-02
       73700000   -4,873853922e-01    7,177425176e-02
       73775000   -4,859275222e-01    7,385580242e-02
       73850000   -4,850038886e-01    7,506784797e-02
       73925000   -4,831584990e-01    7,764916867e-02
       74000000   -4,829829633e-01    7,864446938e-02
       74075000   -4,805696905e-01    8,141067624e-02
       74150000   -4,796404839e-01    8,196187019e-02
       74225000   -4,778373539e-01    8,354610950e-02
       74300000   -4,763050973e-01    8,539108932e-02
       74375000   -4,749900401e-01    8,781863749e-02
       74450000   -4,729899764e-01    8,844098449e-02
       74525000   -4,718079269e-01    9,006294608e-02
       74600000   -4,697681069e-01    9,197106957e-02
       74675000   -4,696441889e-01    9,392378479e-02
       74750000   -4,669381678e-01    9,545866400e-02
       74825000   -4,658887088e-01    9,721258283e-02
       74900000   -4,651827812e-01    9,925454855e-02
       74975000   -4,617021680e-01    9,936444461e-02
       75050000   -4,617994428e-01    1,019137800e-01
       75125000   -4,594957232e-01    1,036883593e-01
       75200000   -4,577655494e-01    1,050782353e-01
       75275000   -4,551925957e-01    1,065255925e-01
       75350000   -4,552533925e-01    1,085502207e-01
       75425000   -4,534291625e-01    1,091528460e-01
       75500000   -4,526087642e-01    1,105814427e-01
       75575000   -4,509319365e-01    1,123341545e-01
       75650000   -4,489518106e-01    1,134674624e-01
       75725000   -4,470179677e-01    1,152479574e-01
       75800000   -4,465565085e-01    1,160839871e-01
       75875000   -4,441294968e-01    1,182619780e-01
       75950000   -4,425344169e-01    1,183087826e-01
       76025000   -4,416878819e-01    1,213365942e-01
       76100000   -4,403596520e-01    1,221674979e-01
       76175000   -4,390818179e-01    1,229867861e-01
       76250000   -4,366031289e-01    1,250966638e-01
       76325000   -4,354447126e-01    1,257894337e-01
       76400000   -4,339342713e-01    1,273020655e-01
       76475000   -4,318686128e-01    1,295828074e-01
       76550000   -4,311185777e-01    1,309063286e-01
       76625000   -4,296022058e-01    1,324750930e-01
       76700000   -4,278401732e-01    1,330143809e-01
       76775000   -4,270468652e-01    1,337894797e-01
       76850000   -4,257169366e-01    1,351152062e-01
       76925000   -4,245453179e-01    1,364924759e-01
       77000000   -4,230706394e-01    1,378994286e-01
       77075000   -4,219333529e-01    1,397200525e-01
       77150000   -4,206498563e-01    1,402844191e-01
       77225000   -4,193459153e-01    1,417074054e-01
       77300000   -4,171278179e-01    1,429885030e-01
       77375000   -4,173375368e-01    1,441228390e-01
       77450000   -4,155516922e-01    1,455292106e-01
       77525000   -4,154451489e-01    1,459923536e-01
       77600000   -4,140627980e-01    1,478002220e-01
       77675000   -4,127853811e-01    1,485527754e-01
       77750000   -4,122369289e-01    1,493501514e-01
       77825000   -4,127848446e-01    1,502332091e-01
       77900000   -4,115500152e-01    1,519935429e-01
       77975000   -4,105380177e-01    1,531401426e-01
       78050000   -4,114883244e-01    1,544831395e-01
       78125000   -4,108768404e-01    1,558721513e-01
       78200000   -4,099792242e-01    1,579352319e-01
       78275000   -4,115092754e-01    1,602921039e-01
       78350000   -4,099934697e-01    1,625316143e-01
       78425000   -4,113950133e-01    1,648495644e-01
       78500000   -4,104661047e-01    1,675383598e-01
       78575000   -4,113254547e-01    1,716815680e-01
       78650000   -4,088800848e-01    1,740028411e-01
       78725000   -4,066095352e-01    1,761872172e-01
       78800000   -4,054416120e-01    1,795209199e-01
       78875000   -4,050619602e-01    1,816688478e-01
       78950000   -4,043999612e-01    1,841692030e-01
       79025000   -4,024810791e-01    1,859485954e-01
       79100000   -4,023070335e-01    1,889175475e-01
       79175000   -4,006530643e-01    1,908636093e-01
       79250000   -3,991503417e-01    1,929061264e-01
       79325000   -3,994596899e-01    1,967945993e-01
       79400000   -3,972949088e-01    1,991556883e-01
       79475000   -3,970064521e-01    2,017216384e-01
       79550000   -3,946639597e-01    2,039732486e-01
       79625000   -3,934577703e-01    2,067541480e-01
       79700000   -3,923994601e-01    2,105435282e-01
       79775000   -3,916121721e-01    2,124780864e-01
       79850000   -3,893942535e-01    2,143373787e-01
       79925000   -3,898842633e-01    2,179000229e-01
       80000000   -3,867899776e-01    2,216030508e-01
       80075000   -3,854215145e-01    2,238434702e-01
       80150000   -3,854061663e-01    2,270993888e-01
       80225000   -3,831033111e-01    2,294042110e-01
       80300000   -3,815330267e-01    2,321488261e-01
       80375000   -3,803767860e-01    2,369655371e-01
       80450000   -3,781510592e-01    2,395480126e-01
       80525000   -3,763960302e-01    2,426896244e-01
       80600000   -3,753108978e-01    2,463777512e-01
       80675000   -3,737367988e-01    2,487909198e-01
       80750000   -3,709726334e-01    2,525218427e-01
       80825000   -3,692684472e-01    2,560516894e-01
       80900000   -3,669237494e-01    2,594335973e-01
       80975000   -3,651241660e-01    2,622551322e-01
       81050000   -3,627120256e-01    2,664239705e-01
       81125000   -3,607388735e-01    2,698414028e-01
       81200000   -3,573017120e-01    2,726023495e-01
       81275000   -3,554343879e-01    2,761864066e-01
       81350000   -3,526888192e-01    2,784675956e-01
       81425000   -3,505771458e-01    2,818793356e-01
       81500000   -3,474020660e-01    2,848904133e-01
       81575000   -3,449202478e-01    2,882681787e-01
       81650000   -3,432252407e-01    2,923647165e-01
       81725000   -3,396806419e-01    2,959486544e-01
       81800000   -3,363649547e-01    2,992068231e-01
       81875000   -3,335762620e-01    3,027396798e-01
       81950000   -3,300562203e-01    3,050059378e-01
       82025000   -3,281857967e-01    3,090330362e-01
       82100000   -3,246442676e-01    3,115349710e-01
       82175000   -3,220300674e-01    3,146738410e-01
       82250000   -3,171979189e-01    3,179534674e-01
       82325000   -3,144837022e-01    3,215488493e-01
       82400000   -3,098539114e-01    3,251019716e-01
       82475000   -3,070927858e-01    3,280930221e-01
       82550000   -3,036343157e-01    3,310641646e-01
       82625000   -2,998372614e-01    3,339215517e-01
       82700000   -2,965904176e-01    3,377010226e-01
       82775000   -2,916307151e-01    3,405902088e-01
       82850000   -2,881845832e-01    3,432169855e-01
       82925000   -2,846848071e-01    3,476118445e-01
       83000000   -2,809102237e-01    3,502989709e-01
       83075000   -2,756558061e-01    3,528595567e-01
       83150000   -2,716389298e-01    3,558793366e-01
       83225000   -2,669698894e-01    3,576177955e-01
       83300000   -2,636280060e-01    3,602286279e-01
       83375000   -2,578741610e-01    3,633009195e-01
       83450000   -2,540130317e-01    3,662758172e-01
       83525000   -2,477655262e-01    3,686257005e-01
       83600000   -2,430842668e-01    3,718802035e-01
       83675000   -2,387066483e-01    3,737941086e-01
       83750000   -2,337336391e-01    3,763910532e-01
       83825000   -2,285538912e-01    3,781893253e-01
       83900000   -2,239830941e-01    3,821972907e-01
       83975000   -2,181207836e-01    3,828884065e-01
       84050000   -2,137306780e-01    3,845163584e-01
       84125000   -2,085982263e-01    3,873501122e-01
       84200000   -2,024843097e-01    3,877567351e-01
       84275000   -1,979086399e-01    3,903211355e-01
       84350000   -1,922108382e-01    3,918497264e-01
       84425000   -1,866877973e-01    3,936155438e-01
       84500000   -1,818037033e-01    3,952049315e-01
       84575000   -1,758571565e-01    3,972608745e-01
       84650000   -1,708173007e-01    3,979191482e-01
       84725000   -1,647884101e-01    3,992760777e-01
       84800000   -1,588802785e-01    4,006538689e-01
       84875000   -1,520972252e-01    4,011003971e-01
       84950000   -1,461752951e-01    4,027085304e-01
       85025000   -1,401222348e-01    4,030306637e-01
       85100000   -1,344133019e-01    4,041350186e-01
       85175000   -1,284255683e-01    4,046911299e-01
       85250000   -1,226985306e-01    4,049387872e-01
       85325000   -1,170034632e-01    4,046685100e-01
       85400000   -1,104695350e-01    4,051234424e-01
       85475000   -1,043107212e-01    4,039839804e-01
       85550000   -9,820789844e-02    4,041819274e-01
       85625000   -9,281125665e-02    4,037482142e-01
       85700000   -8,747572452e-02    4,035752416e-01
       85775000   -8,038957417e-02    4,026636481e-01
       85850000   -7,459301502e-02    4,022270441e-01
       85925000   -6,808889657e-02    4,011588395e-01
       86000000   -6,259549409e-02    4,001715183e-01
       86075000   -5,667196587e-02    3,987788558e-01
       86150000   -5,263625458e-02    3,968802989e-01
       86225000   -4,596444592e-02    3,961633444e-01
       86300000   -4,010063410e-02    3,942999840e-01
       86375000   -3,504583985e-02    3,912514448e-01
       86450000   -2,962038666e-02    3,897841573e-01
       86525000   -2,465701103e-02    3,883898258e-01
       86600000   -1,858667098e-02    3,858911097e-01
       86675000   -1,370369829e-02    3,834464848e-01
       86750000   -8,881624788e-03    3,817456961e-01
       86825000   -3,614231711e-03    3,785077035e-01
       86900000    5,803190288e-04    3,762435615e-01
       86975000    4,497983959e-03    3,737970889e-01
       87050000    9,551060386e-03    3,710992038e-01
       87125000    1,384888310e-02    3,689009845e-01
       87200000    1,791374758e-02    3,654085994e-01
       87275000    2,206458710e-02    3,640505075e-01
       87350000    2,603857405e-02    3,614862263e-01
       87425000    2,980694175e-02    3,584556282e-01
       87500000    3,482809663e-02    3,575724959e-01
       87575000    3,709016740e-02    3,523770869e-01
       87650000    4,034162313e-02    3,499606252e-01
       87725000    4,321657494e-02    3,489777446e-01
       87800000    4,790579900e-02    3,440197706e-01
       87875000    5,145285651e-02    3,415089548e-01
       87950000    5,402557924e-02    3,383899629e-01
       88025000    5,725465342e-02    3,360725641e-01
       88100000    6,056184322e-02    3,329570591e-01
       88175000    6,413103640e-02    3,301035166e-01
       88250000    6,715152413e-02    3,273935020e-01
       88325000    6,916053593e-02    3,249717653e-01
       88400000    7,228299230e-02    3,213821948e-01
       88475000    7,597002387e-02    3,181197643e-01
       88550000    7,786287367e-02    3,155882061e-01
       88625000    8,051910996e-02    3,126629889e-01
       88700000    8,314968646e-02    3,093228936e-01
       88775000    8,527299017e-02    3,055958152e-01
       88850000    8,766987175e-02    3,020854294e-01
       88925000    9,038349986e-02    2,990534902e-01
       89000000    9,151476622e-02    2,956814766e-01
       89075000    9,267821163e-02    2,919804156e-01
       89150000    9,403990954e-02    2,884165943e-01
       89225000    9,542800486e-02    2,854551375e-01
       89300000    9,653942287e-02    2,819601893e-01
       89375000    9,765489399e-02    2,780303359e-01
       89450000    9,754718840e-02    2,746773958e-01
       89525000    9,793105721e-02    2,728139758e-01
       89600000    9,790262580e-02    2,699117959e-01
       89675000    9,743755311e-02    2,665705383e-01
       89750000    9,672447294e-02    2,638283968e-01
       89825000    9,572860599e-02    2,610013783e-01
       89900000    9,509383142e-02    2,594184875e-01
       89975000    9,380393475e-02    2,585265934e-01
       90050000    9,320720285e-02    2,565149665e-01
       90125000    9,132055938e-02    2,564636171e-01
       90200000    8,952838182e-02    2,556898594e-01
       90275000    8,896184713e-02    2,561260760e-01
       90350000    8,797575533e-02    2,547603548e-01
       90425000    8,572002500e-02    2,563639283e-01
       90500000    8,481340855e-02    2,570195496e-01
       90575000    8,392618597e-02    2,583391964e-01
       90650000    8,328267932e-02    2,606838048e-01
       90725000    8,373923600e-02    2,617692053e-01
       90800000    8,294885606e-02    2,637405396e-01
       90875000    8,324892074e-02    2,664224207e-01
       90950000    8,379565179e-02    2,687815130e-01
       91025000    8,541300893e-02    2,719754577e-01
       91100000    8,564341813e-02    2,745794058e-01
       91175000    8,620355278e-02    2,778112292e-01
       91250000    8,856586367e-02    2,813765109e-01
       91325000    8,990862221e-02    2,849412560e-01
       91400000    9,237444401e-02    2,876093984e-01
       91475000    9,529773891e-02    2,901363969e-01
       91550000    9,890377522e-02    2,924573123e-01
       91625000    1,021042466e-01    2,950745523e-01
       91700000    1,064917371e-01    2,992230952e-01
       91775000    1,098471507e-01    3,024141490e-01
       91850000    1,142624542e-01    3,046483099e-01
       91925000    1,183347255e-01    3,075985014e-01
