! NanoVNA-App
! Date: 2025-08-02 16:19:16
! Start: 65MHz Stop: 95MHz Points: 401
! S-Parameter data: F S11
# Hz S RI R 50
!     Frequency           S11_Real           S11_Imag
       65000000   -3,673614860e-01    1,509372592e-01
       65075000   -3,649863303e-01    1,502910703e-01
       65150000   -3,562277555e-01    1,517360061e-01
       65225000   -3,507551551e-01    1,534752399e-01
       65300000   -3,432125449e-01    1,551791281e-01
       65375000   -3,349116743e-01    1,553367376e-01
       65450000   -3,286424875e-01    1,566104740e-01
       65525000   -3,207882047e-01    1,567281634e-01
       65600000   -3,139016628e-01    1,569560319e-01
       65675000   -3,064528108e-01    1,568404436e-01
       65750000   -2,989585698e-01    1,562881321e-01
       65825000   -2,920170426e-01    1,559597999e-01
       65900000   -2,858889997e-01    1,560876369e-01
       65975000   -2,790884972e-01    1,552442908e-01
       66050000   -2,729941308e-01    1,541342288e-01
       66125000   -2,667409480e-01    1,526160091e-01
       66200000   -2,607724667e-01    1,509469450e-01
       66275000   -2,559112310e-01    1,501993090e-01
       66350000   -2,492482513e-01    1,485285610e-01
       66425000   -2,433314770e-01    1,471432894e-01
       66500000   -2,375883013e-01    1,460438818e-01
       66575000   -2,326120138e-01    1,446196735e-01
       66650000   -2,266490757e-01    1,439116299e-01
       66725000   -2,230568230e-01    1,423612386e-01
       66800000   -2,176720649e-01    1,420477033e-01
       66875000   -2,120955586e-01    1,399283558e-01
       66950000   -2,071362138e-01    1,392411888e-01
       67025000   -2,020936906e-01    1,378620118e-01
       67100000   -1,962192655e-01    1,359478831e-01
       67175000   -1,897222549e-01    1,337874681e-01
       67250000   -1,835408956e-01    1,324072182e-01
       67325000   -1,777919680e-01    1,303758472e-01
       67400000   -1,734441519e-01    1,279834211e-01
       67475000   -1,671926379e-01    1,265879869e-01
       67550000   -1,614439338e-01    1,226325929e-01
       67625000   -1,573134661e-01    1,195966154e-01
       67700000   -1,519349515e-01    1,169238091e-01
       67775000   -1,475479752e-01    1,126294583e-01
       67850000   -1,434252560e-01    1,093053892e-01
       67925000   -1,389464140e-01    1,060259491e-01
       68000000   -1,349655837e-01    1,017628908e-01
       68075000   -1,303281188e-01    9,862910211e-02
       68150000   -1,278127879e-01    9,496996552e-02
       68225000   -1,234083176e-01    9,204205871e-02
       68300000   -1,203877404e-01    8,811543137e-02
       68375000   -1,169666722e-01    8,543323725e-02
       68450000   -1,144139618e-01    8,099344373e-02
       68525000   -1,124261469e-01    7,758957148e-02
       68600000   -1,094364598e-01    7,354987413e-02
       68675000   -1,066779792e-01    7,048115134e-02
       68750000   -1,033214256e-01    6,636993587e-02
       68825000   -1,024397761e-01    6,255271286e-02
       68900000   -9,945278615e-02    5,931142718e-02
       68975000   -9,832964092e-02    5,487711355e-02
       69050000   -9,595622122e-02    5,213532597e-02
       69125000   -9,478961676e-02    4,823844880e-02
       69200000   -9,256052971e-02    4,526643082e-02
       69275000   -9,267255664e-02    4,138524085e-02
       69350000   -9,082964063e-02    3,891381621e-02
       69425000   -8,992262930e-02    3,524938971e-02
       69500000   -8,877872676e-02    3,235219046e-02
       69575000   -8,809550107e-02    2,898613177e-02
       69650000   -8,685756475e-02    2,636528015e-02
       69725000   -8,716221899e-02    2,386231720e-02
       69800000   -8,611822873e-02    2,113810927e-02
       69875000   -8,579292148e-02    1,748470403e-02
       69950000   -8,553999662e-02    1,659261994e-02
       70025000   -8,489901572e-02    1,395565644e-02
       70100000   -8,458556980e-02    1,172081754e-02
       70175000   -8,476219326e-02    1,032080408e-02
       70250000   -8,402850479e-02    7,245560177e-03
       70325000   -8,382700384e-02    5,529161543e-03
       70400000   -8,302616328e-02    4,216597416e-03
       70475000   -8,351323009e-02    1,746181166e-03
       70550000   -8,384636790e-02    4,794239940e-04
       70625000   -8,261263371e-02   -1,011528191e-03
       70700000   -8,240959793e-02   -3,204968059e-03
       70775000   -8,183891326e-02   -4,089049995e-03
       70850000   -8,147464693e-02   -6,010962650e-03
       70925000   -8,094652742e-02   -7,187335752e-03
       71000000   -8,049350232e-02   -9,198270738e-03
       71075000   -8,065032959e-02   -1,080892980e-02
       71150000   -8,010801673e-02   -1,151229069e-02
       71225000   -7,939060032e-02   -1,312394999e-02
       71300000   -7,862090319e-02   -1,491786353e-02
       71375000   -7,849865407e-02   -1,543657761e-02
       71450000   -7,756187767e-02   -1,744028553e-02
       71525000   -7,770489156e-02   -1,943802461e-02
       71600000   -7,656107843e-02   -2,066976391e-02
       71675000   -7,752067596e-02   -2,219939418e-02
       71750000   -7,694544643e-02   -2,379850298e-02
       71825000   -7,554275542e-02   -2,510019206e-02
       71900000   -7,575073838e-02   -2,670159936e-02
       71975000   -7,673049718e-02   -2,750857733e-02
       72050000   -7,552515715e-02   -3,022671118e-02
       72125000   -7,546524704e-02   -3,033249453e-02
       72200000   -7,617757469e-02   -3,266281635e-02
       72275000   -7,512846589e-02   -3,370423988e-02
       72350000   -7,447917014e-02   -3,532326967e-02
       72425000   -7,689736038e-02   -3,581797704e-02
       72500000   -7,535806298e-02   -3,793536127e-02
       72575000   -7,761900127e-02   -3,985545784e-02
       72650000   -7,580215484e-02   -4,139304161e-02
       72725000   -7,671040297e-02   -4,218080640e-02
       72800000   -7,935880125e-02   -4,281770065e-02
       72875000   -7,737622410e-02   -4,508585483e-02
       72950000   -7,869244367e-02   -4,563645273e-02
       73025000   -8,077705652e-02   -4,488098621e-02
       73100000   -7,910703123e-02   -4,786416888e-02
       73175000   -7,964196056e-02   -4,805789515e-02
       73250000   -8,180085570e-02   -4,852123559e-02
       73325000   -8,151610196e-02   -5,076897889e-02
       73400000   -8,179242164e-02   -5,072564259e-02
       73475000   -8,340769261e-02   -5,000483245e-02
       73550000   -8,318013698e-02   -5,188991874e-02
       73625000   -8,387479931e-02   -5,294108391e-02
       73700000   -8,453856409e-02   -5,106703565e-02
       73775000   -8,583272249e-02   -5,349268392e-02
       73850000   -8,579871804e-02   -5,291148648e-02
       73925000   -8,596777916e-02   -5,209084973e-02
       74000000   -8,836348355e-02   -5,354176089e-02
       74075000   -8,718305826e-02   -5,385994166e-02
       74150000   -8,764035255e-02   -5,281899124e-02
       74225000   -8,885277063e-02   -5,394011736e-02
       74300000   -8,973831683e-02   -5,362412706e-02
       74375000   -8,923237026e-02   -5,303484946e-02
       74450000   -9,131850302e-02   -5,383504182e-02
       74525000   -9,111481160e-02   -5,341161042e-02
       74600000   -9,117063880e-02   -5,265644938e-02
       74675000   -9,209600091e-02   -5,236446485e-02
       74750000   -9,323192388e-02   -5,319871008e-02
       74825000   -9,183935076e-02   -5,096285418e-02
       74900000   -9,298955649e-02   -5,159597844e-02
       74975000   -9,396046400e-02   -5,181752518e-02
       75050000   -9,275892377e-02   -5,093407258e-02
       75125000   -9,455735981e-02   -5,032613501e-02
       75200000   -9,446486086e-02   -5,001275241e-02
       75275000   -9,454776347e-02   -5,031045154e-02
       75350000   -9,435421973e-02   -4,922822118e-02
       75425000   -9,602024406e-02   -4,881522059e-02
       75500000   -9,515244514e-02   -4,749277979e-02
       75575000   -9,532707930e-02   -4,859752208e-02
       75650000   -9,627175331e-02   -4,665702209e-02
       75725000   -9,694899619e-02   -4,659986869e-02
       75800000   -9,564097971e-02   -4,633435234e-02
       75875000   -9,741102159e-02   -4,527109489e-02
       75950000   -9,790385514e-02   -4,431135952e-02
       76025000   -9,607040882e-02   -4,465433583e-02
       76100000   -9,865130484e-02   -4,317299649e-02
       76175000   -9,809524566e-02   -4,225451872e-02
       76250000   -9,789823741e-02   -4,293912649e-02
       76325000   -9,895686060e-02   -3,988620266e-02
       76400000   -9,911254793e-02   -3,996688873e-02
       76475000   -9,938070923e-02   -3,992816061e-02
       76550000   -1,000325084e-01   -3,741065413e-02
       76625000   -9,991884977e-02   -3,603234887e-02
       76700000   -1,003002301e-01   -3,583480418e-02
       76775000   -1,006057411e-01   -3,390689567e-02
       76850000   -1,007448062e-01   -3,318021819e-02
       76925000   -1,013682857e-01   -3,305809200e-02
       77000000   -1,011343747e-01   -3,026402928e-02
       77075000   -1,016514972e-01   -2,937425300e-02
       77150000   -1,017697230e-01   -2,841508575e-02
       77225000   -1,026168764e-01   -2,649161406e-02
       77300000   -1,025499329e-01   -2,377554402e-02
       77375000   -1,024683565e-01   -2,330730855e-02
       77450000   -1,024583802e-01   -1,931118034e-02
       77525000   -1,024239883e-01   -1,708896831e-02
       77600000   -1,012715623e-01   -1,610742137e-02
       77675000   -1,006692126e-01   -1,376374159e-02
       77750000   -9,997486323e-02   -1,139153540e-02
       77825000   -1,001442224e-01   -1,039802190e-02
       77900000   -9,959378839e-02   -7,832738571e-03
       77975000   -9,810438752e-02   -4,861526657e-03
       78050000   -9,802284092e-02   -3,742052475e-03
       78125000   -9,684065729e-02   -8,293094579e-04
       78200000   -9,489886463e-02    1,473919372e-03
       78275000   -9,442020953e-02    3,638083348e-03
       78350000   -9,379716963e-02    5,680538248e-03
       78425000   -9,251587838e-02    8,730106987e-03
       78500000   -9,051955491e-02    1,087550726e-02
       78575000   -8,965915442e-02    1,280337665e-02
       78650000   -8,761844784e-02    1,626579463e-02
       78725000   -8,483449370e-02    1,768514514e-02
       78800000   -8,454116434e-02    1,990994625e-02
       78875000   -8,183199167e-02    2,264873497e-02
       78950000   -7,994958758e-02    2,490915917e-02
       79025000   -7,815847546e-02    2,735059336e-02
       79100000   -7,508359104e-02    2,926512994e-02
       79175000   -7,296305150e-02    3,088770993e-02
       79250000   -7,007890940e-02    3,280948102e-02
       79325000   -6,672735512e-02    3,500851989e-02
       79400000   -6,362305582e-02    3,695113957e-02
       79475000   -6,224615499e-02    3,826388717e-02
       79550000   -5,834431201e-02    4,014043882e-02
       79625000   -5,528110266e-02    4,147262871e-02
       79700000   -5,351028591e-02    4,316118732e-02
       79775000   -4,899176210e-02    4,460460320e-02
       79850000   -4,643485323e-02    4,481875896e-02
       79925000   -4,363011941e-02    4,673706368e-02
       80000000   -4,010212049e-02    4,796253890e-02
       80075000   -3,679578006e-02    4,816858470e-02
       80150000   -3,401817754e-02    4,934728146e-02
       80225000   -3,080070764e-02    5,079231411e-02
       80300000   -2,708123252e-02    5,129900202e-02
       80375000   -2,376334928e-02    5,194241926e-02
       80450000   -1,962530799e-02    5,164930597e-02
       80525000   -1,720286533e-02    5,297224596e-02
       80600000   -1,311297435e-02    5,229327828e-02
       80675000   -1,065780129e-02    5,266973004e-02
       80750000   -7,023637183e-03    5,392106622e-02
       80825000   -3,100460628e-03    5,255346000e-02
       80900000   -3,235067998e-04    5,264212936e-02
       80975000    3,603124060e-03    5,357743427e-02
       81050000    6,760661025e-03    5,157845840e-02
       81125000    9,895202704e-03    5,182026699e-02
       81200000    1,372284815e-02    5,146156624e-02
       81275000    1,646565832e-02    4,984661564e-02
       81350000    1,991790719e-02    4,900723696e-02
       81425000    2,264525555e-02    4,829323664e-02
       81500000    2,548808232e-02    4,727298766e-02
       81575000    2,785125002e-02    4,575217143e-02
       81650000    3,088515438e-02    4,542887956e-02
       81725000    3,284702450e-02    4,450786486e-02
       81800000    3,562067822e-02    4,242795706e-02
       81875000    3,741227090e-02    4,169437289e-02
       81950000    4,026001692e-02    4,014007375e-02
       82025000    4,189481214e-02    3,951005638e-02
       82100000    4,459065571e-02    3,810067475e-02
       82175000    4,636104032e-02    3,704139963e-02
       82250000    4,863061756e-02    3,669008613e-02
       82325000    4,959791899e-02    3,446810320e-02
       82400000    5,174674466e-02    3,439978138e-02
       82475000    5,372253433e-02    3,340293840e-02
       82550000    5,487297103e-02    3,253785521e-02
       82625000    5,643852428e-02    3,163535148e-02
       82700000    5,748014897e-02    3,173101321e-02
       82775000    5,980122834e-02    3,030746058e-02
       82850000    6,095517799e-02    3,072623163e-02
       82925000    6,343546510e-02    2,986994013e-02
       83000000    6,385660172e-02    2,958372422e-02
       83075000    6,672716886e-02    2,846868522e-02
       83150000    6,735016406e-02    2,921158820e-02
       83225000    7,001427561e-02    2,843847498e-02
       83300000    7,114536315e-02    2,824979089e-02
       83375000    7,332123816e-02    2,810113505e-02
       83450000    7,442017645e-02    2,787489071e-02
       83525000    7,667594403e-02    2,739964612e-02
       83600000    7,881312817e-02    2,715352364e-02
       83675000    8,028447628e-02    2,776624076e-02
       83750000    8,310105652e-02    2,706143819e-02
       83825000    8,429398388e-02    2,728847973e-02
       83900000    8,685485274e-02    2,770442702e-02
       83975000    8,881439269e-02    2,646608837e-02
       84050000    9,104821086e-02    2,732826211e-02
       84125000    9,300648421e-02    2,716630325e-02
       84200000    9,515952319e-02    2,651585266e-02
       84275000    9,730242193e-02    2,719231881e-02
       84350000    9,979305416e-02    2,607477829e-02
       84425000    1,017631441e-01    2,642891370e-02
       84500000    1,044841856e-01    2,641307563e-02
       84575000    1,071498990e-01    2,616566233e-02
       84650000    1,089845747e-01    2,588495612e-02
       84725000    1,120058373e-01    2,624825388e-02
       84800000    1,144940406e-01    2,608530223e-02
       84875000    1,168300211e-01    2,524055541e-02
       84950000    1,191940308e-01    2,566683665e-02
       85025000    1,219382808e-01    2,590888180e-02
       85100000    1,249478832e-01    2,520387806e-02
       85175000    1,268026531e-01    2,518932894e-02
       85250000    1,304663718e-01    2,501495555e-02
       85325000    1,325867623e-01    2,494756132e-02
       85400000    1,359213144e-01    2,482735924e-02
       85475000    1,397494376e-01    2,420028672e-02
       85550000    1,421505809e-01    2,375682071e-02
       85625000    1,446326822e-01    2,415003628e-02
       85700000    1,480904222e-01    2,342465892e-02
       85775000    1,514131278e-01    2,319392003e-02
       85850000    1,552314013e-01    2,267878316e-02
       85925000    1,588481814e-01    2,204871736e-02
       86000000    1,621887237e-01    2,193438634e-02
       86075000    1,653670371e-01    2,124607190e-02
       86150000    1,698038727e-01    2,051088214e-02
       86225000    1,728040427e-01    1,934761927e-02
       86300000    1,776082218e-01    1,888994128e-02
       86375000    1,814735681e-01    1,711114123e-02
       86450000    1,841210127e-01    1,696744189e-02
       86525000    1,889850348e-01    1,570386440e-02
       86600000    1,932436228e-01    1,296433154e-02
       86675000    1,960834861e-01    1,234803721e-02
       86750000    2,009532601e-01    1,041817944e-02
       86825000    2,054382563e-01    8,105902001e-03
       86900000    2,071353048e-01    6,619130727e-03
       86975000    2,115536183e-01    5,333384965e-03
       87050000    2,164953053e-01    3,138650209e-03
       87125000    2,205272019e-01    1,376012340e-03
       87200000    2,235603780e-01   -9,722075192e-04
       87275000    2,281235158e-01   -3,365821671e-03
       87350000    2,318796068e-01   -5,904543679e-03
       87425000    2,350499332e-01   -8,240345865e-03
       87500000    2,390694022e-01   -1,050156076e-02
       87575000    2,420431525e-01   -1,362946257e-02
       87650000    2,464595437e-01   -1,596976630e-02
       87725000    2,488583922e-01   -2,135389857e-02
       87800000    2,535525858e-01   -2,316576615e-02
       87875000    2,566592097e-01   -2,580117993e-02
       87950000    2,591547370e-01   -2,859851345e-02
       88025000    2,630802095e-01   -3,114736266e-02
       88100000    2,671672404e-01   -3,428261355e-02
       88175000    2,695622742e-01   -3,872600943e-02
       88250000    2,730810046e-01   -4,048551992e-02
       88325000    2,764495611e-01   -4,339353740e-02
       88400000    2,786080837e-01   -4,664915428e-02
       88475000    2,832464874e-01   -5,018755421e-02
       88550000    2,847639918e-01   -5,306087062e-02
       88625000    2,892308235e-01   -5,702997372e-02
       88700000    2,920121849e-01   -5,973236263e-02
       88775000    2,962286472e-01   -6,433690339e-02
       88850000    2,971392870e-01   -6,697354466e-02
       88925000    3,024300337e-01   -7,123056799e-02
       89000000    3,044901192e-01   -7,496245950e-02
       89075000    3,074594736e-01   -7,791323960e-02
       89150000    3,112501204e-01   -8,239722252e-02
       89225000    3,137786388e-01   -8,474853635e-02
       89300000    3,169046640e-01   -8,869183809e-02
       89375000    3,192704022e-01   -9,291238338e-02
       89450000    3,238016367e-01   -9,758330882e-02
       89525000    3,254883289e-01   -1,033751816e-01
       89600000    3,286165595e-01   -1,062607765e-01
       89675000    3,312138617e-01   -1,108813658e-01
       89750000    3,335712850e-01   -1,159967929e-01
       89825000    3,353451192e-01   -1,188366115e-01
       89900000    3,396627307e-01   -1,238339990e-01
       89975000    3,409491181e-01   -1,283187270e-01
       90050000    3,446620405e-01   -1,338480264e-01
       90125000    3,461196423e-01   -1,405695230e-01
       90200000    3,499642611e-01   -1,440949887e-01
       90275000    3,519562781e-01   -1,488896459e-01
       90350000    3,528909087e-01   -1,546285152e-01
       90425000    3,551684916e-01   -1,623890251e-01
       90500000    3,587019444e-01   -1,668884605e-01
       90575000    3,607209623e-01   -1,700303257e-01
       90650000    3,625627458e-01   -1,763233989e-01
       90725000    3,651769161e-01   -1,822419763e-01
       90800000    3,665333390e-01   -1,875730604e-01
       90875000    3,684977293e-01   -1,935198903e-01
       90950000    3,673300743e-01   -1,984887272e-01
       91025000    3,706097007e-01   -2,048075050e-01
       91100000    3,699007034e-01   -2,111087739e-01
       91175000    3,719446063e-01   -2,176052332e-01
       91250000    3,713311553e-01   -2,238368094e-01
       91325000    3,735560179e-01   -2,300619781e-01
       91400000    3,738383353e-01   -2,377158105e-01
       91475000    3,754388392e-01   -2,422308326e-01
       91550000    3,752602339e-01   -2,497881353e-01
       91625000    3,757315874e-01   -2,536326349e-01
       91700000    3,757215440e-01   -2,619891465e-01
       91775000    3,747247756e-01   -2,657671869e-01
       91850000    3,755134642e-01   -2,729046643e-01
       91925000    3,725286424e-01   -2,786054015e-01
