! NanoVNA-App
! Date: 2025-08-09 13:35:37
! Start: 65MHz Stop: 95MHz Points: 401
! S-Parameter data: F S11
# Hz S RI R 50
!     Frequency           S11_Real           S11_Imag
       65000000   -3,151787817e-02    4,812992513e-01
       65075000   -2,926847152e-02    4,857226908e-01
       65150000   -2,434944361e-02    4,795202315e-01
       65225000   -1,797810197e-02    4,770666361e-01
       65300000   -1,297049783e-02    4,766057134e-01
       65375000   -1,011488587e-02    4,736701250e-01
       65450000   -6,138106808e-03    4,718652964e-01
       65525000   -5,895814975e-04    4,688585401e-01
       65600000    4,429658875e-03    4,657953084e-01
       65675000    8,416234516e-03    4,624398947e-01
       65750000    1,317333151e-02    4,594122171e-01
       65825000    1,910903864e-02    4,560037255e-01
       65900000    2,367698215e-02    4,539667368e-01
       65975000    2,828221954e-02    4,509417713e-01
       66050000    3,219699860e-02    4,494150281e-01
       66125000    3,617984429e-02    4,456969798e-01
       66200000    4,161201790e-02    4,421272874e-01
       66275000    4,504477233e-02    4,412820637e-01
       66350000    4,916098341e-02    4,377365410e-01
       66425000    5,507218465e-02    4,345781207e-01
       66500000    5,914422497e-02    4,324211180e-01
       66575000    6,292739511e-02    4,293536842e-01
       66650000    6,740874052e-02    4,270749092e-01
       66725000    6,903274357e-02    4,242033362e-01
       66800000    7,293012738e-02    4,219726920e-01
       66875000    7,730321586e-02    4,190084636e-01
       66950000    8,100289106e-02    4,165427387e-01
       67025000    8,596965671e-02    4,139032960e-01
       67100000    9,107647091e-02    4,106723070e-01
       67175000    9,508638829e-02    4,102807939e-01
       67250000    9,845574200e-02    4,063662291e-01
       67325000    1,030773520e-01    4,041694403e-01
       67400000    1,063248366e-01    4,019979239e-01
       67475000    1,108860523e-01    3,968956172e-01
       67550000    1,161200851e-01    3,944889009e-01
       67625000    1,193044782e-01    3,924257755e-01
       67700000    1,225468889e-01    3,892110586e-01
       67775000    1,277290285e-01    3,850509524e-01
       67850000    1,317816526e-01    3,828185201e-01
       67925000    1,353007257e-01    3,802315295e-01
       68000000    1,403355002e-01    3,758459687e-01
       68075000    1,423576474e-01    3,736256361e-01
       68150000    1,461879611e-01    3,696515560e-01
       68225000    1,499942094e-01    3,660701215e-01
       68300000    1,550489068e-01    3,620010316e-01
       68375000    1,579362005e-01    3,582823575e-01
       68450000    1,611710936e-01    3,558633327e-01
       68525000    1,657605171e-01    3,523261845e-01
       68600000    1,682216525e-01    3,485148847e-01
       68675000    1,706873477e-01    3,441690803e-01
       68750000    1,749089509e-01    3,392266035e-01
       68825000    1,773032099e-01    3,356715143e-01
       68900000    1,804640591e-01    3,308933675e-01
       68975000    1,838401854e-01    3,274630606e-01
       69050000    1,864814460e-01    3,232101202e-01
       69125000    1,897487342e-01    3,182187080e-01
       69200000    1,917366534e-01    3,145757616e-01
       69275000    1,943871975e-01    3,107994497e-01
       69350000    1,968459189e-01    3,069700897e-01
       69425000    1,981211901e-01    3,017205894e-01
       69500000    2,008485496e-01    2,975928485e-01
       69575000    2,026493400e-01    2,949254513e-01
       69650000    2,041893452e-01    2,906492054e-01
       69725000    2,051146328e-01    2,865505219e-01
       69800000    2,064936310e-01    2,824396491e-01
       69875000    2,080446631e-01    2,797316313e-01
       69950000    2,087411433e-01    2,741431892e-01
       70025000    2,104197145e-01    2,704848349e-01
       70100000    2,111677676e-01    2,661695480e-01
       70175000    2,127507776e-01    2,628446817e-01
       70250000    2,129058689e-01    2,592594326e-01
       70325000    2,132207602e-01    2,565259933e-01
       70400000    2,137486190e-01    2,525752187e-01
       70475000    2,137005031e-01    2,490023673e-01
       70550000    2,153455168e-01    2,460696250e-01
       70625000    2,155439109e-01    2,442233115e-01
       70700000    2,153524458e-01    2,402493656e-01
       70775000    2,166393399e-01    2,374870330e-01
       70850000    2,158485353e-01    2,346158326e-01
       70925000    2,167558670e-01    2,314900756e-01
       71000000    2,175385356e-01    2,309389114e-01
       71075000    2,172218561e-01    2,269424647e-01
       71150000    2,175799906e-01    2,254957408e-01
       71225000    2,189287692e-01    2,241164744e-01
       71300000    2,195767015e-01    2,216885090e-01
       71375000    2,198309004e-01    2,199508846e-01
       71450000    2,206086665e-01    2,167786062e-01
       71525000    2,206930071e-01    2,151718438e-01
       71600000    2,217964232e-01    2,127227187e-01
       71675000    2,220184058e-01    2,111867368e-01
       71750000    2,226212770e-01    2,095624506e-01
       71825000    2,232442647e-01    2,064312994e-01
       71900000    2,240910083e-01    2,053748369e-01
       71975000    2,251520604e-01    2,038089037e-01
       72050000    2,249272913e-01    2,012237757e-01
       72125000    2,254837900e-01    1,989695877e-01
       72200000    2,265326977e-01    1,985215694e-01
       72275000    2,262649536e-01    1,955102831e-01
       72350000    2,275103480e-01    1,938246340e-01
       72425000    2,281457633e-01    1,914051622e-01
       72500000    2,282392234e-01    1,908922046e-01
       72575000    2,298238426e-01    1,881528050e-01
       72650000    2,298949659e-01    1,876346916e-01
       72725000    2,308215350e-01    1,850038618e-01
       72800000    2,317992002e-01    1,833139211e-01
       72875000    2,321652919e-01    1,827433407e-01
       72950000    2,329192460e-01    1,798620671e-01
       73025000    2,337116450e-01    1,782319397e-01
       73100000    2,341345549e-01    1,771988720e-01
       73175000    2,346265465e-01    1,760904789e-01
       73250000    2,357081920e-01    1,742174178e-01
       73325000    2,370362580e-01    1,729306281e-01
       73400000    2,373303324e-01    1,717280298e-01
       73475000    2,384133935e-01    1,706754565e-01
       73550000    2,390537560e-01    1,691817641e-01
       73625000    2,397531271e-01    1,687441170e-01
       73700000    2,402968556e-01    1,660921276e-01
       73775000    2,414112985e-01    1,653193384e-01
       73850000    2,423154563e-01    1,634472758e-01
       73925000    2,427702844e-01    1,628046185e-01
       74000000    2,442384362e-01    1,606742293e-01
       74075000    2,445340455e-01    1,596280336e-01
       74150000    2,455035746e-01    1,588630825e-01
       74225000    2,470366657e-01    1,566987038e-01
       74300000    2,480481714e-01    1,553789973e-01
       74375000    2,487282306e-01    1,542220712e-01
       74450000    2,491226643e-01    1,525845528e-01
       74525000    2,505418062e-01    1,507916301e-01
       74600000    2,513396442e-01    1,497904956e-01
       74675000    2,518695295e-01    1,479768157e-01
       74750000    2,532301545e-01    1,466829330e-01
       74825000    2,544927895e-01    1,454129070e-01
       74900000    2,547582388e-01    1,440142393e-01
       74975000    2,554316819e-01    1,424073130e-01
       75050000    2,566335797e-01    1,411008537e-01
       75125000    2,575072646e-01    1,403323412e-01
       75200000    2,574044168e-01    1,374841034e-01
       75275000    2,579491436e-01    1,361570954e-01
       75350000    2,592512965e-01    1,351565421e-01
       75425000    2,593549490e-01    1,339382976e-01
       75500000    2,608778775e-01    1,325978935e-01
       75575000    2,619705498e-01    1,315435618e-01
       75650000    2,620432377e-01    1,292029768e-01
       75725000    2,622851133e-01    1,283607930e-01
       75800000    2,640226781e-01    1,269249469e-01
       75875000    2,639036179e-01    1,261517555e-01
       75950000    2,646871805e-01    1,247333735e-01
       76025000    2,656035721e-01    1,229906082e-01
       76100000    2,653256059e-01    1,218239218e-01
       76175000    2,668269277e-01    1,198603883e-01
       76250000    2,672573626e-01    1,200967953e-01
       76325000    2,680406868e-01    1,187851653e-01
       76400000    2,680208683e-01    1,171694249e-01
       76475000    2,689751685e-01    1,162802279e-01
       76550000    2,689715624e-01    1,155368090e-01
       76625000    2,689799964e-01    1,128456816e-01
       76700000    2,700788081e-01    1,127125546e-01
       76775000    2,713052928e-01    1,119613200e-01
       76850000    2,707324028e-01    1,108211353e-01
       76925000    2,717271149e-01    1,099529415e-01
       77000000    2,722054124e-01    1,082692966e-01
       77075000    2,714237273e-01    1,075397804e-01
       77150000    2,721435428e-01    1,063652188e-01
       77225000    2,724690437e-01    1,060580537e-01
       77300000    2,731571794e-01    1,056273952e-01
       77375000    2,730625570e-01    1,038672701e-01
       77450000    2,743050158e-01    1,045708433e-01
       77525000    2,737295032e-01    1,032952964e-01
       77600000    2,736856341e-01    1,025245860e-01
       77675000    2,739211917e-01    1,018056497e-01
       77750000    2,754386365e-01    1,020807847e-01
       77825000    2,747154534e-01    1,017228514e-01
       77900000    2,740876675e-01    1,013811976e-01
       77975000    2,751397789e-01    1,014350057e-01
       78050000    2,746424973e-01    1,018298492e-01
       78125000    2,752991915e-01    1,018951610e-01
       78200000    2,753552794e-01    1,043802574e-01
       78275000    2,765582502e-01    1,045109779e-01
       78350000    2,775532603e-01    1,051521078e-01
       78425000    2,795813382e-01    1,073492169e-01
       78500000    2,819358706e-01    1,080358103e-01
       78575000    2,833655179e-01    1,074787155e-01
       78650000    2,863100171e-01    1,079287529e-01
       78725000    2,885241210e-01    1,073789150e-01
       78800000    2,899143994e-01    1,068919674e-01
       78875000    2,917935848e-01    1,075728536e-01
       78950000    2,928724289e-01    1,063424498e-01
       79025000    2,951399088e-01    1,070505008e-01
       79100000    2,969153821e-01    1,063638628e-01
       79175000    2,987197638e-01    1,067678183e-01
       79250000    3,005506098e-01    1,063570008e-01
       79325000    3,025760353e-01    1,062492430e-01
       79400000    3,044349253e-01    1,071014777e-01
       79475000    3,066182733e-01    1,054516137e-01
       79550000    3,085944355e-01    1,064969674e-01
       79625000    3,110418916e-01    1,055061072e-01
       79700000    3,131397963e-01    1,063454077e-01
       79775000    3,148731291e-01    1,056787819e-01
       79850000    3,175936341e-01    1,060844213e-01
       79925000    3,200203180e-01    1,053053588e-01
       80000000    3,215593696e-01    1,058661491e-01
       80075000    3,244343698e-01    1,054761261e-01
       80150000    3,269295096e-01    1,047161072e-01
       80225000    3,292004466e-01    1,049812064e-01
       80300000    3,324601054e-01    1,046048030e-01
       80375000    3,347676396e-01    1,042124853e-01
       80450000    3,375597596e-01    1,035664976e-01
       80525000    3,410394490e-01    1,027214825e-01
       80600000    3,441455960e-01    1,026525125e-01
       80675000    3,473667502e-01    1,016720757e-01
       80750000    3,495931327e-01    1,009755358e-01
       80825000    3,531471491e-01    1,014958769e-01
       80900000    3,567191660e-01    9,988397360e-02
       80975000    3,587626517e-01    9,777546674e-02
       81050000    3,622254431e-01    9,820649773e-02
       81125000    3,655497730e-01    9,631774575e-02
       81200000    3,685638607e-01    9,541907161e-02
       81275000    3,717924058e-01    9,347281605e-02
       81350000    3,747691214e-01    9,211598337e-02
       81425000    3,785092831e-01    9,059458971e-02
       81500000    3,809387982e-01    8,931346238e-02
       81575000    3,855590522e-01    8,831125498e-02
       81650000    3,893475533e-01    8,646239340e-02
       81725000    3,914403617e-01    8,501094580e-02
       81800000    3,943895996e-01    8,305616677e-02
       81875000    3,978207707e-01    8,145628124e-02
       81950000    4,006759226e-01    7,906859368e-02
       82025000    4,049492478e-01    7,754681259e-02
       82100000    4,081501961e-01    7,609668374e-02
       82175000    4,112737775e-01    7,364919782e-02
       82250000    4,140190482e-01    7,144642621e-02
       82325000    4,184530675e-01    6,903062016e-02
       82400000    4,211139083e-01    6,681480259e-02
       82475000    4,247649014e-01    6,444229186e-02
       82550000    4,282964468e-01    6,181310862e-02
       82625000    4,314489067e-01    5,941278115e-02
       82700000    4,352688789e-01    5,641244352e-02
       82775000    4,369880259e-01    5,395174399e-02
       82850000    4,409751892e-01    5,087710544e-02
       82925000    4,438481629e-01    4,819659516e-02
       83000000    4,481714666e-01    4,534098133e-02
       83075000    4,502779543e-01    4,267782718e-02
       83150000    4,550928771e-01    4,050925002e-02
       83225000    4,559811056e-01    3,584514931e-02
       83300000    4,601453543e-01    3,230226785e-02
       83375000    4,628973305e-01    2,924428508e-02
       83450000    4,656524956e-01    2,605822310e-02
       83525000    4,692352712e-01    2,160699293e-02
       83600000    4,718040526e-01    1,845111698e-02
       83675000    4,745084941e-01    1,428382285e-02
       83750000    4,779896438e-01    1,065883134e-02
       83825000    4,805256724e-01    6,763308775e-03
       83900000    4,827112556e-01    2,326071961e-03
       83975000    4,852280617e-01   -6,553609273e-04
       84050000    4,887717962e-01   -4,420504905e-03
       84125000    4,894401729e-01   -9,715692140e-03
       84200000    4,933364987e-01   -1,241817232e-02
       84275000    4,950892627e-01   -1,760379411e-02
       84350000    4,962420166e-01   -2,121191472e-02
       84425000    4,996070266e-01   -2,603737079e-02
       84500000    5,007863641e-01   -3,086519428e-02
       84575000    5,044741631e-01   -3,381005302e-02
       84650000    5,055791736e-01   -3,928258643e-02
       84725000    5,064305663e-01   -4,413403198e-02
       84800000    5,092540979e-01   -4,862957075e-02
       84875000    5,091057420e-01   -5,432785302e-02
       84950000    5,127065778e-01   -5,753683671e-02
       85025000    5,138003826e-01   -6,241141260e-02
       85100000    5,161888599e-01   -6,768358499e-02
       85175000    5,153112411e-01   -7,281106710e-02
       85250000    5,176655650e-01   -7,764409482e-02
       85325000    5,182604790e-01   -8,361956477e-02
       85400000    5,204670429e-01   -8,596614003e-02
       85475000    5,205447674e-01   -9,304006398e-02
       85550000    5,215039253e-01   -9,817476571e-02
       85625000    5,214431286e-01   -1,022654846e-01
       85700000    5,224509835e-01   -1,064058691e-01
       85775000    5,224957466e-01   -1,133443564e-01
       85850000    5,217009783e-01   -1,174455658e-01
       85925000    5,223299861e-01   -1,216067523e-01
       86000000    5,239756107e-01   -1,268757880e-01
       86075000    5,224398375e-01   -1,317189932e-01
       86150000    5,240708590e-01   -1,358467191e-01
       86225000    5,223608613e-01   -1,411774158e-01
       86300000    5,220962167e-01   -1,470486373e-01
       86375000    5,223534107e-01   -1,515083611e-01
       86450000    5,207736492e-01   -1,553495228e-01
       86525000    5,204765797e-01   -1,599552035e-01
       86600000    5,199465156e-01   -1,655306965e-01
       86675000    5,163766742e-01   -1,689580977e-01
       86750000    5,174065232e-01   -1,743431687e-01
       86825000    5,166331530e-01   -1,791952848e-01
       86900000    5,145474076e-01   -1,837174296e-01
       86975000    5,130623579e-01   -1,871748567e-01
       87050000    5,120099783e-01   -1,911871731e-01
       87125000    5,117870569e-01   -1,942752749e-01
       87200000    5,085070729e-01   -1,984945983e-01
       87275000    5,080806017e-01   -2,023529559e-01
       87350000    5,073378682e-01   -2,057278007e-01
       87425000    5,039345026e-01   -2,100478858e-01
       87500000    5,020637512e-01   -2,130299807e-01
       87575000    4,992365837e-01   -2,171451747e-01
       87650000    5,009030700e-01   -2,197354138e-01
       87725000    4,995863438e-01   -2,253021002e-01
       87800000    4,982779026e-01   -2,259829342e-01
       87875000    4,970110357e-01   -2,302300036e-01
       87950000    4,940995872e-01   -2,343882322e-01
       88025000    4,915440381e-01   -2,371134013e-01
       88100000    4,905129075e-01   -2,399850786e-01
       88175000    4,911697209e-01   -2,434344441e-01
       88250000    4,877691567e-01   -2,457096279e-01
       88325000    4,861456156e-01   -2,492269129e-01
       88400000    4,827729762e-01   -2,537056208e-01
       88475000    4,826048613e-01   -2,552846372e-01
       88550000    4,801922739e-01   -2,599466443e-01
       88625000    4,778413177e-01   -2,605575323e-01
       88700000    4,780762494e-01   -2,638726532e-01
       88775000    4,748056829e-01   -2,672033310e-01
       88850000    4,729059637e-01   -2,702067792e-01
       88925000    4,678990245e-01   -2,724618912e-01
       89000000    4,670792520e-01   -2,744345069e-01
       89075000    4,645066261e-01   -2,781850994e-01
       89150000    4,621977508e-01   -2,792270482e-01
       89225000    4,602371454e-01   -2,821459472e-01
       89300000    4,571809471e-01   -2,826351523e-01
       89375000    4,553257227e-01   -2,853863239e-01
       89450000    4,524959326e-01   -2,852618694e-01
       89525000    4,490259290e-01   -2,876701951e-01
       89600000    4,460406005e-01   -2,898430824e-01
       89675000    4,425562322e-01   -2,884773910e-01
       89750000    4,420709312e-01   -2,895419896e-01
       89825000    4,409512579e-01   -2,894570827e-01
       89900000    4,366954267e-01   -2,893459499e-01
       89975000    4,354744256e-01   -2,897628546e-01
       90050000    4,325868487e-01   -2,899135947e-01
       90125000    4,330063164e-01   -2,896146476e-01
       90200000    4,316677451e-01   -2,909598947e-01
       90275000    4,290322065e-01   -2,881300151e-01
       90350000    4,287216067e-01   -2,874817550e-01
       90425000    4,277989268e-01   -2,895368040e-01
       90500000    4,293691516e-01   -2,871161103e-01
       90575000    4,289111197e-01   -2,856427133e-01
       90650000    4,278303385e-01   -2,862774432e-01
       90725000    4,295422137e-01   -2,834767699e-01
       90800000    4,303278923e-01   -2,835515440e-01
       90875000    4,295518696e-01   -2,829088867e-01
       90950000    4,327324629e-01   -2,823519409e-01
       91025000    4,320260286e-01   -2,829084098e-01
       91100000    4,361397028e-01   -2,827116251e-01
       91175000    4,361953735e-01   -2,850153446e-01
       91250000    4,392370284e-01   -2,839415967e-01
       91325000    4,407735169e-01   -2,856613100e-01
       91400000    4,430167079e-01   -2,842035890e-01
       91475000    4,464181364e-01   -2,866729796e-01
       91550000    4,480818510e-01   -2,860423028e-01
       91625000    4,513134062e-01   -2,879983783e-01
       91700000    4,530958831e-01   -2,890467644e-01
       91775000    4,558060169e-01   -2,916766405e-01
       91850000    4,564911425e-01   -2,945525348e-01
       91925000    4,602977335e-01   -2,969031334e-01
