! NanoVNA-App
! Date: 2025-08-09 13:32:02
! Start: 65MHz Stop: 95MHz Points: 401
! S-Parameter data: F S11
# Hz S RI R 50
!     Frequency           S11_Real           S11_Imag
       65000000    6,791447997e-01   -3,442297578e-01
       65075000    6,815824509e-01   -3,463544250e-01
       65150000    6,814140081e-01   -3,490399122e-01
       65225000    6,783483624e-01   -3,479997218e-01
       65300000    6,761717200e-01   -3,513213992e-01
       65375000    6,729034185e-01   -3,555635512e-01
       65450000    6,723164320e-01   -3,564168513e-01
       65525000    6,700903773e-01   -3,578792810e-01
       65600000    6,664926410e-01   -3,619135320e-01
       65675000    6,659525037e-01   -3,618921041e-01
       65750000    6,650739312e-01   -3,660445511e-01
       65825000    6,613240838e-01   -3,635956049e-01
       65900000    6,611083150e-01   -3,659990430e-01
       65975000    6,558734179e-01   -3,676594496e-01
       66050000    6,545952559e-01   -3,700010777e-01
       66125000    6,551355124e-01   -3,738175929e-01
       66200000    6,518999338e-01   -3,725031018e-01
       66275000    6,500180960e-01   -3,768323958e-01
       66350000    6,502147913e-01   -3,779490292e-01
       66425000    6,452122927e-01   -3,780812919e-01
       66500000    6,428455114e-01   -3,808544874e-01
       66575000    6,404855251e-01   -3,819266260e-01
       66650000    6,395958066e-01   -3,846872449e-01
       66725000    6,386072636e-01   -3,901576102e-01
       66800000    6,378106475e-01   -3,892140687e-01
       66875000    6,338140965e-01   -3,932299614e-01
       66950000    6,327462792e-01   -3,931988478e-01
       67025000    6,326550841e-01   -3,947158158e-01
       67100000    6,303370595e-01   -3,968825638e-01
       67175000    6,258536577e-01   -3,980340362e-01
       67250000    6,265128851e-01   -4,002931416e-01
       67325000    6,220197082e-01   -4,018723965e-01
       67400000    6,187920570e-01   -4,045917988e-01
       67475000    6,199972034e-01   -4,067452550e-01
       67550000    6,173768044e-01   -4,068517089e-01
       67625000    6,137411594e-01   -4,102070928e-01
       67700000    6,142164469e-01   -4,108470976e-01
       67775000    6,133726835e-01   -4,133777022e-01
       67850000    6,090381742e-01   -4,128873050e-01
       67925000    6,081988811e-01   -4,165754020e-01
       68000000    6,052308679e-01   -4,173532426e-01
       68075000    6,037823558e-01   -4,216721356e-01
       68150000    6,008961201e-01   -4,258078039e-01
       68225000    6,018868685e-01   -4,237500727e-01
       68300000    5,985707641e-01   -4,270849824e-01
       68375000    5,964619517e-01   -4,277633429e-01
       68450000    5,926162601e-01   -4,302566051e-01
       68525000    5,897192955e-01   -4,323462546e-01
       68600000    5,897382498e-01   -4,345332682e-01
       68675000    5,861127973e-01   -4,388827384e-01
       68750000    5,852484703e-01   -4,397904575e-01
       68825000    5,829243064e-01   -4,420765042e-01
       68900000    5,818511248e-01   -4,413622022e-01
       68975000    5,786126852e-01   -4,443025589e-01
       69050000    5,761882663e-01   -4,445001781e-01
       69125000    5,744581223e-01   -4,475530088e-01
       69200000    5,718868375e-01   -4,477841556e-01
       69275000    5,689556599e-01   -4,498377740e-01
       69350000    5,662130713e-01   -4,496773779e-01
       69425000    5,630460978e-01   -4,521560967e-01
       69500000    5,604917407e-01   -4,521067441e-01
       69575000    5,575729012e-01   -4,542014003e-01
       69650000    5,541202426e-01   -4,543028176e-01
       69725000    5,527700186e-01   -4,567490816e-01
       69800000    5,476179123e-01   -4,572668672e-01
       69875000    5,472149253e-01   -4,583550394e-01
       69950000    5,459238887e-01   -4,628363252e-01
       70025000    5,385408998e-01   -4,611920118e-01
       70100000    5,415781736e-01   -4,632886052e-01
       70175000    5,382934809e-01   -4,629926682e-01
       70250000    5,315015912e-01   -4,634212554e-01
       70325000    5,332369804e-01   -4,652039409e-01
       70400000    5,269154906e-01   -4,665433764e-01
       70475000    5,291478634e-01   -4,677805603e-01
       70550000    5,277789831e-01   -4,662850797e-01
       70625000    5,246468186e-01   -4,659248888e-01
       70700000    5,226455331e-01   -4,694024324e-01
       70775000    5,190702677e-01   -4,723207057e-01
       70850000    5,189514160e-01   -4,701792598e-01
       70925000    5,159669518e-01   -4,692663550e-01
       71000000    5,123268366e-01   -4,715741277e-01
       71075000    5,150766969e-01   -4,728892446e-01
       71150000    5,113112330e-01   -4,705910683e-01
       71225000    5,101434588e-01   -4,714064896e-01
       71300000    5,063490272e-01   -4,703776836e-01
       71375000    5,057195425e-01   -4,728380442e-01
       71450000    5,025777817e-01   -4,774925709e-01
       71525000    5,017508864e-01   -4,776692092e-01
       71600000    5,017238259e-01   -4,732305706e-01
       71675000    4,990131855e-01   -4,770571291e-01
       71750000    4,961524010e-01   -4,797458947e-01
       71825000    4,949154854e-01   -4,782964587e-01
       71900000    4,930614233e-01   -4,808386862e-01
       71975000    4,899623096e-01   -4,805679917e-01
       72050000    4,912622869e-01   -4,765290320e-01
       72125000    4,885443747e-01   -4,789329171e-01
       72200000    4,854876995e-01   -4,794196486e-01
       72275000    4,854411483e-01   -4,818294048e-01
       72350000    4,819001257e-01   -4,842738807e-01
       72425000    4,838752449e-01   -4,840558767e-01
       72500000    4,793526530e-01   -4,845333397e-01
       72575000    4,789682627e-01   -4,844578505e-01
       72650000    4,808505177e-01   -4,831495583e-01
       72725000    4,758473933e-01   -4,881390929e-01
       72800000    4,769721627e-01   -4,874058962e-01
       72875000    4,742588699e-01   -4,895806611e-01
       72950000    4,742106795e-01   -4,880049825e-01
       73025000    4,736164808e-01   -4,862977266e-01
       73100000    4,696372449e-01   -4,866114259e-01
       73175000    4,692849219e-01   -4,912422895e-01
       73250000    4,693183601e-01   -4,873034060e-01
       73325000    4,685730934e-01   -4,884190857e-01
       73400000    4,667761922e-01   -4,904104173e-01
       73475000    4,648938179e-01   -4,897704720e-01
       73550000    4,627779722e-01   -4,900712371e-01
       73625000    4,582208395e-01   -4,893661439e-01
       73700000    4,592149258e-01   -4,924040139e-01
       73775000    4,560229778e-01   -4,935191870e-01
       73850000    4,574898183e-01   -4,949950278e-01
       73925000    4,574071765e-01   -4,965701103e-01
       74000000    4,558640420e-01   -4,943115413e-01
       74075000    4,534665048e-01   -4,940304756e-01
       74150000    4,524543881e-01   -5,000936389e-01
       74225000    4,494727254e-01   -4,994777441e-01
       74300000    4,502458572e-01   -4,985370338e-01
       74375000    4,470293820e-01   -5,020535588e-01
       74450000    4,459054470e-01   -4,969393313e-01
       74525000    4,471595287e-01   -4,986811280e-01
       74600000    4,428621531e-01   -4,990494251e-01
       74675000    4,445087910e-01   -5,022590160e-01
       74750000    4,415001571e-01   -5,044611692e-01
       74825000    4,435893893e-01   -5,031671524e-01
       74900000    4,409402907e-01   -5,051785707e-01
       74975000    4,370153546e-01   -5,020930767e-01
       75050000    4,372090399e-01   -5,044807792e-01
       75125000    4,338829219e-01   -5,045636892e-01
       75200000    4,353193939e-01   -5,061036348e-01
       75275000    4,318010211e-01   -5,070852637e-01
       75350000    4,312476218e-01   -5,075073242e-01
       75425000    4,314225316e-01   -5,111171603e-01
       75500000    4,310748577e-01   -5,101384521e-01
       75575000    4,310293496e-01   -5,127661228e-01
       75650000    4,304795563e-01   -5,117329955e-01
       75725000    4,275507927e-01   -5,130754709e-01
       75800000    4,263830781e-01   -5,114678741e-01
       75875000    4,250530303e-01   -5,137772560e-01
       75950000    4,256479442e-01   -5,126740932e-01
       76025000    4,222082198e-01   -5,142244697e-01
       76100000    4,211321771e-01   -5,171660185e-01
       76175000    4,226027131e-01   -5,154839158e-01
       76250000    4,197059274e-01   -5,163140297e-01
       76325000    4,179787338e-01   -5,135763288e-01
       76400000    4,177403450e-01   -5,152657032e-01
       76475000    4,125058651e-01   -5,192375183e-01
       76550000    4,113627970e-01   -5,147555470e-01
       76625000    4,118814170e-01   -5,164411664e-01
       76700000    4,079232812e-01   -5,154846907e-01
       76775000    4,123759270e-01   -5,168299079e-01
       76850000    4,079936445e-01   -5,175740719e-01
       76925000    4,088132977e-01   -5,213387609e-01
       77000000    4,091387093e-01   -5,199692845e-01
       77075000    4,041173160e-01   -5,207971931e-01
       77150000    4,041308165e-01   -5,197879672e-01
       77225000    4,064231217e-01   -5,189504027e-01
       77300000    4,012417197e-01   -5,193690062e-01
       77375000    4,017865658e-01   -5,199577808e-01
       77450000    3,971947134e-01   -5,227432251e-01
       77525000    3,961740136e-01   -5,224546790e-01
       77600000    3,983506858e-01   -5,218201280e-01
       77675000    3,969093561e-01   -5,243796706e-01
       77750000    3,980379701e-01   -5,207120180e-01
       77825000    3,956901133e-01   -5,218890905e-01
       77900000    3,983164728e-01   -5,230870843e-01
       77975000    3,954046965e-01   -5,186073780e-01
       78050000    3,940256238e-01   -5,214621425e-01
       78125000    3,971470594e-01   -5,230368376e-01
       78200000    3,943843842e-01   -5,180691481e-01
       78275000    3,965276480e-01   -5,218026042e-01
       78350000    3,964079022e-01   -5,199134946e-01
       78425000    3,976276219e-01   -5,218418241e-01
       78500000    3,976806402e-01   -5,207890868e-01
       78575000    3,957949281e-01   -5,225333571e-01
       78650000    3,937854171e-01   -5,233049393e-01
       78725000    3,973235488e-01   -5,257238746e-01
       78800000    3,949753642e-01   -5,246908069e-01
       78875000    3,926561475e-01   -5,261619091e-01
       78950000    3,941725194e-01   -5,267215371e-01
       79025000    3,920411766e-01   -5,306169987e-01
       79100000    3,943735957e-01   -5,297505856e-01
       79175000    3,954994380e-01   -5,302816033e-01
       79250000    3,946412504e-01   -5,297876596e-01
       79325000    3,921138048e-01   -5,307346582e-01
       79400000    3,912927508e-01   -5,319887400e-01
       79475000    3,939132690e-01   -5,347606540e-01
       79550000    3,954261541e-01   -5,360824466e-01
       79625000    3,950580060e-01   -5,341759920e-01
       79700000    3,930615187e-01   -5,363087058e-01
       79775000    3,898165226e-01   -5,389639139e-01
       79850000    3,945405483e-01   -5,381059647e-01
       79925000    3,923208416e-01   -5,403226018e-01
       80000000    3,913972676e-01   -5,434111357e-01
       80075000    3,949078321e-01   -5,411281586e-01
       80150000    3,916559219e-01   -5,416072011e-01
       80225000    3,932218552e-01   -5,479055643e-01
       80300000    3,940617144e-01   -5,471308231e-01
       80375000    3,948685527e-01   -5,502407551e-01
       80450000    3,915264904e-01   -5,470371246e-01
       80525000    3,927485049e-01   -5,486541986e-01
       80600000    3,916764855e-01   -5,509198904e-01
       80675000    3,920246959e-01   -5,533537269e-01
       80750000    3,916383982e-01   -5,578404665e-01
       80825000    3,932231665e-01   -5,539221168e-01
       80900000    3,940880299e-01   -5,575606227e-01
       80975000    3,923765421e-01   -5,634650588e-01
       81050000    3,941797018e-01   -5,598751903e-01
       81125000    3,951877952e-01   -5,635285378e-01
       81200000    3,918886185e-01   -5,630055070e-01
       81275000    3,930645883e-01   -5,671281815e-01
       81350000    3,913969696e-01   -5,660130978e-01
       81425000    3,920274973e-01   -5,726438761e-01
       81500000    3,886216879e-01   -5,754626393e-01
       81575000    3,896982670e-01   -5,758526325e-01
       81650000    3,893600702e-01   -5,751294494e-01
       81725000    3,911059797e-01   -5,795629621e-01
       81800000    3,901758492e-01   -5,792033076e-01
       81875000    3,895857632e-01   -5,807551146e-01
       81950000    3,852151334e-01   -5,838438272e-01
       82025000    3,865750730e-01   -5,855351090e-01
       82100000    3,843317926e-01   -5,902352333e-01
       82175000    3,859894574e-01   -5,913866758e-01
       82250000    3,822184503e-01   -5,957465172e-01
       82325000    3,867937326e-01   -5,945310593e-01
       82400000    3,865419328e-01   -5,982966423e-01
       82475000    3,825780749e-01   -5,964291692e-01
       82550000    3,849674761e-01   -5,994559526e-01
       82625000    3,803934455e-01   -5,999850631e-01
       82700000    3,802850544e-01   -6,035194397e-01
       82775000    3,779747784e-01   -6,054443717e-01
       82850000    3,776560128e-01   -6,071381569e-01
       82925000    3,768186271e-01   -6,101223826e-01
       83000000    3,768313527e-01   -6,133315563e-01
       83075000    3,734183311e-01   -6,151848435e-01
       83150000    3,744220436e-01   -6,182765365e-01
       83225000    3,693270087e-01   -6,196909547e-01
       83300000    3,724967539e-01   -6,232579350e-01
       83375000    3,689112067e-01   -6,259008646e-01
       83450000    3,733640611e-01   -6,267936826e-01
       83525000    3,700700104e-01   -6,299012899e-01
       83600000    3,687894046e-01   -6,307424307e-01
       83675000    3,651013970e-01   -6,354266405e-01
       83750000    3,624413311e-01   -6,401791573e-01
       83825000    3,659246862e-01   -6,383512020e-01
       83900000    3,645389080e-01   -6,432596445e-01
       83975000    3,608698845e-01   -6,424286962e-01
       84050000    3,578602374e-01   -6,456378102e-01
       84125000    3,539983630e-01   -6,461380720e-01
       84200000    3,578021228e-01   -6,503837705e-01
       84275000    3,554074764e-01   -6,512092352e-01
       84350000    3,516821861e-01   -6,517171860e-01
       84425000    3,506745100e-01   -6,556552649e-01
       84500000    3,460507691e-01   -6,574580669e-01
       84575000    3,481901884e-01   -6,617512107e-01
       84650000    3,469225168e-01   -6,622566581e-01
       84725000    3,410227597e-01   -6,645230055e-01
       84800000    3,415239751e-01   -6,676850915e-01
       84875000    3,360060155e-01   -6,684233546e-01
       84950000    3,395188153e-01   -6,718669534e-01
       85025000    3,350987732e-01   -6,747100949e-01
       85100000    3,357301950e-01   -6,770851016e-01
       85175000    3,314660788e-01   -6,750953794e-01
       85250000    3,294949830e-01   -6,780596375e-01
       85325000    3,247410655e-01   -6,834595203e-01
       85400000    3,256307542e-01   -6,856283545e-01
       85475000    3,208076358e-01   -6,882953644e-01
       85550000    3,147047460e-01   -6,878170967e-01
       85625000    3,166419864e-01   -6,864148378e-01
       85700000    3,148632348e-01   -6,891698241e-01
       85775000    3,112078607e-01   -6,957355738e-01
       85850000    3,109987974e-01   -6,921777129e-01
       85925000    3,088572323e-01   -6,939535737e-01
       86000000    3,064940870e-01   -6,984696388e-01
       86075000    3,023247421e-01   -6,964100003e-01
       86150000    3,002538383e-01   -7,004160881e-01
       86225000    2,987140119e-01   -7,009986639e-01
       86300000    2,960675657e-01   -7,058085799e-01
       86375000    2,916048467e-01   -7,086598277e-01
       86450000    2,914317548e-01   -7,074866891e-01
       86525000    2,869060934e-01   -7,067512870e-01
       86600000    2,855177820e-01   -7,114000916e-01
       86675000    2,837523520e-01   -7,098456621e-01
       86750000    2,821564674e-01   -7,141573429e-01
       86825000    2,754112184e-01   -7,153144479e-01
       86900000    2,716316283e-01   -7,100508809e-01
       86975000    2,702797949e-01   -7,122923732e-01
       87050000    2,715859115e-01   -7,164454460e-01
       87125000    2,686382532e-01   -7,153237462e-01
       87200000    2,644899487e-01   -7,147198915e-01
       87275000    2,628961205e-01   -7,196093202e-01
       87350000    2,608404160e-01   -7,181403041e-01
       87425000    2,557023168e-01   -7,164489627e-01
       87500000    2,558164299e-01   -7,140929103e-01
       87575000    2,500465214e-01   -7,181528807e-01
       87650000    2,505614758e-01   -7,194759250e-01
       87725000    2,473839074e-01   -7,311529517e-01
       87800000    2,464350909e-01   -7,241663933e-01
       87875000    2,440662235e-01   -7,260763049e-01
       87950000    2,359568477e-01   -7,235960364e-01
       88025000    2,390916198e-01   -7,222489119e-01
       88100000    2,367219031e-01   -7,239494920e-01
       88175000    2,324281782e-01   -7,292007208e-01
       88250000    2,312237918e-01   -7,276092172e-01
       88325000    2,286143005e-01   -7,266133428e-01
       88400000    2,236804664e-01   -7,266132832e-01
       88475000    2,234003544e-01   -7,266949415e-01
       88550000    2,174750715e-01   -7,290447354e-01
       88625000    2,191304266e-01   -7,269785404e-01
       88700000    2,180113643e-01   -7,308123708e-01
       88775000    2,146999985e-01   -7,293163538e-01
       88850000    2,095544934e-01   -7,324058414e-01
       88925000    2,101986706e-01   -7,279844284e-01
       89000000    2,080382854e-01   -7,312801480e-01
       89075000    2,042035758e-01   -7,283315659e-01
       89150000    2,030366659e-01   -7,298709154e-01
       89225000    1,960621178e-01   -7,299962640e-01
       89300000    1,980104595e-01   -7,314530611e-01
       89375000    1,909047365e-01   -7,297002673e-01
       89450000    1,916925311e-01   -7,305074930e-01
       89525000    1,931082755e-01   -7,300131321e-01
       89600000    1,899740100e-01   -7,282752991e-01
       89675000    1,900254786e-01   -7,302315235e-01
       89750000    1,868751496e-01   -7,312042117e-01
       89825000    1,811745465e-01   -7,303144336e-01
       89900000    1,823756099e-01   -7,289373279e-01
       89975000    1,786775291e-01   -7,292818427e-01
       90050000    1,813695878e-01   -7,281591296e-01
       90125000    1,798018068e-01   -7,269533873e-01
       90200000    1,771392524e-01   -7,255269885e-01
       90275000    1,775157154e-01   -7,254432440e-01
       90350000    1,746304780e-01   -7,267113924e-01
       90425000    1,726185381e-01   -7,221626639e-01
       90500000    1,749507040e-01   -7,231706381e-01
       90575000    1,715669036e-01   -7,270416021e-01
       90650000    1,718702912e-01   -7,213590741e-01
       90725000    1,713926345e-01   -7,246220708e-01
       90800000    1,688438058e-01   -7,261120677e-01
       90875000    1,725481898e-01   -7,247047424e-01
       90950000    1,701388955e-01   -7,273914218e-01
       91025000    1,722945422e-01   -7,244442105e-01
       91100000    1,719753295e-01   -7,284453511e-01
       91175000    1,706746817e-01   -7,245545983e-01
       91250000    1,712246090e-01   -7,268302441e-01
       91325000    1,683426946e-01   -7,254002690e-01
       91400000    1,685008556e-01   -7,297092080e-01
       91475000    1,664583087e-01   -7,328733802e-01
       91550000    1,691555679e-01   -7,336223722e-01
       91625000    1,663586497e-01   -7,358682752e-01
       91700000    1,670160294e-01   -7,345970273e-01
       91775000    1,674565822e-01   -7,389082313e-01
       91850000    1,673732549e-01   -7,372657657e-01
       91925000    1,663942635e-01   -7,393221855e-01
