! NanoVNA-App
! Date: 2025-08-09 12:42:54
! Start: 65MHz Stop: 95MHz Points: 401
! S-Parameter data: F S11
# Hz S RI R 50
!     Frequency           S11_Real           S11_Imag
       65000000    5,390860438e-01   -2,778102458e-01
       65075000    5,431421995e-01   -2,801979482e-01
       65150000    5,414692760e-01   -2,832992673e-01
       65225000    5,384054780e-01   -2,843482494e-01
       65300000    5,361219645e-01   -2,874370813e-01
       65375000    5,348889232e-01   -2,890804410e-01
       65450000    5,334137082e-01   -2,912277877e-01
       65525000    5,312749743e-01   -2,930281758e-01
       65600000    5,287989378e-01   -2,966296971e-01
       65675000    5,274274945e-01   -2,973398268e-01
       65750000    5,262218714e-01   -3,001591861e-01
       65825000    5,227876902e-01   -3,012063801e-01
       65900000    5,215688944e-01   -3,026924133e-01
       65975000    5,191159844e-01   -3,050406575e-01
       66050000    5,181448460e-01   -3,070906997e-01
       66125000    5,175988674e-01   -3,103327751e-01
       66200000    5,135930777e-01   -3,108762503e-01
       66275000    5,122982264e-01   -3,149040043e-01
       66350000    5,102207661e-01   -3,152982295e-01
       66425000    5,088961124e-01   -3,173857927e-01
       66500000    5,057361126e-01   -3,203035593e-01
       66575000    5,044174790e-01   -3,215175569e-01
       66650000    5,015427470e-01   -3,247584701e-01
       66725000    5,017637014e-01   -3,268249035e-01
       66800000    5,005344748e-01   -3,284726143e-01
       66875000    4,978052676e-01   -3,299945593e-01
       66950000    4,961364865e-01   -3,323205411e-01
       67025000    4,952586889e-01   -3,345112205e-01
       67100000    4,921231866e-01   -3,365713954e-01
       67175000    4,899250567e-01   -3,390916288e-01
       67250000    4,878853559e-01   -3,422696292e-01
       67325000    4,861739576e-01   -3,435890079e-01
       67400000    4,845980704e-01   -3,453703523e-01
       67475000    4,836169183e-01   -3,486016989e-01
       67550000    4,807401299e-01   -3,489392698e-01
       67625000    4,785684645e-01   -3,528966904e-01
       67700000    4,772030711e-01   -3,542645574e-01
       67775000    4,754754305e-01   -3,552204669e-01
       67850000    4,723907709e-01   -3,581534624e-01
       67925000    4,721111953e-01   -3,606660068e-01
       68000000    4,683884680e-01   -3,628620803e-01
       68075000    4,674206674e-01   -3,663599491e-01
       68150000    4,651659429e-01   -3,689298928e-01
       68225000    4,640561342e-01   -3,696407974e-01
       68300000    4,615347087e-01   -3,718704581e-01
       68375000    4,588114917e-01   -3,736460507e-01
       68450000    4,562423229e-01   -3,752499223e-01
       68525000    4,531775415e-01   -3,780774176e-01
       68600000    4,513490796e-01   -3,800244331e-01
       68675000    4,479502738e-01   -3,833648860e-01
       68750000    4,457722306e-01   -3,846001327e-01
       68825000    4,451697469e-01   -3,882903755e-01
       68900000    4,421520531e-01   -3,881739974e-01
       68975000    4,402593374e-01   -3,915072978e-01
       69050000    4,366859794e-01   -3,928695619e-01
       69125000    4,351393282e-01   -3,953017592e-01
       69200000    4,313451648e-01   -3,957509100e-01
       69275000    4,287705421e-01   -3,972944915e-01
       69350000    4,262582362e-01   -3,993093669e-01
       69425000    4,243316650e-01   -4,008489549e-01
       69500000    4,205931723e-01   -4,015881419e-01
       69575000    4,180189371e-01   -4,033995569e-01
       69650000    4,149758816e-01   -4,037154317e-01
       69725000    4,121136963e-01   -4,045452178e-01
       69800000    4,082936645e-01   -4,054493904e-01
       69875000    4,072119296e-01   -4,064354300e-01
       69950000    4,021194279e-01   -4,095164835e-01
       70025000    4,009603560e-01   -4,082947671e-01
       70100000    3,983974159e-01   -4,108328819e-01
       70175000    3,963138759e-01   -4,126870334e-01
       70250000    3,931976557e-01   -4,103316069e-01
       70325000    3,908236921e-01   -4,107647538e-01
       70400000    3,868892193e-01   -4,112947285e-01
       70475000    3,843728006e-01   -4,125452936e-01
       70550000    3,830407262e-01   -4,143637121e-01
       70625000    3,817748725e-01   -4,128243625e-01
       70700000    3,773322999e-01   -4,141305387e-01
       70775000    3,748318553e-01   -4,139092267e-01
       70850000    3,735519946e-01   -4,138588011e-01
       70925000    3,731996119e-01   -4,146696329e-01
       71000000    3,708312511e-01   -4,135160446e-01
       71075000    3,683185577e-01   -4,146569967e-01
       71150000    3,679870665e-01   -4,157611132e-01
       71225000    3,648273647e-01   -4,166955352e-01
       71300000    3,628837168e-01   -4,164152741e-01
       71375000    3,611424565e-01   -4,173442423e-01
       71450000    3,588874936e-01   -4,154676497e-01
       71525000    3,584715426e-01   -4,159813523e-01
       71600000    3,558187485e-01   -4,173510969e-01
       71675000    3,553462923e-01   -4,169207215e-01
       71750000    3,529965878e-01   -4,160995185e-01
       71825000    3,524553776e-01   -4,171631038e-01
       71900000    3,498936296e-01   -4,168003201e-01
       71975000    3,486969769e-01   -4,182161391e-01
       72050000    3,461865187e-01   -4,189915359e-01
       72125000    3,451907337e-01   -4,205507040e-01
       72200000    3,439227939e-01   -4,203700423e-01
       72275000    3,431489170e-01   -4,199701548e-01
       72350000    3,412367404e-01   -4,199033976e-01
       72425000    3,402340710e-01   -4,190481901e-01
       72500000    3,366082907e-01   -4,216313064e-01
       72575000    3,376238942e-01   -4,204196334e-01
       72650000    3,336203694e-01   -4,212054014e-01
       72725000    3,345834911e-01   -4,216303527e-01
       72800000    3,335165679e-01   -4,219239652e-01
       72875000    3,313653171e-01   -4,213450253e-01
       72950000    3,309285641e-01   -4,217768013e-01
       73025000    3,310245275e-01   -4,232261479e-01
       73100000    3,264795244e-01   -4,246187508e-01
       73175000    3,265713453e-01   -4,220249951e-01
       73250000    3,239760995e-01   -4,221629798e-01
       73325000    3,246694803e-01   -4,227723479e-01
       73400000    3,222213387e-01   -4,218355417e-01
       73475000    3,221848607e-01   -4,221725166e-01
       73550000    3,186426759e-01   -4,246008992e-01
       73625000    3,183855116e-01   -4,242137074e-01
       73700000    3,177847266e-01   -4,265497029e-01
       73775000    3,166215718e-01   -4,261509180e-01
       73850000    3,170059025e-01   -4,267714024e-01
       73925000    3,149544597e-01   -4,248544276e-01
       74000000    3,141211867e-01   -4,249818325e-01
       74075000    3,113039434e-01   -4,257073104e-01
       74150000    3,125740290e-01   -4,267875254e-01
       74225000    3,100994527e-01   -4,284736216e-01
       74300000    3,102825880e-01   -4,292878211e-01
       74375000    3,092588186e-01   -4,281251132e-01
       74450000    3,070161939e-01   -4,277482629e-01
       74525000    3,055523932e-01   -4,285547435e-01
       74600000    3,046759367e-01   -4,286705852e-01
       74675000    3,045347631e-01   -4,315501451e-01
       74750000    3,038590848e-01   -4,307313859e-01
       74825000    3,044078946e-01   -4,299832880e-01
       74900000    3,023457527e-01   -4,303441644e-01
       74975000    3,007244170e-01   -4,302535653e-01
       75050000    2,974377573e-01   -4,317151904e-01
       75125000    2,974417210e-01   -4,323547781e-01
       75200000    2,956469059e-01   -4,330274463e-01
       75275000    2,963981628e-01   -4,327458739e-01
       75350000    2,940152884e-01   -4,340679049e-01
       75425000    2,938403785e-01   -4,326584339e-01
       75500000    2,946868837e-01   -4,344827831e-01
       75575000    2,928749323e-01   -4,338857234e-01
       75650000    2,917463183e-01   -4,346960783e-01
       75725000    2,923058569e-01   -4,352757931e-01
       75800000    2,909132540e-01   -4,357551336e-01
       75875000    2,897186279e-01   -4,349867105e-01
       75950000    2,892935872e-01   -4,354141951e-01
       76025000    2,861932814e-01   -4,371417165e-01
       76100000    2,855259478e-01   -4,361619055e-01
       76175000    2,851582468e-01   -4,378112555e-01
       76250000    2,828567922e-01   -4,353494048e-01
       76325000    2,846586704e-01   -4,368922114e-01
       76400000    2,820498347e-01   -4,358405769e-01
       76475000    2,802956104e-01   -4,362306595e-01
       76550000    2,797484696e-01   -4,356324971e-01
       76625000    2,775802314e-01   -4,349943101e-01
       76700000    2,780411243e-01   -4,350878298e-01
       76775000    2,782022953e-01   -4,375666976e-01
       76850000    2,753053010e-01   -4,345813990e-01
       76925000    2,748318315e-01   -4,374680817e-01
       77000000    2,724742293e-01   -4,381950796e-01
       77075000    2,710039616e-01   -4,363374710e-01
       77150000    2,713428736e-01   -4,344998300e-01
       77225000    2,725289464e-01   -4,361257255e-01
       77300000    2,712660432e-01   -4,348253906e-01
       77375000    2,695378959e-01   -4,336500764e-01
       77450000    2,679494023e-01   -4,331639111e-01
       77525000    2,679661810e-01   -4,333929121e-01
       77600000    2,656756043e-01   -4,323187172e-01
       77675000    2,663143575e-01   -4,328765869e-01
       77750000    2,641734779e-01   -4,334158003e-01
       77825000    2,649652362e-01   -4,306495190e-01
       77900000    2,654751539e-01   -4,316975772e-01
       77975000    2,656070888e-01   -4,321823418e-01
       78050000    2,654344440e-01   -4,277715683e-01
       78125000    2,637775540e-01   -4,283306897e-01
       78200000    2,662438154e-01   -4,296995997e-01
       78275000    2,658258677e-01   -4,269591570e-01
       78350000    2,686640322e-01   -4,275138974e-01
       78425000    2,699124515e-01   -4,277105033e-01
       78500000    2,684033513e-01   -4,283615947e-01
       78575000    2,717719972e-01   -4,271961749e-01
       78650000    2,739242613e-01   -4,294285476e-01
       78725000    2,699376643e-01   -4,289806783e-01
       78800000    2,731932700e-01   -4,300581515e-01
       78875000    2,744939923e-01   -4,304294288e-01
       78950000    2,742759883e-01   -4,297430813e-01
       79025000    2,746941745e-01   -4,291298985e-01
       79100000    2,739585638e-01   -4,287613630e-01
       79175000    2,743968070e-01   -4,308088124e-01
       79250000    2,734794617e-01   -4,314946234e-01
       79325000    2,766843438e-01   -4,312869906e-01
       79400000    2,792194784e-01   -4,329947233e-01
       79475000    2,777282298e-01   -4,300002754e-01
       79550000    2,776144445e-01   -4,324351847e-01
       79625000    2,773696482e-01   -4,332132339e-01
       79700000    2,813353837e-01   -4,350703061e-01
       79775000    2,821055055e-01   -4,339167774e-01
       79850000    2,795317471e-01   -4,352050424e-01
       79925000    2,830099463e-01   -4,349872768e-01
       80000000    2,837013006e-01   -4,375603497e-01
       80075000    2,821780443e-01   -4,388408065e-01
       80150000    2,857785225e-01   -4,397673607e-01
       80225000    2,858244777e-01   -4,380498827e-01
       80300000    2,856115103e-01   -4,391205311e-01
       80375000    2,864139378e-01   -4,417876303e-01
       80450000    2,900680900e-01   -4,449282289e-01
       80525000    2,906717062e-01   -4,447857440e-01
       80600000    2,926622331e-01   -4,476454258e-01
       80675000    2,961573005e-01   -4,480874240e-01
       80750000    2,914925814e-01   -4,468393624e-01
       80825000    2,921919525e-01   -4,520637095e-01
       80900000    2,935473025e-01   -4,527817965e-01
       80975000    2,945352197e-01   -4,517769217e-01
       81050000    2,943650782e-01   -4,560532272e-01
       81125000    2,953968346e-01   -4,571352601e-01
       81200000    2,953722775e-01   -4,595206976e-01
       81275000    2,967907190e-01   -4,610031843e-01
       81350000    2,970018089e-01   -4,635602236e-01
       81425000    2,994337976e-01   -4,615981877e-01
       81500000    3,002032936e-01   -4,648659825e-01
       81575000    3,007417321e-01   -4,663491547e-01
       81650000    3,012400866e-01   -4,706787467e-01
       81725000    2,996005416e-01   -4,709987342e-01
       81800000    2,995319963e-01   -4,738299549e-01
       81875000    3,016358316e-01   -4,768311679e-01
       81950000    3,032207489e-01   -4,781537354e-01
       82025000    3,039023578e-01   -4,795386195e-01
       82100000    3,046259582e-01   -4,817704260e-01
       82175000    3,048142195e-01   -4,830139577e-01
       82250000    3,047301769e-01   -4,861020148e-01
       82325000    3,015741110e-01   -4,872083366e-01
       82400000    3,040145040e-01   -4,900085926e-01
       82475000    3,028180301e-01   -4,950875938e-01
       82550000    3,048117757e-01   -4,965216219e-01
       82625000    3,030231893e-01   -4,996407926e-01
       82700000    3,048864007e-01   -5,018987060e-01
       82775000    3,041945696e-01   -5,049682260e-01
       82850000    3,054626882e-01   -5,063382387e-01
       82925000    3,056444824e-01   -5,107079744e-01
       83000000    3,058796227e-01   -5,121756196e-01
       83075000    3,051537275e-01   -5,159665346e-01
       83150000    3,059630990e-01   -5,174259543e-01
       83225000    3,054341972e-01   -5,210494399e-01
       83300000    3,055636883e-01   -5,228438973e-01
       83375000    3,057335317e-01   -5,270011425e-01
       83450000    3,026938140e-01   -5,259658694e-01
       83525000    3,039600849e-01   -5,297931433e-01
       83600000    3,009177744e-01   -5,317355990e-01
       83675000    3,056312203e-01   -5,364171267e-01
       83750000    3,037317395e-01   -5,398761630e-01
       83825000    3,004755378e-01   -5,403710604e-01
       83900000    3,007290661e-01   -5,443435311e-01
       83975000    2,986034453e-01   -5,500061512e-01
       84050000    2,996567786e-01   -5,519554019e-01
       84125000    2,981908619e-01   -5,563271642e-01
       84200000    2,969369292e-01   -5,538809299e-01
       84275000    2,954373956e-01   -5,599863529e-01
       84350000    2,926889062e-01   -5,628810525e-01
       84425000    2,940763533e-01   -5,662297606e-01
       84500000    2,920696139e-01   -5,704252124e-01
       84575000    2,940909266e-01   -5,698582530e-01
       84650000    2,902962267e-01   -5,730240941e-01
       84725000    2,878007591e-01   -5,792433619e-01
       84800000    2,874429226e-01   -5,818426013e-01
       84875000    2,845382392e-01   -5,851637721e-01
       84950000    2,857008874e-01   -5,836746693e-01
       85025000    2,849681079e-01   -5,900142193e-01
       85100000    2,823176980e-01   -5,903646350e-01
       85175000    2,770516276e-01   -5,936412215e-01
       85250000    2,767248750e-01   -5,975434780e-01
       85325000    2,764101326e-01   -6,032182574e-01
       85400000    2,758489847e-01   -6,040127277e-01
       85475000    2,738098204e-01   -6,063936949e-01
       85550000    2,688305974e-01   -6,113690734e-01
       85625000    2,658750415e-01   -6,098220348e-01
       85700000    2,630645633e-01   -6,136476994e-01
       85775000    2,646191120e-01   -6,173735857e-01
       85850000    2,577252090e-01   -6,182866096e-01
       85925000    2,594896257e-01   -6,194869876e-01
       86000000    2,567256689e-01   -6,221522093e-01
       86075000    2,516894639e-01   -6,225765347e-01
       86150000    2,506787777e-01   -6,302016973e-01
       86225000    2,470155656e-01   -6,301819682e-01
       86300000    2,475467771e-01   -6,333819032e-01
       86375000    2,438110113e-01   -6,375129223e-01
       86450000    2,417598516e-01   -6,373462081e-01
       86525000    2,364729345e-01   -6,391622424e-01
       86600000    2,355871201e-01   -6,433359385e-01
       86675000    2,329656929e-01   -6,421368122e-01
       86750000    2,303470969e-01   -6,443367004e-01
       86825000    2,270012796e-01   -6,487677097e-01
       86900000    2,203395814e-01   -6,465601921e-01
       86975000    2,182839811e-01   -6,478303671e-01
       87050000    2,194766998e-01   -6,519011259e-01
       87125000    2,149763703e-01   -6,507129073e-01
       87200000    2,114215940e-01   -6,505954266e-01
       87275000    2,093222886e-01   -6,562165618e-01
       87350000    2,066509575e-01   -6,543389559e-01
       87425000    2,038320154e-01   -6,548664570e-01
       87500000    1,965215504e-01   -6,540376544e-01
       87575000    1,975450665e-01   -6,554416418e-01
       87650000    1,952912807e-01   -6,579606533e-01
       87725000    1,904020458e-01   -6,630127430e-01
       87800000    1,923826784e-01   -6,618177891e-01
       87875000    1,880143583e-01   -6,644017696e-01
       87950000    1,832580119e-01   -6,619697809e-01
       88025000    1,837902665e-01   -6,623991132e-01
       88100000    1,790086925e-01   -6,633487940e-01
       88175000    1,760680377e-01   -6,681911349e-01
       88250000    1,748369932e-01   -6,683362126e-01
       88325000    1,712098420e-01   -6,658779979e-01
       88400000    1,677727699e-01   -6,659618616e-01
       88475000    1,660675555e-01   -6,686503887e-01
       88550000    1,622209400e-01   -6,687278748e-01
       88625000    1,641019881e-01   -6,713378429e-01
       88700000    1,577946395e-01   -6,715931296e-01
       88775000    1,573424339e-01   -6,703430414e-01
       88850000    1,520065069e-01   -6,733402610e-01
       88925000    1,543979645e-01   -6,728620529e-01
       89000000    1,500804424e-01   -6,740495563e-01
       89075000    1,468028426e-01   -6,713429689e-01
       89150000    1,437864155e-01   -6,720228791e-01
       89225000    1,386605054e-01   -6,708571911e-01
       89300000    1,362597942e-01   -6,723883748e-01
       89375000    1,336884946e-01   -6,712976098e-01
       89450000    1,307512224e-01   -6,717274189e-01
       89525000    1,312235594e-01   -6,741707921e-01
       89600000    1,297792792e-01   -6,726625562e-01
       89675000    1,254587770e-01   -6,742081046e-01
       89750000    1,232375056e-01   -6,742820144e-01
       89825000    1,184423268e-01   -6,699584126e-01
       89900000    1,181384251e-01   -6,705275178e-01
       89975000    1,140332296e-01   -6,689457893e-01
       90050000    1,150449812e-01   -6,690399647e-01
       90125000    1,147297323e-01   -6,692755222e-01
       90200000    1,139805317e-01   -6,641861796e-01
       90275000    1,110763624e-01   -6,664180756e-01
       90350000    1,121725813e-01   -6,649764776e-01
       90425000    1,121095717e-01   -6,627467275e-01
       90500000    1,104639098e-01   -6,618475914e-01
       90575000    1,078118309e-01   -6,608955264e-01
       90650000    1,101513803e-01   -6,617228985e-01
       90725000    1,075791344e-01   -6,586989164e-01
       90800000    1,067570150e-01   -6,576926708e-01
       90875000    1,072578803e-01   -6,599287987e-01
       90950000    1,067020819e-01   -6,611350775e-01
       91025000    1,084855944e-01   -6,616232395e-01
       91100000    1,077030599e-01   -6,620045304e-01
       91175000    1,108958721e-01   -6,610595584e-01
       91250000    1,107375249e-01   -6,636065841e-01
       91325000    1,127787679e-01   -6,635820866e-01
       91400000    1,124360040e-01   -6,625819206e-01
       91475000    1,118848696e-01   -6,621708274e-01
       91550000    1,113416180e-01   -6,647654772e-01
       91625000    1,103471816e-01   -6,651459336e-01
       91700000    1,103392243e-01   -6,676612496e-01
       91775000    1,095018312e-01   -6,704164743e-01
       91850000    1,109534279e-01   -6,726320982e-01
       91925000    1,093045697e-01   -6,765415072e-01
