! NanoVNA-App
! Date: 2025-08-09 13:09:46
! Start: 65MHz Stop: 95MHz Points: 401
! S-Parameter data: F S11
# Hz S RI R 50
!     Frequency           S11_Real           S11_Imag
       65000000    6,022548676e-01   -2,598994076e-01
       65075000    6,076325774e-01   -2,606162727e-01
       65150000    6,065009832e-01   -2,631815672e-01
       65225000    6,046245694e-01   -2,663276494e-01
       65300000    6,024323702e-01   -2,671088278e-01
       65375000    5,999544263e-01   -2,701179087e-01
       65450000    5,971450806e-01   -2,718794048e-01
       65525000    5,945534706e-01   -2,744305730e-01
       65600000    5,934290290e-01   -2,765196860e-01
       65675000    5,908098817e-01   -2,797004879e-01
       65750000    5,896826982e-01   -2,816229761e-01
       65825000    5,888612270e-01   -2,837988138e-01
       65900000    5,861712098e-01   -2,856409252e-01
       65975000    5,841566920e-01   -2,885717452e-01
       66050000    5,816391110e-01   -2,897790074e-01
       66125000    5,794492364e-01   -2,924401164e-01
       66200000    5,782978535e-01   -2,959002852e-01
       66275000    5,742729902e-01   -2,976798117e-01
       66350000    5,739102960e-01   -2,991745770e-01
       66425000    5,727142096e-01   -3,014512062e-01
       66500000    5,698156357e-01   -3,027223647e-01
       66575000    5,679269433e-01   -3,056322336e-01
       66650000    5,656245947e-01   -3,068815172e-01
       66725000    5,641311407e-01   -3,101821840e-01
       66800000    5,613740087e-01   -3,134264648e-01
       66875000    5,610174537e-01   -3,144143224e-01
       66950000    5,584512949e-01   -3,179335892e-01
       67025000    5,564018488e-01   -3,200117052e-01
       67100000    5,556050539e-01   -3,214402795e-01
       67175000    5,531776547e-01   -3,230419457e-01
       67250000    5,496604443e-01   -3,249915242e-01
       67325000    5,489146709e-01   -3,269222081e-01
       67400000    5,488480926e-01   -3,299601972e-01
       67475000    5,455374122e-01   -3,338600099e-01
       67550000    5,442718863e-01   -3,337563574e-01
       67625000    5,427487493e-01   -3,366275430e-01
       67700000    5,388188958e-01   -3,382261693e-01
       67775000    5,391602516e-01   -3,414165378e-01
       67850000    5,368610620e-01   -3,438251913e-01
       67925000    5,357314944e-01   -3,453079462e-01
       68000000    5,321097374e-01   -3,485093713e-01
       68075000    5,284663439e-01   -3,506962061e-01
       68150000    5,285359621e-01   -3,527195454e-01
       68225000    5,271645784e-01   -3,559599817e-01
       68300000    5,245968699e-01   -3,575887680e-01
       68375000    5,223241448e-01   -3,618177772e-01
       68450000    5,186927915e-01   -3,606178761e-01
       68525000    5,176453590e-01   -3,633641899e-01
       68600000    5,144740939e-01   -3,660287857e-01
       68675000    5,118502975e-01   -3,686921597e-01
       68750000    5,087060928e-01   -3,715620935e-01
       68825000    5,081003904e-01   -3,740805387e-01
       68900000    5,056961775e-01   -3,764365613e-01
       68975000    5,040855408e-01   -3,778902590e-01
       69050000    5,002765059e-01   -3,809693158e-01
       69125000    4,987853467e-01   -3,808032572e-01
       69200000    4,961936474e-01   -3,840375841e-01
       69275000    4,928785563e-01   -3,851721585e-01
       69350000    4,910548031e-01   -3,873986304e-01
       69425000    4,876501858e-01   -3,869893849e-01
       69500000    4,840058982e-01   -3,894833028e-01
       69575000    4,813272655e-01   -3,901292682e-01
       69650000    4,801732004e-01   -3,926110268e-01
       69725000    4,764356613e-01   -3,923944235e-01
       69800000    4,736566544e-01   -3,943998218e-01
       69875000    4,705410302e-01   -3,949390948e-01
       69950000    4,674892426e-01   -3,977752626e-01
       70025000    4,655445516e-01   -3,979210556e-01
       70100000    4,623218179e-01   -4,008357525e-01
       70175000    4,607180655e-01   -3,999081850e-01
       70250000    4,581954181e-01   -4,007805884e-01
       70325000    4,530160129e-01   -4,010935128e-01
       70400000    4,517219961e-01   -4,023581743e-01
       70475000    4,488554299e-01   -4,054431319e-01
       70550000    4,480353892e-01   -4,030976593e-01
       70625000    4,458409846e-01   -4,038833976e-01
       70700000    4,418109357e-01   -4,064699411e-01
       70775000    4,400680065e-01   -4,057562649e-01
       70850000    4,379631579e-01   -4,082745910e-01
       70925000    4,351358116e-01   -4,058536589e-01
       71000000    4,339199662e-01   -4,061395824e-01
       71075000    4,316797256e-01   -4,094256461e-01
       71150000    4,287985265e-01   -4,061032832e-01
       71225000    4,311641157e-01   -4,070000947e-01
       71300000    4,276840091e-01   -4,088033438e-01
       71375000    4,253772497e-01   -4,073173106e-01
       71450000    4,235079587e-01   -4,105888605e-01
       71525000    4,214782715e-01   -4,102243781e-01
       71600000    4,211115241e-01   -4,104745984e-01
       71675000    4,165500998e-01   -4,120317400e-01
       71750000    4,163533747e-01   -4,121511579e-01
       71825000    4,133286774e-01   -4,132009745e-01
       71900000    4,130273163e-01   -4,128942490e-01
       71975000    4,118683636e-01   -4,125186205e-01
       72050000    4,112093151e-01   -4,130846858e-01
       72125000    4,068464339e-01   -4,125639200e-01
       72200000    4,071586430e-01   -4,137161970e-01
       72275000    4,036609530e-01   -4,153766036e-01
       72350000    4,038971663e-01   -4,149517119e-01
       72425000    4,000195563e-01   -4,166164994e-01
       72500000    4,007840753e-01   -4,165302217e-01
       72575000    3,979689777e-01   -4,188887179e-01
       72650000    3,983406126e-01   -4,152026474e-01
       72725000    3,967595994e-01   -4,174552858e-01
       72800000    3,929837346e-01   -4,195708334e-01
       72875000    3,932377398e-01   -4,191155732e-01
       72950000    3,920655549e-01   -4,206273258e-01
       73025000    3,902480006e-01   -4,206576943e-01
       73100000    3,882914484e-01   -4,177107215e-01
       73175000    3,893708289e-01   -4,196662307e-01
       73250000    3,885757625e-01   -4,188548923e-01
       73325000    3,876674771e-01   -4,199835360e-01
       73400000    3,864201903e-01   -4,189064801e-01
       73475000    3,855026364e-01   -4,204172492e-01
       73550000    3,816415071e-01   -4,200528860e-01
       73625000    3,815054595e-01   -4,211750925e-01
       73700000    3,795275390e-01   -4,233398736e-01
       73775000    3,796301186e-01   -4,230054915e-01
       73850000    3,793723285e-01   -4,255897701e-01
       73925000    3,779372871e-01   -4,220116436e-01
       74000000    3,776463568e-01   -4,230657816e-01
       74075000    3,738837242e-01   -4,231476188e-01
       74150000    3,763672113e-01   -4,245547950e-01
       74225000    3,742050231e-01   -4,261084199e-01
       74300000    3,716558516e-01   -4,277077019e-01
       74375000    3,727887571e-01   -4,266534746e-01
       74450000    3,702577949e-01   -4,268367290e-01
       74525000    3,673761189e-01   -4,278480113e-01
       74600000    3,675610721e-01   -4,277782440e-01
       74675000    3,664893508e-01   -4,305979311e-01
       74750000    3,667080104e-01   -4,300513864e-01
       74825000    3,665095866e-01   -4,300144911e-01
       74900000    3,650988936e-01   -4,296641648e-01
       74975000    3,626671731e-01   -4,306878746e-01
       75050000    3,603024781e-01   -4,324968159e-01
       75125000    3,605766296e-01   -4,321336448e-01
       75200000    3,585031033e-01   -4,340950251e-01
       75275000    3,581961095e-01   -4,338295460e-01
       75350000    3,569660783e-01   -4,356965423e-01
       75425000    3,576557934e-01   -4,339657426e-01
       75500000    3,564850986e-01   -4,348055422e-01
       75575000    3,560437858e-01   -4,344866574e-01
       75650000    3,556978405e-01   -4,348023534e-01
       75725000    3,532657325e-01   -4,347176254e-01
       75800000    3,525675833e-01   -4,358238876e-01
       75875000    3,503651619e-01   -4,349498451e-01
       75950000    3,502538502e-01   -4,361741245e-01
       76025000    3,493927717e-01   -4,387757778e-01
       76100000    3,497475386e-01   -4,382448494e-01
       76175000    3,473262489e-01   -4,376404881e-01
       76250000    3,447072804e-01   -4,374860227e-01
       76325000    3,446631134e-01   -4,382685721e-01
       76400000    3,425280750e-01   -4,379535317e-01
       76475000    3,433956802e-01   -4,399943650e-01
       76550000    3,414317071e-01   -4,407294393e-01
       76625000    3,379230499e-01   -4,416158795e-01
       76700000    3,384756744e-01   -4,408090413e-01
       76775000    3,381746709e-01   -4,400307238e-01
       76850000    3,362373114e-01   -4,428805113e-01
       76925000    3,375398517e-01   -4,401478469e-01
       77000000    3,375071287e-01   -4,402574003e-01
       77075000    3,359587193e-01   -4,426220953e-01
       77150000    3,339555562e-01   -4,449248910e-01
       77225000    3,313415647e-01   -4,419184029e-01
       77300000    3,320582211e-01   -4,422715008e-01
       77375000    3,297584057e-01   -4,437448978e-01
       77450000    3,313999176e-01   -4,422660172e-01
       77525000    3,300148249e-01   -4,422417879e-01
       77600000    3,294939697e-01   -4,437410533e-01
       77675000    3,295263946e-01   -4,408523142e-01
       77750000    3,279216588e-01   -4,391915202e-01
       77825000    3,273441792e-01   -4,426215589e-01
       77900000    3,273382485e-01   -4,374074638e-01
       77975000    3,255549669e-01   -4,381635785e-01
       78050000    3,261893988e-01   -4,406358302e-01
       78125000    3,266495168e-01   -4,358582795e-01
       78200000    3,260475993e-01   -4,371141195e-01
       78275000    3,288905621e-01   -4,363656342e-01
       78350000    3,270168304e-01   -4,354590178e-01
       78425000    3,287740052e-01   -4,353515208e-01
       78500000    3,303576410e-01   -4,358978868e-01
       78575000    3,291897774e-01   -4,403939545e-01
       78650000    3,316912353e-01   -4,402001500e-01
       78725000    3,322379291e-01   -4,387856424e-01
       78800000    3,296884000e-01   -4,421036839e-01
       78875000    3,314500451e-01   -4,421516657e-01
       78950000    3,303831816e-01   -4,430729747e-01
       79025000    3,325998187e-01   -4,423739016e-01
       79100000    3,332915306e-01   -4,437716901e-01
       79175000    3,308202326e-01   -4,419795275e-01
       79250000    3,329329789e-01   -4,424180984e-01
       79325000    3,318998814e-01   -4,461019635e-01
       79400000    3,357203603e-01   -4,455819428e-01
       79475000    3,369657695e-01   -4,453572929e-01
       79550000    3,333478570e-01   -4,447540641e-01
       79625000    3,354560733e-01   -4,453057051e-01
       79700000    3,371807039e-01   -4,500802755e-01
       79775000    3,386227489e-01   -4,477544129e-01
       79850000    3,371098042e-01   -4,483299851e-01
       79925000    3,401981890e-01   -4,511787593e-01
       80000000    3,413346410e-01   -4,527167082e-01
       80075000    3,386665881e-01   -4,524913430e-01
       80150000    3,402811885e-01   -4,553672671e-01
       80225000    3,395074904e-01   -4,525333345e-01
       80300000    3,418791592e-01   -4,547488093e-01
       80375000    3,401539624e-01   -4,574316144e-01
       80450000    3,439326286e-01   -4,595595300e-01
       80525000    3,455025554e-01   -4,621951580e-01
       80600000    3,467174768e-01   -4,616120756e-01
       80675000    3,475351334e-01   -4,627665579e-01
       80750000    3,449528217e-01   -4,628808796e-01
       80825000    3,468980491e-01   -4,672561884e-01
       80900000    3,474275768e-01   -4,704040885e-01
       80975000    3,467406034e-01   -4,681245685e-01
       81050000    3,486858606e-01   -4,722584784e-01
       81125000    3,477417231e-01   -4,750595093e-01
       81200000    3,495837450e-01   -4,758601189e-01
       81275000    3,485545218e-01   -4,788815677e-01
       81350000    3,511494696e-01   -4,799331725e-01
       81425000    3,509261906e-01   -4,792296588e-01
       81500000    3,485544324e-01   -4,796188474e-01
       81575000    3,510175943e-01   -4,832071662e-01
       81650000    3,525795043e-01   -4,886736572e-01
       81725000    3,494021297e-01   -4,908089340e-01
       81800000    3,523178101e-01   -4,923128188e-01
       81875000    3,541121781e-01   -4,944137633e-01
       81950000    3,536003828e-01   -4,938822985e-01
       82025000    3,539383411e-01   -4,972196817e-01
       82100000    3,521981239e-01   -4,978641570e-01
       82175000    3,534640670e-01   -5,009726882e-01
       82250000    3,511548042e-01   -5,024785399e-01
       82325000    3,528995812e-01   -5,075925589e-01
       82400000    3,511745632e-01   -5,112342834e-01
       82475000    3,540908992e-01   -5,125722289e-01
       82550000    3,543493450e-01   -5,162734389e-01
       82625000    3,542940617e-01   -5,164570212e-01
       82700000    3,542146385e-01   -5,202099681e-01
       82775000    3,540944457e-01   -5,210399628e-01
       82850000    3,542355895e-01   -5,238504410e-01
       82925000    3,532846868e-01   -5,252274871e-01
       83000000    3,532415330e-01   -5,292975307e-01
       83075000    3,517673612e-01   -5,300502181e-01
       83150000    3,521249592e-01   -5,341387391e-01
       83225000    3,507772684e-01   -5,354995131e-01
       83300000    3,502656817e-01   -5,388339758e-01
       83375000    3,487784564e-01   -5,414291024e-01
       83450000    3,498561680e-01   -5,471399426e-01
       83525000    3,490679264e-01   -5,514101982e-01
       83600000    3,487435579e-01   -5,519397855e-01
       83675000    3,455936015e-01   -5,543364286e-01
       83750000    3,423446417e-01   -5,572713614e-01
       83825000    3,457444608e-01   -5,614173412e-01
       83900000    3,437491357e-01   -5,656999946e-01
       83975000    3,448623717e-01   -5,648661852e-01
       84050000    3,417949378e-01   -5,670192242e-01
       84125000    3,387838900e-01   -5,689435005e-01
       84200000    3,391585648e-01   -5,754508972e-01
       84275000    3,400012851e-01   -5,765423179e-01
       84350000    3,367662132e-01   -5,773290992e-01
       84425000    3,366719782e-01   -5,808495879e-01
       84500000    3,333070874e-01   -5,823137760e-01
       84575000    3,323486447e-01   -5,893291831e-01
       84650000    3,331356645e-01   -5,932483077e-01
       84725000    3,297031224e-01   -5,910815597e-01
       84800000    3,282354772e-01   -5,941256285e-01
       84875000    3,248363435e-01   -5,964171290e-01
       84950000    3,252829909e-01   -6,029599905e-01
       85025000    3,217858672e-01   -6,042748690e-01
       85100000    3,209258020e-01   -6,105945706e-01
       85175000    3,200055361e-01   -6,076863408e-01
       85250000    3,184673786e-01   -6,111046076e-01
       85325000    3,116351366e-01   -6,163361669e-01
       85400000    3,131646514e-01   -6,192827821e-01
       85475000    3,111588657e-01   -6,239554882e-01
       85550000    3,053933382e-01   -6,239923239e-01
       85625000    3,069372773e-01   -6,225451231e-01
       85700000    3,029141724e-01   -6,257321239e-01
       85775000    3,011693656e-01   -6,329899430e-01
       85850000    2,967350185e-01   -6,308507323e-01
       85925000    2,987191975e-01   -6,337677240e-01
       86000000    2,963266969e-01   -6,369511485e-01
       86075000    2,921675742e-01   -6,363022923e-01
       86150000    2,889382541e-01   -6,412735581e-01
       86225000    2,865194380e-01   -6,415039301e-01
       86300000    2,859611511e-01   -6,479699016e-01
       86375000    2,814703584e-01   -6,503883600e-01
       86450000    2,799202204e-01   -6,505047083e-01
       86525000    2,756804824e-01   -6,504148841e-01
       86600000    2,732640505e-01   -6,556806564e-01
       86675000    2,737941146e-01   -6,542285681e-01
       86750000    2,700190842e-01   -6,571165919e-01
       86825000    2,656330466e-01   -6,606608033e-01
       86900000    2,596563101e-01   -6,573427916e-01
       86975000    2,576270103e-01   -6,590126753e-01
       87050000    2,585728467e-01   -6,636356711e-01
       87125000    2,559837997e-01   -6,623547077e-01
       87200000    2,503499389e-01   -6,619616747e-01
       87275000    2,494147271e-01   -6,675471067e-01
       87350000    2,473815829e-01   -6,650371552e-01
       87425000    2,421331406e-01   -6,655254960e-01
       87500000    2,421935946e-01   -6,689866185e-01
       87575000    2,369052172e-01   -6,674659848e-01
       87650000    2,347479761e-01   -6,692839265e-01
       87725000    2,310942262e-01   -6,756361723e-01
       87800000    2,311028689e-01   -6,783251166e-01
       87875000    2,292452604e-01   -6,764148474e-01
       87950000    2,219361961e-01   -6,752397418e-01
       88025000    2,224436849e-01   -6,732901335e-01
       88100000    2,196632326e-01   -6,754208207e-01
       88175000    2,171940058e-01   -6,800300479e-01
       88250000    2,165978402e-01   -6,794266105e-01
       88325000    2,117980570e-01   -6,787924170e-01
       88400000    2,066396624e-01   -6,793788075e-01
       88475000    2,070679069e-01   -6,811940074e-01
       88550000    2,018580139e-01   -6,819536090e-01
       88625000    2,029517293e-01   -6,799073219e-01
       88700000    1,998949051e-01   -6,848971248e-01
       88775000    1,958371550e-01   -6,826854944e-01
       88850000    1,942391396e-01   -6,861993670e-01
       88925000    1,910877079e-01   -6,818207502e-01
       89000000    1,900327653e-01   -6,829625964e-01
       89075000    1,837873012e-01   -6,835148931e-01
       89150000    1,831202060e-01   -6,843652129e-01
       89225000    1,783620566e-01   -6,874206662e-01
       89300000    1,783945560e-01   -6,857276559e-01
       89375000    1,738409251e-01   -6,871281266e-01
       89450000    1,740743220e-01   -6,865085363e-01
       89525000    1,713934392e-01   -6,835281849e-01
       89600000    1,670840383e-01   -6,819251776e-01
       89675000    1,680635810e-01   -6,821232438e-01
       89750000    1,655304432e-01   -6,826514602e-01
       89825000    1,628854722e-01   -6,845594645e-01
       89900000    1,619863063e-01   -6,814734340e-01
       89975000    1,588069946e-01   -6,825218201e-01
       90050000    1,570761800e-01   -6,773868799e-01
       90125000    1,559530944e-01   -6,786035299e-01
       90200000    1,509868503e-01   -6,778348088e-01
       90275000    1,543390751e-01   -6,764608622e-01
       90350000    1,529108435e-01   -6,767518520e-01
       90425000    1,477491856e-01   -6,748364568e-01
       90500000    1,499508172e-01   -6,752768159e-01
       90575000    1,511966586e-01   -6,768499017e-01
       90650000    1,467823386e-01   -6,724448800e-01
       90725000    1,506714970e-01   -6,743268371e-01
       90800000    1,489756405e-01   -6,755760908e-01
       90875000    1,511173397e-01   -6,724038124e-01
       90950000    1,503840387e-01   -6,736314297e-01
       91025000    1,501276195e-01   -6,718639135e-01
       91100000    1,507346332e-01   -6,733437181e-01
       91175000    1,469812095e-01   -6,738471389e-01
       91250000    1,485533416e-01   -6,752216816e-01
       91325000    1,464497447e-01   -6,753035188e-01
       91400000    1,499618292e-01   -6,787581444e-01
       91475000    1,501879096e-01   -6,810190678e-01
       91550000    1,519217491e-01   -6,795474291e-01
       91625000    1,509097964e-01   -6,824310422e-01
       91700000    1,510363668e-01   -6,816347837e-01
       91775000    1,506519467e-01   -6,851324439e-01
       91850000    1,489472687e-01   -6,837509871e-01
       91925000    1,487553418e-01   -6,866629720e-01
