! NanoVNA-App
! Date: 2025-08-09 16:16:46
! Start: 65MHz Stop: 95MHz Points: 401
! S-Parameter data: F S11
# Hz S RI R 50
!     Frequency           S11_Real           S11_Imag
       65000000    7,619209290e-01    3,670058399e-02
       65075000    7,626797557e-01    3,501776978e-02
       65150000    7,615723610e-01    2,998764068e-02
       65225000    7,596929073e-01    2,721772157e-02
       65300000    7,584054470e-01    2,557968721e-02
       65375000    7,580552697e-01    2,150849625e-02
       65450000    7,566881776e-01    1,859457418e-02
       65525000    7,563630939e-01    1,606076397e-02
       65600000    7,542913556e-01    1,163153257e-02
       65675000    7,534137964e-01    9,042332880e-03
       65750000    7,528892756e-01    5,391956773e-03
       65825000    7,521253824e-01    2,558223670e-03
       65900000    7,511298060e-01   -1,724032103e-03
       65975000    7,493377924e-01   -3,871334018e-03
       66050000    7,484168410e-01   -7,811901625e-03
       66125000    7,475677133e-01   -9,284506552e-03
       66200000    7,464329004e-01   -1,312539261e-02
       66275000    7,453603148e-01   -1,570630260e-02
       66350000    7,436136007e-01   -1,884505339e-02
       66425000    7,429802418e-01   -2,232741006e-02
       66500000    7,411053777e-01   -2,567624487e-02
       66575000    7,403467298e-01   -2,772343904e-02
       66650000    7,391162515e-01   -3,134066612e-02
       66725000    7,390316129e-01   -3,344767541e-02
       66800000    7,388430834e-01   -3,575044125e-02
       66875000    7,370049357e-01   -3,837875277e-02
       66950000    7,363808751e-01   -4,085794836e-02
       67025000    7,354701757e-01   -4,377113655e-02
       67100000    7,347391844e-01   -4,579257965e-02
       67175000    7,336639166e-01   -4,841118306e-02
       67250000    7,332323790e-01   -5,223402753e-02
       67325000    7,321282029e-01   -5,410787463e-02
       67400000    7,323693037e-01   -5,625880510e-02
       67475000    7,312138081e-01   -6,122027710e-02
       67550000    7,301512957e-01   -6,366662681e-02
       67625000    7,302922010e-01   -6,557638198e-02
       67700000    7,294411659e-01   -6,905733049e-02
       67775000    7,295718193e-01   -7,287873328e-02
       67850000    7,273388505e-01   -7,604520768e-02
       67925000    7,271768451e-01   -7,814842463e-02
       68000000    7,264413238e-01   -8,129404485e-02
       68075000    7,239830494e-01   -8,416583389e-02
       68150000    7,234049439e-01   -8,648394048e-02
       68225000    7,226657271e-01   -9,124371409e-02
       68300000    7,216010690e-01   -9,342771024e-02
       68375000    7,208995819e-01   -9,782934189e-02
       68450000    7,202749252e-01   -9,877447784e-02
       68525000    7,194651961e-01   -1,018486917e-01
       68600000    7,181967497e-01   -1,041580662e-01
       68675000    7,172490954e-01   -1,068215519e-01
       68750000    7,166776657e-01   -1,079451591e-01
       68825000    7,140097618e-01   -1,121176332e-01
       68900000    7,122617364e-01   -1,151134148e-01
       68975000    7,119453549e-01   -1,172354147e-01
       69050000    7,088175416e-01   -1,205789894e-01
       69125000    7,096350789e-01   -1,225861013e-01
       69200000    7,076321244e-01   -1,255018711e-01
       69275000    7,063873410e-01   -1,281424910e-01
       69350000    7,049110532e-01   -1,312527657e-01
       69425000    7,048169374e-01   -1,331847012e-01
       69500000    7,022733092e-01   -1,359651983e-01
       69575000    7,013275027e-01   -1,384233683e-01
       69650000    6,999677420e-01   -1,413207650e-01
       69725000    6,988945007e-01   -1,435309201e-01
       69800000    6,969226599e-01   -1,473549306e-01
       69875000    6,961253285e-01   -1,483285576e-01
       69950000    6,948868036e-01   -1,524925232e-01
       70025000    6,928549409e-01   -1,527587771e-01
       70100000    6,934223175e-01   -1,556393653e-01
       70175000    6,910783052e-01   -1,571632922e-01
       70250000    6,890113950e-01   -1,583336890e-01
       70325000    6,886504292e-01   -1,606118232e-01
       70400000    6,864677668e-01   -1,627616435e-01
       70475000    6,860669255e-01   -1,653058678e-01
       70550000    6,861932278e-01   -1,682293713e-01
       70625000    6,842516065e-01   -1,681227535e-01
       70700000    6,827461123e-01   -1,711506397e-01
       70775000    6,812642813e-01   -1,743242592e-01
       70850000    6,815046668e-01   -1,760546118e-01
       70925000    6,810548306e-01   -1,770619899e-01
       71000000    6,806136370e-01   -1,785999537e-01
       71075000    6,793296337e-01   -1,816112101e-01
       71150000    6,788482666e-01   -1,846355200e-01
       71225000    6,773673892e-01   -1,884758025e-01
       71300000    6,763644218e-01   -1,906562448e-01
       71375000    6,763686538e-01   -1,935723722e-01
       71450000    6,745859981e-01   -1,934664547e-01
       71525000    6,740975976e-01   -1,956724674e-01
       71600000    6,717040539e-01   -1,996874213e-01
       71675000    6,719779968e-01   -2,017844319e-01
       71750000    6,699811220e-01   -2,038130164e-01
       71825000    6,682997942e-01   -2,065934837e-01
       71900000    6,672400236e-01   -2,084055245e-01
       71975000    6,648967266e-01   -2,120687813e-01
       72050000    6,625785828e-01   -2,122940719e-01
       72125000    6,595440507e-01   -2,168145180e-01
       72200000    6,587429643e-01   -2,172969282e-01
       72275000    6,570199132e-01   -2,206025124e-01
       72350000    6,569485664e-01   -2,214683294e-01
       72425000    6,534821391e-01   -2,239806205e-01
       72500000    6,529350281e-01   -2,239162326e-01
       72575000    6,494851112e-01   -2,237364948e-01
       72650000    6,477900743e-01   -2,260286659e-01
       72725000    6,480012536e-01   -2,284282297e-01
       72800000    6,462734342e-01   -2,274811417e-01
       72875000    6,469571590e-01   -2,317775935e-01
       72950000    6,440176964e-01   -2,328523993e-01
       73025000    6,412141323e-01   -2,332730293e-01
       73100000    6,432737708e-01   -2,356284112e-01
       73175000    6,427049637e-01   -2,371555418e-01
       73250000    6,417117715e-01   -2,383220643e-01
       73325000    6,398159862e-01   -2,396452874e-01
       73400000    6,391335130e-01   -2,397424430e-01
       73475000    6,377485394e-01   -2,428396344e-01
       73550000    6,393477321e-01   -2,427710891e-01
       73625000    6,381382346e-01   -2,448117435e-01
       73700000    6,376520991e-01   -2,442530692e-01
       73775000    6,367198229e-01   -2,455722392e-01
       73850000    6,346431375e-01   -2,465366274e-01
       73925000    6,333834529e-01   -2,497413158e-01
       74000000    6,327339411e-01   -2,522876263e-01
       74075000    6,335522532e-01   -2,539220154e-01
       74150000    6,333954334e-01   -2,531940043e-01
       74225000    6,332788467e-01   -2,571828365e-01
       74300000    6,325332522e-01   -2,583529353e-01
       74375000    6,311409473e-01   -2,593333721e-01
       74450000    6,278249621e-01   -2,632067502e-01
       74525000    6,284005642e-01   -2,633537352e-01
       74600000    6,265596151e-01   -2,666351497e-01
       74675000    6,286592484e-01   -2,679966986e-01
       74750000    6,272846460e-01   -2,705207467e-01
       74825000    6,266216040e-01   -2,690365314e-01
       74900000    6,259819865e-01   -2,717808783e-01
       74975000    6,226702929e-01   -2,733760178e-01
       75050000    6,226261854e-01   -2,750109732e-01
       75125000    6,203514338e-01   -2,777414918e-01
       75200000    6,211465001e-01   -2,777162790e-01
       75275000    6,192861199e-01   -2,805629075e-01
       75350000    6,186067462e-01   -2,818516195e-01
       75425000    6,186507344e-01   -2,858928144e-01
       75500000    6,202657819e-01   -2,857434452e-01
       75575000    6,176425219e-01   -2,895250320e-01
       75650000    6,160693169e-01   -2,896420360e-01
       75725000    6,153829694e-01   -2,920773625e-01
       75800000    6,142482758e-01   -2,932626009e-01
       75875000    6,131958365e-01   -2,960557938e-01
       75950000    6,122754216e-01   -2,964406908e-01
       76025000    6,103549600e-01   -2,967713475e-01
       76100000    6,076430082e-01   -2,991180718e-01
       76175000    6,076000333e-01   -3,005427718e-01
       76250000    6,070150137e-01   -3,022722900e-01
       76325000    6,064000726e-01   -3,044534028e-01
       76400000    6,053222418e-01   -3,074021637e-01
       76475000    6,034122705e-01   -3,041321635e-01
       76550000    6,047711968e-01   -3,079745770e-01
       76625000    6,034427285e-01   -3,103126884e-01
       76700000    6,019116640e-01   -3,103447258e-01
       76775000    5,989644527e-01   -3,109029830e-01
       76850000    5,990064144e-01   -3,139137328e-01
       76925000    5,971685648e-01   -3,108695149e-01
       77000000    6,008598208e-01   -3,119670749e-01
       77075000    5,979653597e-01   -3,141158521e-01
       77150000    5,960455537e-01   -3,171216846e-01
       77225000    5,946575999e-01   -3,141654730e-01
       77300000    5,951024294e-01   -3,165832460e-01
       77375000    5,941690207e-01   -3,183893859e-01
       77450000    5,964432359e-01   -3,209085464e-01
       77525000    5,953379273e-01   -3,216580749e-01
       77600000    5,942261815e-01   -3,245222270e-01
       77675000    5,950103998e-01   -3,252195120e-01
       77750000    5,948096514e-01   -3,251576722e-01
       77825000    5,919677615e-01   -3,281362355e-01
       77900000    5,944284201e-01   -3,277237713e-01
       77975000    5,930734873e-01   -3,279998302e-01
       78050000    5,900455713e-01   -3,322496414e-01
       78125000    5,926194191e-01   -3,322589695e-01
       78200000    5,920826197e-01   -3,321967423e-01
       78275000    5,902724862e-01   -3,377896845e-01
       78350000    5,926268697e-01   -3,366905451e-01
       78425000    5,911413431e-01   -3,377886117e-01
       78500000    5,901773572e-01   -3,408182263e-01
       78575000    5,885246396e-01   -3,381322622e-01
       78650000    5,896118879e-01   -3,391588032e-01
       78725000    5,880661607e-01   -3,444041312e-01
       78800000    5,889375806e-01   -3,433556259e-01
       78875000    5,890605450e-01   -3,435512483e-01
       78950000    5,875486135e-01   -3,447681963e-01
       79025000    5,869860053e-01   -3,463853896e-01
       79100000    5,858030319e-01   -3,478422761e-01
       79175000    5,869204402e-01   -3,516627550e-01
       79250000    5,864621997e-01   -3,544402122e-01
       79325000    5,886207819e-01   -3,531575799e-01
       79400000    5,884788632e-01   -3,553921580e-01
       79475000    5,859344006e-01   -3,535124660e-01
       79550000    5,859648585e-01   -3,581840694e-01
       79625000    5,849301815e-01   -3,606364429e-01
       79700000    5,883510113e-01   -3,611229658e-01
       79775000    5,888047814e-01   -3,616655171e-01
       79850000    5,845047235e-01   -3,638277948e-01
       79925000    5,885436535e-01   -3,634465933e-01
       80000000    5,917319655e-01   -3,641883135e-01
       80075000    5,837854743e-01   -3,698392212e-01
       80150000    5,846373439e-01   -3,697307110e-01
       80225000    5,847398043e-01   -3,731107712e-01
       80300000    5,868353844e-01   -3,736665249e-01
       80375000    5,850643516e-01   -3,738821149e-01
       80450000    5,869449377e-01   -3,793448806e-01
       80525000    5,869765878e-01   -3,828472495e-01
       80600000    5,858113170e-01   -3,864197135e-01
       80675000    5,878042579e-01   -3,862203360e-01
       80750000    5,878133774e-01   -3,863031268e-01
       80825000    5,840135217e-01   -3,878278434e-01
       80900000    5,856684446e-01   -3,906059861e-01
       80975000    5,883599520e-01   -3,938574195e-01
       81050000    5,848296285e-01   -3,938655853e-01
       81125000    5,846750736e-01   -3,964286447e-01
       81200000    5,857928991e-01   -3,990077972e-01
       81275000    5,853031278e-01   -4,005676806e-01
       81350000    5,832511187e-01   -4,024262726e-01
       81425000    5,840867758e-01   -4,080845714e-01
       81500000    5,826182365e-01   -4,124743342e-01
       81575000    5,824217796e-01   -4,131602347e-01
       81650000    5,843454599e-01   -4,116517305e-01
       81725000    5,847580433e-01   -4,169514179e-01
       81800000    5,849486589e-01   -4,183349609e-01
       81875000    5,820700526e-01   -4,175226390e-01
       81950000    5,834370852e-01   -4,179347456e-01
       82025000    5,817518830e-01   -4,232441485e-01
       82100000    5,792604685e-01   -4,250728488e-01
       82175000    5,794193745e-01   -4,276549220e-01
       82250000    5,775257349e-01   -4,301542640e-01
       82325000    5,799736381e-01   -4,352107942e-01
       82400000    5,788540244e-01   -4,388678968e-01
       82475000    5,810719132e-01   -4,389378726e-01
       82550000    5,804979801e-01   -4,437505901e-01
       82625000    5,802126527e-01   -4,437742829e-01
       82700000    5,798711181e-01   -4,475548267e-01
       82775000    5,789011717e-01   -4,492419958e-01
       82850000    5,800241828e-01   -4,522013664e-01
       82925000    5,776762366e-01   -4,542144239e-01
       83000000    5,774390697e-01   -4,586338401e-01
       83075000    5,762114525e-01   -4,593465328e-01
       83150000    5,769650936e-01   -4,639606476e-01
       83225000    5,759842396e-01   -4,648626149e-01
       83300000    5,746979117e-01   -4,692307711e-01
       83375000    5,740107298e-01   -4,707645476e-01
       83450000    5,716638565e-01   -4,700626433e-01
       83525000    5,694771409e-01   -4,721737802e-01
       83600000    5,695843101e-01   -4,756308198e-01
       83675000    5,698869824e-01   -4,831222892e-01
       83750000    5,704556704e-01   -4,842943251e-01
       83825000    5,699443221e-01   -4,840450585e-01
       83900000    5,685233474e-01   -4,859688282e-01
       83975000    5,656238794e-01   -4,893876016e-01
       84050000    5,618589520e-01   -4,941936135e-01
       84125000    5,623784065e-01   -4,973317981e-01
       84200000    5,649460554e-01   -5,023275614e-01
       84275000    5,605261326e-01   -5,002529025e-01
       84350000    5,607613325e-01   -5,037990808e-01
       84425000    5,566685796e-01   -5,058391690e-01
       84500000    5,563423038e-01   -5,089855790e-01
       84575000    5,549524426e-01   -5,177544951e-01
       84650000    5,565047860e-01   -5,174162388e-01
       84725000    5,540223718e-01   -5,170881748e-01
       84800000    5,511920452e-01   -5,193783641e-01
       84875000    5,481202006e-01   -5,219897032e-01
       84950000    5,467854738e-01   -5,315405130e-01
       85025000    5,442230105e-01   -5,295286775e-01
       85100000    5,432749987e-01   -5,363195539e-01
       85175000    5,444339514e-01   -5,391363502e-01
       85250000    5,430334210e-01   -5,399080515e-01
       85325000    5,393112898e-01   -5,403691530e-01
       85400000    5,356056094e-01   -5,412560105e-01
       85475000    5,345534086e-01   -5,456684232e-01
       85550000    5,341929793e-01   -5,485994220e-01
       85625000    5,326730013e-01   -5,500757098e-01
       85700000    5,313163400e-01   -5,566248894e-01
       85775000    5,263915658e-01   -5,544180274e-01
       85850000    5,253509879e-01   -5,633345246e-01
       85925000    5,194723606e-01   -5,629422069e-01
       86000000    5,173272491e-01   -5,659434199e-01
       86075000    5,134801269e-01   -5,693573952e-01
       86150000    5,179287195e-01   -5,696822405e-01
       86225000    5,131997466e-01   -5,732100010e-01
       86300000    5,104373097e-01   -5,706000924e-01
       86375000    5,108587146e-01   -5,773579478e-01
       86450000    5,070710778e-01   -5,753958821e-01
       86525000    5,033979416e-01   -5,814419985e-01
       86600000    5,030750632e-01   -5,809377432e-01
       86675000    4,973436296e-01   -5,805585384e-01
       86750000    4,962401092e-01   -5,824161768e-01
       86825000    4,959336221e-01   -5,864253640e-01
       86900000    4,866093099e-01   -5,910606980e-01
       86975000    4,844549000e-01   -5,925720930e-01
       87050000    4,877767563e-01   -5,912561417e-01
       87125000    4,793213308e-01   -5,881106257e-01
       87200000    4,770189822e-01   -5,924053192e-01
       87275000    4,773610830e-01   -5,984376073e-01
       87350000    4,739167392e-01   -5,944498181e-01
       87425000    4,719059169e-01   -5,963965654e-01
       87500000    4,720200300e-01   -5,940427780e-01
       87575000    4,648315310e-01   -5,982264280e-01
       87650000    4,650488794e-01   -6,006157398e-01
       87725000    4,607246816e-01   -6,052855253e-01
       87800000    4,606609046e-01   -6,055528522e-01
       87875000    4,599744380e-01   -6,071229577e-01
       87950000    4,532494545e-01   -6,039378047e-01
       88025000    4,560865462e-01   -6,052127481e-01
       88100000    4,528245330e-01   -6,057218909e-01
       88175000    4,468866587e-01   -6,103228927e-01
       88250000    4,464589357e-01   -6,107865572e-01
       88325000    4,473558068e-01   -6,083483100e-01
       88400000    4,447846413e-01   -6,085529327e-01
       88475000    4,423680305e-01   -6,101655960e-01
       88550000    4,374006391e-01   -6,105417013e-01
       88625000    4,385650456e-01   -6,174938083e-01
       88700000    4,370376170e-01   -6,136172414e-01
       88775000    4,367520213e-01   -6,156685352e-01
       88850000    4,292171001e-01   -6,152644157e-01
       88925000    4,310320020e-01   -6,205221415e-01
       89000000    4,266777039e-01   -6,217000484e-01
       89075000    4,282223582e-01   -6,200739145e-01
       89150000    4,251343012e-01   -6,228046417e-01
       89225000    4,251418412e-01   -6,198596358e-01
       89300000    4,231970012e-01   -6,223503351e-01
       89375000    4,216844440e-01   -6,207388043e-01
       89450000    4,179609120e-01   -6,223002672e-01
       89525000    4,107392728e-01   -6,243329644e-01
       89600000    4,108013511e-01   -6,240818501e-01
       89675000    4,093032181e-01   -6,210720539e-01
       89750000    4,055226445e-01   -6,224874258e-01
       89825000    4,092796743e-01   -6,219555736e-01
       89900000    4,070456326e-01   -6,226195693e-01
       89975000    4,051065445e-01   -6,208791137e-01
       90050000    4,032790363e-01   -6,214413643e-01
       90125000    3,978016973e-01   -6,206643581e-01
       90200000    3,991173208e-01   -6,226921082e-01
       90275000    4,019501507e-01   -6,223533154e-01
       90350000    4,010235667e-01   -6,211277246e-01
       90425000    3,965764344e-01   -6,220961213e-01
       90500000    3,955295682e-01   -6,206256747e-01
       90575000    3,984633684e-01   -6,256079674e-01
       90650000    3,988055587e-01   -6,219900250e-01
       90725000    3,942966163e-01   -6,270448565e-01
       90800000    3,967739940e-01   -6,264445782e-01
       90875000    3,969089389e-01   -6,291069388e-01
       90950000    4,002520740e-01   -6,271321177e-01
       91025000    3,984732628e-01   -6,305202246e-01
       91100000    4,009239972e-01   -6,290093660e-01
       91175000    4,007596374e-01   -6,291596889e-01
       91250000    3,994879425e-01   -6,286563873e-01
       91325000    4,016335905e-01   -6,323078275e-01
       91400000    3,960994184e-01   -6,325597167e-01
       91475000    3,979136646e-01   -6,344789267e-01
       91550000    3,960316777e-01   -6,384241581e-01
       91625000    3,966420889e-01   -6,402418613e-01
       91700000    3,950455487e-01   -6,420798302e-01
       91775000    3,972930014e-01   -6,457676291e-01
       91850000    3,954164684e-01   -6,477280855e-01
       91925000    3,969413340e-01   -6,518658400e-01
