! NanoVNA-App
! Date: 2025-08-02 16:01:18
! Start: 65MHz Stop: 95MHz Points: 401
! S-Parameter data: F S11
# Hz S RI R 50
!     Frequency           S11_Real           S11_Imag
       65000000    3,928065598e-01    7,764328271e-02
       65075000    3,983072639e-01    7,298270613e-02
       65150000    4,003910720e-01    6,755092740e-02
       65225000    4,023852050e-01    6,207078323e-02
       65300000    4,027409554e-01    5,432080477e-02
       65375000    4,036481082e-01    4,810160771e-02
       65450000    4,054112732e-01    4,045989737e-02
       65525000    4,053403437e-01    3,410079703e-02
       65600000    4,060185850e-01    2,885768749e-02
       65675000    4,056279063e-01    2,079526894e-02
       65750000    4,062487781e-01    1,623051055e-02
       65825000    4,060242176e-01    1,021481305e-02
       65900000    4,047726691e-01    5,367327016e-03
       65975000    4,048451483e-01   -1,519771758e-03
       66050000    4,032645226e-01   -6,411935203e-03
       66125000    4,041890204e-01   -1,296624541e-02
       66200000    4,035079181e-01   -1,879287511e-02
       66275000    4,010915756e-01   -2,397865616e-02
       66350000    4,017863870e-01   -2,847554348e-02
       66425000    4,014531076e-01   -3,372252733e-02
       66500000    3,997544050e-01   -3,763024509e-02
       66575000    4,001083374e-01   -4,355539754e-02
       66650000    3,982633948e-01   -4,669661820e-02
       66725000    3,979384601e-01   -5,222253501e-02
       66800000    3,964517713e-01   -5,759513751e-02
       66875000    3,970780075e-01   -6,227000803e-02
       66950000    3,951317072e-01   -6,692872196e-02
       67025000    3,950191736e-01   -7,148955017e-02
       67100000    3,954943419e-01   -7,675214857e-02
       67175000    3,955013454e-01   -8,139213175e-02
       67250000    3,938967884e-01   -8,474062383e-02
       67325000    3,937469125e-01   -9,066396952e-02
       67400000    3,924034834e-01   -9,713882208e-02
       67475000    3,893172145e-01   -1,003667191e-01
       67550000    3,907227218e-01   -1,066548750e-01
       67625000    3,893136978e-01   -1,126022488e-01
       67700000    3,867485821e-01   -1,156087890e-01
       67775000    3,840672672e-01   -1,216547564e-01
       67850000    3,813196123e-01   -1,280286908e-01
       67925000    3,803898096e-01   -1,314520389e-01
       68000000    3,769896030e-01   -1,374751925e-01
       68075000    3,770686686e-01   -1,387265325e-01
       68150000    3,745378256e-01   -1,445223987e-01
       68225000    3,700719774e-01   -1,471543163e-01
       68300000    3,685962856e-01   -1,512279063e-01
       68375000    3,662412465e-01   -1,539422721e-01
       68450000    3,644801974e-01   -1,602243930e-01
       68525000    3,614063263e-01   -1,648556739e-01
       68600000    3,602757752e-01   -1,674491167e-01
       68675000    3,574138582e-01   -1,725219637e-01
       68750000    3,557432592e-01   -1,735570878e-01
       68825000    3,522278666e-01   -1,769682765e-01
       68900000    3,484145701e-01   -1,790416986e-01
       68975000    3,470596373e-01   -1,837489605e-01
       69050000    3,437417150e-01   -1,848174781e-01
       69125000    3,410385251e-01   -1,887001991e-01
       69200000    3,381061852e-01   -1,903503239e-01
       69275000    3,348678946e-01   -1,940615326e-01
       69350000    3,320051432e-01   -1,947307289e-01
       69425000    3,301542401e-01   -1,987388432e-01
       69500000    3,255483806e-01   -1,998439282e-01
       69575000    3,232131600e-01   -2,029046565e-01
       69650000    3,198505640e-01   -2,045150548e-01
       69725000    3,178899884e-01   -2,063273489e-01
       69800000    3,141981065e-01   -2,072520405e-01
       69875000    3,117942214e-01   -2,109036446e-01
       69950000    3,088028133e-01   -2,141723931e-01
       70025000    3,071900308e-01   -2,120473981e-01
       70100000    3,053863943e-01   -2,172201127e-01
       70175000    3,041326404e-01   -2,184320539e-01
       70250000    3,014829159e-01   -2,160913646e-01
       70325000    2,975753844e-01   -2,188680321e-01
       70400000    2,964094877e-01   -2,186290026e-01
       70475000    2,938897610e-01   -2,223626822e-01
       70550000    2,922100127e-01   -2,251799554e-01
       70625000    2,920305431e-01   -2,233672291e-01
       70700000    2,888794839e-01   -2,256737947e-01
       70775000    2,841353118e-01   -2,271418571e-01
       70850000    2,850911021e-01   -2,278179079e-01
       70925000    2,842781842e-01   -2,294906974e-01
       71000000    2,822264135e-01   -2,292707115e-01
       71075000    2,800699174e-01   -2,309725881e-01
       71150000    2,797174752e-01   -2,341802120e-01
       71225000    2,743806541e-01   -2,365123183e-01
       71300000    2,746731937e-01   -2,368389070e-01
       71375000    2,730325460e-01   -2,396307290e-01
       71450000    2,704774141e-01   -2,353545278e-01
       71525000    2,707568705e-01   -2,379020900e-01
       71600000    2,681067288e-01   -2,406859249e-01
       71675000    2,672423422e-01   -2,416275591e-01
       71750000    2,656552494e-01   -2,417147011e-01
       71825000    2,633528113e-01   -2,451562732e-01
       71900000    2,612682283e-01   -2,439639121e-01
       71975000    2,604797482e-01   -2,461234629e-01
       72050000    2,568618953e-01   -2,487927079e-01
       72125000    2,530835569e-01   -2,508763075e-01
       72200000    2,538681626e-01   -2,507687509e-01
       72275000    2,519980669e-01   -2,538470030e-01
       72350000    2,521414757e-01   -2,516801357e-01
       72425000    2,473126352e-01   -2,542269230e-01
       72500000    2,457724065e-01   -2,522443533e-01
       72575000    2,445829362e-01   -2,545548081e-01
       72650000    2,398591936e-01   -2,535886765e-01
       72725000    2,415875793e-01   -2,548142076e-01
       72800000    2,379662395e-01   -2,574776113e-01
       72875000    2,369582653e-01   -2,554183304e-01
       72950000    2,350692451e-01   -2,566619515e-01
       73025000    2,325323522e-01   -2,583540380e-01
       73100000    2,273003757e-01   -2,579549253e-01
       73175000    2,299939096e-01   -2,562371790e-01
       73250000    2,265665978e-01   -2,557238340e-01
       73325000    2,253653258e-01   -2,589423656e-01
       73400000    2,246479839e-01   -2,548173070e-01
       73475000    2,228845656e-01   -2,563752234e-01
       73550000    2,181859016e-01   -2,553822398e-01
       73625000    2,176957726e-01   -2,566308975e-01
       73700000    2,159592509e-01   -2,553550601e-01
       73775000    2,146933973e-01   -2,575019598e-01
       73850000    2,123789489e-01   -2,590757608e-01
       73925000    2,160299122e-01   -2,560003698e-01
       74000000    2,118200362e-01   -2,579452395e-01
       74075000    2,108916193e-01   -2,536630034e-01
       74150000    2,104489952e-01   -2,569611669e-01
       74225000    2,067105770e-01   -2,554665804e-01
       74300000    2,042680383e-01   -2,551061809e-01
       74375000    2,076550424e-01   -2,562002242e-01
       74450000    2,057024091e-01   -2,545427382e-01
       74525000    2,045174688e-01   -2,525922656e-01
       74600000    2,045086771e-01   -2,544967532e-01
       74675000    1,999901235e-01   -2,509215474e-01
       74750000    2,013165802e-01   -2,528432608e-01
       74825000    1,986402273e-01   -2,558688521e-01
       74900000    2,000333220e-01   -2,533072233e-01
       74975000    1,989181340e-01   -2,536046207e-01
       75050000    2,005259693e-01   -2,514537275e-01
       75125000    1,988291889e-01   -2,519009411e-01
       75200000    1,988651901e-01   -2,506765127e-01
       75275000    1,969562918e-01   -2,524122894e-01
       75350000    1,968993992e-01   -2,489894480e-01
       75425000    1,947988868e-01   -2,498380095e-01
       75500000    1,928333640e-01   -2,481245250e-01
       75575000    1,935874522e-01   -2,494091988e-01
       75650000    1,916053593e-01   -2,475144565e-01
       75725000    1,918444484e-01   -2,492076010e-01
       75800000    1,901966631e-01   -2,473942190e-01
       75875000    1,912922859e-01   -2,481035292e-01
       75950000    1,891963333e-01   -2,467059195e-01
       76025000    1,908792555e-01   -2,454517186e-01
       76100000    1,906768531e-01   -2,463437468e-01
       76175000    1,893158108e-01   -2,438995093e-01
       76250000    1,891759038e-01   -2,457337230e-01
       76325000    1,872196347e-01   -2,433440238e-01
       76400000    1,886015832e-01   -2,444040328e-01
       76475000    1,885848343e-01   -2,465122938e-01
       76550000    1,866381317e-01   -2,433061451e-01
       76625000    1,879959553e-01   -2,429215610e-01
       76700000    1,855316460e-01   -2,439832985e-01
       76775000    1,873223335e-01   -2,391260564e-01
       76850000    1,880277991e-01   -2,404941618e-01
       76925000    1,883668154e-01   -2,401035577e-01
       77000000    1,894498467e-01   -2,368688136e-01
       77075000    1,895207465e-01   -2,370287180e-01
       77150000    1,875973195e-01   -2,378534526e-01
       77225000    1,888580471e-01   -2,350941300e-01
       77300000    1,886289716e-01   -2,328570634e-01
       77375000    1,894605011e-01   -2,339550704e-01
       77450000    1,889188290e-01   -2,332320064e-01
       77525000    1,884528250e-01   -2,321218401e-01
       77600000    1,919422150e-01   -2,315342873e-01
       77675000    1,918504536e-01   -2,317140847e-01
       77750000    1,959587783e-01   -2,295111120e-01
       77825000    1,944295168e-01   -2,285891622e-01
       77900000    1,961874068e-01   -2,299075574e-01
       77975000    1,986974776e-01   -2,257010341e-01
       78050000    1,984202713e-01   -2,257490903e-01
       78125000    2,002767026e-01   -2,278430611e-01
       78200000    2,027967274e-01   -2,247602344e-01
       78275000    2,033680081e-01   -2,262016535e-01
       78350000    2,052325159e-01   -2,268227786e-01
       78425000    2,052354962e-01   -2,260238379e-01
       78500000    2,087734938e-01   -2,239632756e-01
       78575000    2,108133882e-01   -2,245745659e-01
       78650000    2,126299590e-01   -2,216950804e-01
       78725000    2,128192186e-01   -2,238352597e-01
       78800000    2,155040056e-01   -2,251779437e-01
       78875000    2,190684676e-01   -2,226749212e-01
       78950000    2,193592042e-01   -2,246856242e-01
       79025000    2,212533206e-01   -2,227645218e-01
       79100000    2,245849669e-01   -2,246843129e-01
       79175000    2,242060453e-01   -2,265886068e-01
       79250000    2,267341465e-01   -2,270627916e-01
       79325000    2,299569696e-01   -2,288621366e-01
       79400000    2,336221784e-01   -2,282326072e-01
       79475000    2,351453155e-01   -2,288273424e-01
       79550000    2,324224859e-01   -2,297891974e-01
       79625000    2,370411605e-01   -2,322775722e-01
       79700000    2,393219024e-01   -2,339555770e-01
       79775000    2,428446263e-01   -2,325537801e-01
       79850000    2,427544743e-01   -2,350668758e-01
       79925000    2,458186895e-01   -2,377547175e-01
       80000000    2,480003238e-01   -2,369610369e-01
       80075000    2,485553026e-01   -2,396471351e-01
       80150000    2,486835569e-01   -2,438261509e-01
       80225000    2,533438206e-01   -2,412387282e-01
       80300000    2,553088367e-01   -2,441921681e-01
       80375000    2,538870871e-01   -2,450426966e-01
       80450000    2,563484013e-01   -2,495014966e-01
       80525000    2,557093799e-01   -2,518932819e-01
       80600000    2,600440681e-01   -2,548298538e-01
       80675000    2,601962686e-01   -2,579087913e-01
       80750000    2,628501058e-01   -2,559057474e-01
       80825000    2,629303336e-01   -2,594670951e-01
       80900000    2,622170150e-01   -2,609719932e-01
       80975000    2,678803504e-01   -2,620365918e-01
       81050000    2,668801248e-01   -2,659104168e-01
       81125000    2,656260133e-01   -2,665122747e-01
       81200000    2,682345212e-01   -2,702935934e-01
       81275000    2,661598027e-01   -2,713124454e-01
       81350000    2,687390447e-01   -2,756524086e-01
       81425000    2,684068084e-01   -2,813795507e-01
       81500000    2,701178491e-01   -2,823737562e-01
       81575000    2,684661746e-01   -2,859894931e-01
       81650000    2,686771452e-01   -2,832196951e-01
       81725000    2,713049948e-01   -2,853775024e-01
       81800000    2,710807323e-01   -2,894158661e-01
       81875000    2,681275904e-01   -2,905245423e-01
       81950000    2,687065601e-01   -2,947368622e-01
       82025000    2,671317756e-01   -2,957884669e-01
       82100000    2,694779336e-01   -2,989084125e-01
       82175000    2,662336230e-01   -3,021603227e-01
       82250000    2,692065835e-01   -3,028972447e-01
       82325000    2,688857019e-01   -3,065269291e-01
       82400000    2,702576816e-01   -3,051106930e-01
       82475000    2,703763247e-01   -3,071457446e-01
       82550000    2,685784400e-01   -3,046136200e-01
       82625000    2,688385546e-01   -3,093600273e-01
       82700000    2,673668563e-01   -3,073782623e-01
       82775000    2,677349746e-01   -3,118399084e-01
       82850000    2,664479613e-01   -3,118069768e-01
       82925000    2,682840526e-01   -3,140712976e-01
       83000000    2,668000162e-01   -3,136761189e-01
       83075000    2,673346102e-01   -3,170374036e-01
       83150000    2,664167583e-01   -3,158704638e-01
       83225000    2,669904232e-01   -3,189037144e-01
       83300000    2,664370537e-01   -3,180868626e-01
       83375000    2,675694525e-01   -3,213337362e-01
       83450000    2,662230432e-01   -3,266824186e-01
       83525000    2,684114277e-01   -3,243811429e-01
       83600000    2,662263811e-01   -3,289418221e-01
       83675000    2,658258677e-01   -3,235056996e-01
       83750000    2,686435580e-01   -3,270586431e-01
       83825000    2,657934725e-01   -3,302046359e-01
       83900000    2,692010999e-01   -3,308692276e-01
       83975000    2,704370916e-01   -3,335652053e-01
       84050000    2,720370293e-01   -3,303866088e-01
       84125000    2,725022137e-01   -3,342160881e-01
       84200000    2,677348554e-01   -3,336141706e-01
       84275000    2,730810046e-01   -3,374165595e-01
       84350000    2,715483010e-01   -3,408260345e-01
       84425000    2,748902440e-01   -3,392055333e-01
       84500000    2,741877437e-01   -3,418470025e-01
       84575000    2,726340592e-01   -3,384362459e-01
       84650000    2,754720449e-01   -3,431360126e-01
       84725000    2,756226063e-01   -3,473162353e-01
       84800000    2,788397968e-01   -3,458258212e-01
       84875000    2,771263719e-01   -3,496120274e-01
       84950000    2,764718235e-01   -3,463379443e-01
       85025000    2,816831172e-01   -3,492191732e-01
       85100000    2,798372209e-01   -3,507668674e-01
       85175000    2,775890231e-01   -3,545466363e-01
       85250000    2,817525566e-01   -3,562370241e-01
       85325000    2,845483422e-01   -3,585146368e-01
       85400000    2,863906324e-01   -3,555274904e-01
       85475000    2,870130539e-01   -3,594919443e-01
       85550000    2,857135236e-01   -3,642569780e-01
       85625000    2,834510505e-01   -3,627481759e-01
       85700000    2,882381678e-01   -3,660981953e-01
       85775000    2,915396392e-01   -3,693862855e-01
       85850000    2,868652642e-01   -3,714028597e-01
       85925000    2,925601900e-01   -3,687412739e-01
       86000000    2,935502231e-01   -3,737389147e-01
       86075000    2,914017737e-01   -3,730369210e-01
       86150000    2,952243388e-01   -3,806864321e-01
       86225000    2,947577536e-01   -3,817426562e-01
       86300000    2,982249558e-01   -3,880064785e-01
       86375000    2,977060974e-01   -3,915877938e-01
       86450000    3,005435765e-01   -3,912235796e-01
       86525000    2,989037037e-01   -3,935383260e-01
       86600000    3,000934422e-01   -3,993442059e-01
       86675000    3,033388555e-01   -3,984004259e-01
       86750000    3,018028140e-01   -4,057630599e-01
       86825000    2,992347777e-01   -4,087098837e-01
       86900000    2,998486459e-01   -4,046826065e-01
       86975000    3,018004000e-01   -4,078518152e-01
       87050000    3,034187257e-01   -4,165982008e-01
       87125000    3,049925864e-01   -4,189832509e-01
       87200000    3,050785959e-01   -4,183325469e-01
       87275000    3,035449088e-01   -4,244245589e-01
       87350000    3,053001463e-01   -4,294013679e-01
       87425000    3,075235784e-01   -4,303072393e-01
       87500000    3,005247116e-01   -4,352906048e-01
       87575000    3,058476448e-01   -4,340268672e-01
       87650000    3,042628467e-01   -4,410825968e-01
       87725000    2,998941243e-01   -4,425167441e-01
       87800000    3,026700914e-01   -4,478464127e-01
       87875000    3,005632162e-01   -4,521125555e-01
       87950000    2,979187667e-01   -4,479852319e-01
       88025000    3,031245172e-01   -4,566679597e-01
       88100000    3,032467365e-01   -4,619105160e-01
       88175000    2,992894351e-01   -4,606411159e-01
       88250000    3,003416359e-01   -4,662859440e-01
       88325000    3,014373183e-01   -4,712600708e-01
       88400000    3,014954031e-01   -4,717933536e-01
       88475000    3,011499047e-01   -4,771571755e-01
       88550000    3,017861545e-01   -4,761283994e-01
       88625000    2,981474102e-01   -4,832092822e-01
       88700000    2,992506027e-01   -4,864188433e-01
       88775000    2,941087484e-01   -4,908897877e-01
       88850000    2,981412411e-01   -4,891077876e-01
       88925000    2,961333394e-01   -4,963304400e-01
       89000000    2,926117182e-01   -4,990189075e-01
       89075000    2,956438065e-01   -5,024927855e-01
       89150000    2,903472483e-01   -5,060809255e-01
       89225000    2,957253456e-01   -5,091008544e-01
       89300000    2,905904353e-01   -5,155757666e-01
       89375000    2,939477563e-01   -5,146337748e-01
       89450000    2,891911566e-01   -5,210600495e-01
       89525000    2,867321372e-01   -5,197095871e-01
       89600000    2,877221704e-01   -5,254271626e-01
       89675000    2,880808711e-01   -5,302422047e-01
       89750000    2,871355116e-01   -5,300111771e-01
       89825000    2,873547673e-01   -5,349188447e-01
       89900000    2,838517725e-01   -5,430086255e-01
       89975000    2,848095596e-01   -5,434001088e-01
       90050000    2,812047899e-01   -5,485146046e-01
       90125000    2,792365849e-01   -5,475791693e-01
       90200000    2,781635225e-01   -5,540599823e-01
       90275000    2,764787376e-01   -5,598216653e-01
       90350000    2,773425579e-01   -5,601896048e-01
       90425000    2,737362087e-01   -5,641077161e-01
       90500000    2,717994153e-01   -5,647768378e-01
       90575000    2,715718448e-01   -5,728729963e-01
       90650000    2,685273588e-01   -5,765762329e-01
       90725000    2,618386745e-01   -5,803501606e-01
       90800000    2,654196322e-01   -5,854578614e-01
       90875000    2,599589825e-01   -5,881921053e-01
       90950000    2,625024617e-01   -5,899627209e-01
       91025000    2,567247450e-01   -5,957756639e-01
       91100000    2,583765090e-01   -5,967423916e-01
       91175000    2,534039617e-01   -6,021664739e-01
       91250000    2,525451481e-01   -6,009922028e-01
       91325000    2,480920851e-01   -6,090202928e-01
       91400000    2,431176007e-01   -6,066079140e-01
       91475000    2,420607954e-01   -6,153755784e-01
       91550000    2,357583195e-01   -6,162065268e-01
       91625000    2,379299551e-01   -6,219998002e-01
       91700000    2,300048918e-01   -6,236863732e-01
       91775000    2,322841734e-01   -6,288458109e-01
       91850000    2,242890298e-01   -6,319501996e-01
       91925000    2,268786728e-01   -6,342168450e-01
