! NanoVNA-App
! Date: 2025-08-09 13:01:42
! Start: 65MHz Stop: 95MHz Points: 401
! S-Parameter data: F S11
# Hz S RI R 50
!     Frequency           S11_Real           S11_Imag
       65000000    1,962134689e-01    2,497946024e-01
       65075000    1,965019405e-01    2,483421415e-01
       65150000    1,992503405e-01    2,422144413e-01
       65225000    2,003830969e-01    2,389294803e-01
       65300000    2,017188519e-01    2,352000177e-01
       65375000    2,027435303e-01    2,293036282e-01
       65450000    2,042168379e-01    2,260196358e-01
       65525000    2,059762180e-01    2,215181291e-01
       65600000    2,081334591e-01    2,182686329e-01
       65675000    2,093558162e-01    2,129986733e-01
       65750000    2,118573636e-01    2,093982548e-01
       65825000    2,131881565e-01    2,054558992e-01
       65900000    2,151915282e-01    2,019099891e-01
       65975000    2,160754353e-01    1,976969242e-01
       66050000    2,174627185e-01    1,940487474e-01
       66125000    2,192292064e-01    1,899157315e-01
       66200000    2,207376063e-01    1,865004152e-01
       66275000    2,223649472e-01    1,826604009e-01
       66350000    2,237978876e-01    1,796685159e-01
       66425000    2,255303562e-01    1,755487770e-01
       66500000    2,265689373e-01    1,714294404e-01
       66575000    2,278470695e-01    1,676990688e-01
       66650000    2,289652824e-01    1,645121425e-01
       66725000    2,303382009e-01    1,609350741e-01
       66800000    2,317506522e-01    1,574908942e-01
       66875000    2,328481525e-01    1,546114385e-01
       66950000    2,343950719e-01    1,517882198e-01
       67025000    2,366081476e-01    1,488555670e-01
       67100000    2,384181023e-01    1,456420869e-01
       67175000    2,389831394e-01    1,415402442e-01
       67250000    2,416368574e-01    1,388612688e-01
       67325000    2,429688722e-01    1,346739084e-01
       67400000    2,442146242e-01    1,312075108e-01
       67475000    2,464966327e-01    1,276987046e-01
       67550000    2,481357157e-01    1,244402304e-01
       67625000    2,492662817e-01    1,201821193e-01
       67700000    2,504062355e-01    1,172676235e-01
       67775000    2,521484196e-01    1,131059155e-01
       67850000    2,537996173e-01    1,098431349e-01
       67925000    2,549596131e-01    1,063868254e-01
       68000000    2,565473318e-01    1,014657021e-01
       68075000    2,583756149e-01    9,816326201e-02
       68150000    2,594688237e-01    9,385398775e-02
       68225000    2,602220774e-01    9,019484371e-02
       68300000    2,629753053e-01    8,667000383e-02
       68375000    2,622241974e-01    8,248248696e-02
       68450000    2,640922070e-01    7,796813548e-02
       68525000    2,647750974e-01    7,360045612e-02
       68600000    2,651432157e-01    7,006864995e-02
       68675000    2,662705779e-01    6,616666168e-02
       68750000    2,670288980e-01    6,134737656e-02
       68825000    2,673864365e-01    5,745603517e-02
       68900000    2,672247589e-01    5,343922600e-02
       68975000    2,676288486e-01    4,882100597e-02
       69050000    2,676904202e-01    4,538898170e-02
       69125000    2,685837150e-01    4,090537503e-02
       69200000    2,671992481e-01    3,637766093e-02
       69275000    2,675544024e-01    3,255675733e-02
       69350000    2,677585185e-01    2,868664823e-02
       69425000    2,671692073e-01    2,460382506e-02
       69500000    2,659595013e-01    2,045287192e-02
       69575000    2,651627362e-01    1,679250970e-02
       69650000    2,640541494e-01    1,291481964e-02
       69725000    2,635406554e-01    9,560104460e-03
       69800000    2,623418570e-01    5,312837660e-03
       69875000    2,617411315e-01    3,922863863e-03
       69950000    2,605330348e-01    1,986086427e-04
       70025000    2,593034506e-01   -3,623863216e-03
       70100000    2,575792670e-01   -6,417290773e-03
       70175000    2,565475106e-01   -9,787683375e-03
       70250000    2,551000714e-01   -1,282761805e-02
       70325000    2,539775372e-01   -1,434309687e-02
       70400000    2,521440685e-01   -1,830520108e-02
       70475000    2,507838905e-01   -1,981842890e-02
       70550000    2,500236332e-01   -2,225902304e-02
       70625000    2,476956397e-01   -2,516168542e-02
       70700000    2,466975302e-01   -2,665159293e-02
       70775000    2,459642887e-01   -2,786189876e-02
       70850000    2,430647165e-01   -2,974753454e-02
       70925000    2,432808280e-01   -3,128294647e-02
       71000000    2,422598153e-01   -3,368698806e-02
       71075000    2,401147038e-01   -3,476553038e-02
       71150000    2,399367094e-01   -3,684100136e-02
       71225000    2,387392223e-01   -3,791264072e-02
       71300000    2,372123748e-01   -4,030372202e-02
       71375000    2,368787229e-01   -4,120023549e-02
       71450000    2,355307341e-01   -4,260751233e-02
       71525000    2,347833216e-01   -4,403514415e-02
       71600000    2,338889539e-01   -4,650755972e-02
       71675000    2,326990068e-01   -4,674406722e-02
       71750000    2,319577932e-01   -4,796641320e-02
       71825000    2,309994698e-01   -4,955145717e-02
       71900000    2,309204787e-01   -5,106871575e-02
       71975000    2,299906462e-01   -5,190725997e-02
       72050000    2,288653553e-01   -5,368651450e-02
       72125000    2,282996774e-01   -5,409100652e-02
       72200000    2,275249362e-01   -5,532741174e-02
       72275000    2,263970673e-01   -5,572718382e-02
       72350000    2,264173776e-01   -5,810852721e-02
       72425000    2,246597111e-01   -5,857742950e-02
       72500000    2,241681069e-01   -5,959334224e-02
       72575000    2,234375328e-01   -6,045028195e-02
       72650000    2,237373292e-01   -6,151868403e-02
       72725000    2,228344530e-01   -6,265452504e-02
       72800000    2,215642482e-01   -6,417505443e-02
       72875000    2,219644785e-01   -6,415525824e-02
       72950000    2,208567411e-01   -6,525104493e-02
       73025000    2,204844803e-01   -6,639773399e-02
       73100000    2,206797898e-01   -6,599836797e-02
       73175000    2,197246552e-01   -6,738924980e-02
       73250000    2,199966908e-01   -6,843934953e-02
       73325000    2,192301750e-01   -6,949326396e-02
       73400000    2,193123847e-01   -6,959545612e-02
       73475000    2,189680189e-01   -7,105199248e-02
       73550000    2,187442183e-01   -7,052917778e-02
       73625000    2,185159624e-01   -7,144766301e-02
       73700000    2,179860175e-01   -7,181201130e-02
       73775000    2,181480080e-01   -7,347831875e-02
       73850000    2,179104984e-01   -7,444397360e-02
       73925000    2,183447629e-01   -7,437600195e-02
       74000000    2,180240601e-01   -7,601044327e-02
       74075000    2,173901349e-01   -7,554123551e-02
       74150000    2,174534649e-01   -7,683914155e-02
       74225000    2,173016369e-01   -7,779646665e-02
       74300000    2,171265781e-01   -7,860153913e-02
       74375000    2,177742124e-01   -7,955591381e-02
       74450000    2,171730548e-01   -7,996233553e-02
       74525000    2,171172500e-01   -8,074269444e-02
       74600000    2,171563953e-01   -8,160907030e-02
       74675000    2,164255381e-01   -8,180454373e-02
       74750000    2,172104716e-01   -8,381076902e-02
       74825000    2,173349261e-01   -8,462998271e-02
       74900000    2,178532183e-01   -8,417829126e-02
       74975000    2,165725827e-01   -8,595348895e-02
       75050000    2,162742317e-01   -8,633930236e-02
       75125000    2,170415074e-01   -8,678485453e-02
       75200000    2,159582675e-01   -8,826451004e-02
       75275000    2,164675295e-01   -8,866548538e-02
       75350000    2,157513052e-01   -8,933442831e-02
       75425000    2,164101154e-01   -8,995522559e-02
       75500000    2,158536315e-01   -9,210277349e-02
       75575000    2,168736458e-01   -9,123692662e-02
       75650000    2,153512090e-01   -9,283579886e-02
       75725000    2,159232646e-01   -9,313126653e-02
       75800000    2,164779603e-01   -9,394835681e-02
       75875000    2,155160904e-01   -9,379445016e-02
       75950000    2,146601975e-01   -9,565025568e-02
       76025000    2,146881521e-01   -9,647403657e-02
       76100000    2,144642323e-01   -9,631642699e-02
       76175000    2,147552818e-01   -9,732817858e-02
       76250000    2,146549076e-01   -9,734233469e-02
       76325000    2,142237574e-01   -9,784102440e-02
       76400000    2,136810571e-01   -9,807051718e-02
       76475000    2,140898257e-01   -9,940759838e-02
       76550000    2,141922414e-01   -9,946156293e-02
       76625000    2,118445188e-01   -9,961551428e-02
       76700000    2,127506584e-01   -1,009298265e-01
       76775000    2,125807106e-01   -1,009838358e-01
       76850000    2,113867253e-01   -1,007602364e-01
       76925000    2,120434791e-01   -1,014258042e-01
       77000000    2,119716853e-01   -1,024325341e-01
       77075000    2,114331573e-01   -1,021167338e-01
       77150000    2,105157226e-01   -1,021695286e-01
       77225000    2,109296024e-01   -1,020218655e-01
       77300000    2,112833858e-01   -1,022855639e-01
       77375000    2,096667290e-01   -1,026330888e-01
       77450000    2,102462947e-01   -1,028915197e-01
       77525000    2,100243121e-01   -1,023014337e-01
       77600000    2,087748349e-01   -1,026244089e-01
       77675000    2,097489685e-01   -1,025210842e-01
       77750000    2,090590447e-01   -1,022104397e-01
       77825000    2,077246308e-01   -1,014537513e-01
       77900000    2,081798464e-01   -1,005112752e-01
       77975000    2,080004364e-01   -9,973324090e-02
       78050000    2,063800693e-01   -9,864626825e-02
       78125000    2,077361345e-01   -9,699236602e-02
       78200000    2,075602114e-01   -9,580378234e-02
       78275000    2,083369941e-01   -9,376689792e-02
       78350000    2,093571126e-01   -9,201005101e-02
       78425000    2,110562176e-01   -9,057457745e-02
       78500000    2,129716426e-01   -8,930830657e-02
       78575000    2,144838721e-01   -8,966991305e-02
       78650000    2,170697153e-01   -8,866224438e-02
       78725000    2,181936502e-01   -8,925560117e-02
       78800000    2,183512896e-01   -8,881434798e-02
       78875000    2,210602015e-01   -8,871558309e-02
       78950000    2,210928798e-01   -8,876307309e-02
       79025000    2,241702378e-01   -8,822683990e-02
       79100000    2,246242166e-01   -8,828366548e-02
       79175000    2,256056219e-01   -8,668886870e-02
       79250000    2,278563678e-01   -8,725559711e-02
       79325000    2,279980630e-01   -8,705762774e-02
       79400000    2,308190763e-01   -8,672349155e-02
       79475000    2,326676697e-01   -8,661889285e-02
       79550000    2,336605638e-01   -8,574006706e-02
       79625000    2,359601408e-01   -8,589515835e-02
       79700000    2,372057140e-01   -8,610033989e-02
       79775000    2,399931699e-01   -8,538928628e-02
       79850000    2,414851189e-01   -8,553941548e-02
       79925000    2,431121022e-01   -8,589841425e-02
       80000000    2,459801883e-01   -8,620232344e-02
       80075000    2,469549179e-01   -8,535588533e-02
       80150000    2,485147715e-01   -8,619625121e-02
       80225000    2,508302033e-01   -8,461765200e-02
       80300000    2,538485527e-01   -8,506999165e-02
       80375000    2,559876442e-01   -8,471833169e-02
       80450000    2,586436272e-01   -8,585363626e-02
       80525000    2,604587972e-01   -8,614035696e-02
       80600000    2,635126114e-01   -8,631622791e-02
       80675000    2,652069628e-01   -8,669850230e-02
       80750000    2,678723037e-01   -8,643272519e-02
       80825000    2,709447145e-01   -8,741454780e-02
       80900000    2,725667655e-01   -8,803042024e-02
       80975000    2,764023840e-01   -8,827933669e-02
       81050000    2,784659564e-01   -8,928868920e-02
       81125000    2,805258632e-01   -8,997604996e-02
       81200000    2,845012844e-01   -9,107211232e-02
       81275000    2,859707773e-01   -9,188085794e-02
       81350000    2,896209955e-01   -9,250972420e-02
       81425000    2,922393084e-01   -9,361083061e-02
       81500000    2,948114872e-01   -9,445439279e-02
       81575000    2,980004847e-01   -9,629835933e-02
       81650000    2,998266220e-01   -9,848953038e-02
       81725000    3,025290370e-01   -9,923718870e-02
       81800000    3,063601851e-01   -9,954299778e-02
       81875000    3,093960583e-01   -1,025702730e-01
       81950000    3,125276566e-01   -1,030138358e-01
       82025000    3,149340451e-01   -1,051221713e-01
       82100000    3,183288872e-01   -1,058006063e-01
       82175000    3,210148215e-01   -1,086368635e-01
       82250000    3,238197267e-01   -1,093740463e-01
       82325000    3,265525401e-01   -1,124464497e-01
       82400000    3,286361098e-01   -1,142261699e-01
       82475000    3,326643705e-01   -1,159720644e-01
       82550000    3,350425959e-01   -1,185857803e-01
       82625000    3,387375176e-01   -1,203457415e-01
       82700000    3,409869969e-01   -1,239467114e-01
       82775000    3,440786600e-01   -1,252077967e-01
       82850000    3,469626009e-01   -1,288066655e-01
       82925000    3,498676419e-01   -1,299099624e-01
       83000000    3,530279696e-01   -1,339508891e-01
       83075000    3,558087051e-01   -1,356369108e-01
       83150000    3,580080569e-01   -1,398468316e-01
       83225000    3,609791696e-01   -1,418118775e-01
       83300000    3,635557592e-01   -1,458266377e-01
       83375000    3,664876521e-01   -1,485873163e-01
       83450000    3,697426021e-01   -1,517393738e-01
       83525000    3,702933192e-01   -1,566527039e-01
       83600000    3,736678958e-01   -1,590803415e-01
       83675000    3,759899139e-01   -1,625076532e-01
       83750000    3,770425022e-01   -1,658639312e-01
       83825000    3,801227808e-01   -1,705263853e-01
       83900000    3,818942606e-01   -1,753844172e-01
       83975000    3,839416802e-01   -1,775051206e-01
       84050000    3,857774138e-01   -1,819535643e-01
       84125000    3,878077269e-01   -1,852889657e-01
       84200000    3,892543614e-01   -1,896173209e-01
       84275000    3,907405436e-01   -1,945915371e-01
       84350000    3,933690190e-01   -1,974857748e-01
       84425000    3,947697878e-01   -2,025794238e-01
       84500000    3,959308565e-01   -2,054850608e-01
       84575000    3,977686465e-01   -2,107813954e-01
       84650000    3,985419571e-01   -2,159150988e-01
       84725000    3,996717632e-01   -2,184353024e-01
       84800000    4,017789960e-01   -2,236082405e-01
       84875000    4,018778205e-01   -2,275712341e-01
       84950000    4,034141302e-01   -2,332842648e-01
       85025000    4,041551352e-01   -2,377105355e-01
       85100000    4,044678807e-01   -2,432549447e-01
       85175000    4,055065811e-01   -2,461192012e-01
       85250000    4,055024981e-01   -2,524767518e-01
       85325000    4,051597118e-01   -2,560451329e-01
       85400000    4,061858356e-01   -2,612628341e-01
       85475000    4,054783285e-01   -2,660703063e-01
       85550000    4,059837162e-01   -2,704425454e-01
       85625000    4,061442316e-01   -2,746292055e-01
       85700000    4,058372080e-01   -2,801292539e-01
       85775000    4,039047658e-01   -2,846286893e-01
       85850000    4,048259556e-01   -2,879528105e-01
       85925000    4,047670662e-01   -2,930640578e-01
       86000000    4,032164514e-01   -2,990364432e-01
       86075000    4,030849636e-01   -3,015120029e-01
       86150000    4,023604393e-01   -3,070760667e-01
       86225000    4,005909264e-01   -3,117090166e-01
       86300000    3,991549015e-01   -3,162783682e-01
       86375000    3,976651132e-01   -3,205016553e-01
       86450000    3,967503011e-01   -3,241168857e-01
       86525000    3,951013982e-01   -3,286184072e-01
       86600000    3,933148384e-01   -3,334040344e-01
       86675000    3,929074109e-01   -3,363102376e-01
       86750000    3,911083341e-01   -3,417750895e-01
       86825000    3,880471885e-01   -3,450027704e-01
       86900000    3,849706650e-01   -3,482787311e-01
       86975000    3,847707808e-01   -3,515041173e-01
       87050000    3,835582137e-01   -3,554963171e-01
       87125000    3,817629814e-01   -3,588604331e-01
       87200000    3,793496490e-01   -3,617676795e-01
       87275000    3,778536320e-01   -3,658018112e-01
       87350000    3,758931458e-01   -3,692222238e-01
       87425000    3,731661141e-01   -3,711177111e-01
       87500000    3,695746958e-01   -3,790848851e-01
       87575000    3,683845103e-01   -3,780525625e-01
       87650000    3,662038147e-01   -3,818886876e-01
       87725000    3,634076416e-01   -3,849915862e-01
       87800000    3,638498783e-01   -3,863362074e-01
       87875000    3,605944216e-01   -3,909187317e-01
       87950000    3,579840660e-01   -3,924461603e-01
       88025000    3,553861678e-01   -3,949618936e-01
       88100000    3,548324406e-01   -3,983879387e-01
       88175000    3,510590792e-01   -4,014164209e-01
       88250000    3,499585986e-01   -4,029331207e-01
       88325000    3,472057879e-01   -4,058752358e-01
       88400000    3,435309231e-01   -4,077457786e-01
       88475000    3,423172832e-01   -4,109422565e-01
       88550000    3,385551572e-01   -4,139773846e-01
       88625000    3,375195563e-01   -4,147709906e-01
       88700000    3,359522521e-01   -4,183327258e-01
       88775000    3,323034644e-01   -4,196308851e-01
       88850000    3,293164372e-01   -4,233926535e-01
       88925000    3,265520930e-01   -4,238607883e-01
       89000000    3,245617151e-01   -4,264721274e-01
       89075000    3,201473951e-01   -4,268889725e-01
       89150000    3,180081248e-01   -4,300435781e-01
       89225000    3,138067424e-01   -4,311228395e-01
       89300000    3,123995662e-01   -4,321184754e-01
       89375000    3,077998459e-01   -4,341196120e-01
       89450000    3,063244224e-01   -4,336585402e-01
       89525000    3,036468625e-01   -4,353093803e-01
       89600000    3,002773523e-01   -4,339780807e-01
       89675000    2,973794341e-01   -4,343286455e-01
       89750000    2,948170006e-01   -4,355052114e-01
       89825000    2,922754884e-01   -4,366166890e-01
       89900000    2,904920280e-01   -4,344168007e-01
       89975000    2,879243493e-01   -4,351076186e-01
       90050000    2,854050100e-01   -4,328717291e-01
       90125000    2,840119898e-01   -4,331573844e-01
       90200000    2,806508839e-01   -4,321889281e-01
       90275000    2,808628082e-01   -4,305498302e-01
       90350000    2,838115990e-01   -4,289070368e-01
       90425000    2,780122161e-01   -4,279883206e-01
       90500000    2,786315680e-01   -4,277948439e-01
       90575000    2,787294984e-01   -4,286610782e-01
       90650000    2,770184875e-01   -4,254771471e-01
       90725000    2,776325643e-01   -4,252485335e-01
       90800000    2,788139284e-01   -4,256046712e-01
       90875000    2,804894149e-01   -4,234545827e-01
       90950000    2,815347612e-01   -4,236330390e-01
       91025000    2,815271914e-01   -4,221611917e-01
       91100000    2,832918763e-01   -4,229093790e-01
       91175000    2,833456695e-01   -4,224385917e-01
       91250000    2,866794467e-01   -4,228420258e-01
       91325000    2,869710326e-01   -4,228165150e-01
       91400000    2,901256979e-01   -4,244463444e-01
       91475000    2,909834087e-01   -4,267810285e-01
       91550000    2,944042683e-01   -4,262051284e-01
       91625000    2,957435846e-01   -4,285504222e-01
       91700000    2,984628975e-01   -4,289208353e-01
       91775000    3,000993729e-01   -4,309036732e-01
       91850000    3,001708984e-01   -4,324596226e-01
       91925000    3,033754528e-01   -4,360098243e-01
