! NanoVNA-App
! Date: 2025-08-09 16:33:16
! Start: 65MHz Stop: 95MHz Points: 401
! S-Parameter data: F S11
# Hz S RI R 50
!     Frequency           S11_Real           S11_Imag
       65000000   -4,322411120e-01   -7,715278268e-01
       65075000   -4,295114279e-01   -7,851501107e-01
       65150000   -4,305005968e-01   -7,796534300e-01
       65225000   -4,306443930e-01   -7,846027613e-01
       65300000   -4,374767244e-01   -7,766458988e-01
       65375000   -4,335690737e-01   -7,747839689e-01
       65450000   -4,395157397e-01   -7,764086127e-01
       65525000   -4,345074892e-01   -7,720492482e-01
       65600000   -4,429248869e-01   -7,641471624e-01
       65675000   -4,384586215e-01   -7,655437589e-01
       65750000   -4,437392354e-01   -7,634934187e-01
       65825000   -4,494744539e-01   -7,604804039e-01
       65900000   -4,401803613e-01   -7,617637515e-01
       65975000   -4,472720921e-01   -7,575858235e-01
       66050000   -4,450430572e-01   -7,597691417e-01
       66125000   -4,498407543e-01   -7,600232959e-01
       66200000   -4,478813708e-01   -7,511515021e-01
       66275000   -4,525714815e-01   -7,530044317e-01
       66350000   -4,566901028e-01   -7,556893826e-01
       66425000   -4,598202407e-01   -7,476949096e-01
       66500000   -4,542669654e-01   -7,493427992e-01
       66575000   -4,628677368e-01   -7,450062633e-01
       66650000   -4,618879855e-01   -7,433636189e-01
       66725000   -4,612085223e-01   -7,420777082e-01
       66800000   -4,639851153e-01   -7,422239780e-01
       66875000   -4,663700759e-01   -7,390652895e-01
       66950000   -4,696447551e-01   -7,342631817e-01
       67025000   -4,692880511e-01   -7,323316336e-01
       67100000   -4,696126580e-01   -7,291986942e-01
       67175000   -4,728510082e-01   -7,301206589e-01
       67250000   -4,757894874e-01   -7,268236876e-01
       67325000   -4,728348553e-01   -7,261417508e-01
       67400000   -4,751726985e-01   -7,247742414e-01
       67475000   -4,769272506e-01   -7,213253975e-01
       67550000   -4,819190204e-01   -7,213928699e-01
       67625000   -4,827063084e-01   -7,213143110e-01
       67700000   -4,833216667e-01   -7,163965702e-01
       67775000   -4,829851687e-01   -7,172704935e-01
       67850000   -4,839734137e-01   -7,140019536e-01
       67925000   -4,861862361e-01   -7,096298933e-01
       68000000   -4,873152077e-01   -7,071569562e-01
       68075000   -4,891465902e-01   -7,054352164e-01
       68150000   -4,897784293e-01   -7,029756904e-01
       68225000   -4,945730865e-01   -7,049296498e-01
       68300000   -4,946179986e-01   -7,023983002e-01
       68375000   -4,951004982e-01   -6,972946525e-01
       68450000   -4,968413115e-01   -6,975977421e-01
       68525000   -4,969916344e-01   -6,946800351e-01
       68600000   -4,986373186e-01   -6,916611791e-01
       68675000   -4,993537664e-01   -6,897635460e-01
       68750000   -4,998426437e-01   -6,880702972e-01
       68825000   -5,050141811e-01   -6,856129766e-01
       68900000   -5,026690364e-01   -6,854289770e-01
       68975000   -5,038951635e-01   -6,847099662e-01
       69050000   -5,069435835e-01   -6,844439507e-01
       69125000   -5,093382001e-01   -6,821683645e-01
       69200000   -5,098378658e-01   -6,795589924e-01
       69275000   -5,123194456e-01   -6,749886274e-01
       69350000   -5,106974244e-01   -6,736315489e-01
       69425000   -5,109114051e-01   -6,718366742e-01
       69500000   -5,120463371e-01   -6,698855758e-01
       69575000   -5,130140185e-01   -6,710367799e-01
       69650000   -5,147491693e-01   -6,693519950e-01
       69725000   -5,154381990e-01   -6,661781669e-01
       69800000   -5,181165934e-01   -6,645799875e-01
       69875000   -5,187404752e-01   -6,635415554e-01
       69950000   -5,192686915e-01   -6,614459157e-01
       70025000   -5,215917826e-01   -6,595957875e-01
       70100000   -5,212884545e-01   -6,583933234e-01
       70175000   -5,215489864e-01   -6,551695466e-01
       70250000   -5,229014158e-01   -6,553750038e-01
       70325000   -5,233656168e-01   -6,522877812e-01
       70400000   -5,238780975e-01   -6,500406861e-01
       70475000   -5,251685381e-01   -6,496896744e-01
       70550000   -5,273735523e-01   -6,436566114e-01
       70625000   -5,317730904e-01   -6,443968415e-01
       70700000   -5,291154385e-01   -6,463435292e-01
       70775000   -5,338002443e-01   -6,431999803e-01
       70850000   -5,332053304e-01   -6,408467293e-01
       70925000   -5,313371420e-01   -6,387211680e-01
       71000000   -5,347779393e-01   -6,388271451e-01
       71075000   -5,340691805e-01   -6,362978816e-01
       71150000   -5,380847454e-01   -6,338990927e-01
       71225000   -5,373640656e-01   -6,309758425e-01
       71300000   -5,382477045e-01   -6,312053800e-01
       71375000   -5,391597748e-01   -6,305089593e-01
       71450000   -5,412558317e-01   -6,261870265e-01
       71525000   -5,426114798e-01   -6,278977394e-01
       71600000   -5,436900854e-01   -6,262377501e-01
       71675000   -5,465473533e-01   -6,196475625e-01
       71750000   -5,454977751e-01   -6,213052273e-01
       71825000   -5,487362146e-01   -6,216330528e-01
       71900000   -5,485434532e-01   -6,207231879e-01
       71975000   -5,513257384e-01   -6,159269810e-01
       72050000   -5,521334410e-01   -6,177376509e-01
       72125000   -5,530785322e-01   -6,149469614e-01
       72200000   -5,528161526e-01   -6,136322618e-01
       72275000   -5,569576025e-01   -6,116467714e-01
       72350000   -5,575451851e-01   -6,104969382e-01
       72425000   -5,588870645e-01   -6,081624031e-01
       72500000   -5,625183582e-01   -6,029613614e-01
       72575000   -5,610783100e-01   -6,027590036e-01
       72650000   -5,652326345e-01   -6,057635546e-01
       72725000   -5,618975759e-01   -6,036391854e-01
       72800000   -5,645982027e-01   -5,944073200e-01
       72875000   -5,650926232e-01   -5,995298624e-01
       72950000   -5,674496889e-01   -5,934673548e-01
       73025000   -5,698392987e-01   -5,980134010e-01
       73100000   -5,662092566e-01   -5,896111131e-01
       73175000   -5,712056756e-01   -5,895457268e-01
       73250000   -5,755598545e-01   -5,881701112e-01
       73325000   -5,710263252e-01   -5,843306780e-01
       73400000   -5,781252384e-01   -5,826913118e-01
       73475000   -5,732550621e-01   -5,808944702e-01
       73550000   -5,778229833e-01   -5,805458426e-01
       73625000   -5,773040652e-01   -5,732147098e-01
       73700000   -5,766452551e-01   -5,803204179e-01
       73775000   -5,805189610e-01   -5,748904347e-01
       73850000   -5,808771849e-01   -5,772157907e-01
       73925000   -5,810177326e-01   -5,731887817e-01
       74000000   -5,858051181e-01   -5,661202669e-01
       74075000   -5,833557248e-01   -5,653812885e-01
       74150000   -5,875687003e-01   -5,647615194e-01
       74225000   -5,903702378e-01   -5,613461137e-01
       74300000   -5,866835713e-01   -5,611129403e-01
       74375000   -5,897586942e-01   -5,599282384e-01
       74450000   -5,953885317e-01   -5,593081713e-01
       74525000   -5,931493044e-01   -5,523832440e-01
       74600000   -5,952457190e-01   -5,556665063e-01
       74675000   -5,976365209e-01   -5,495861173e-01
       74750000   -5,954602361e-01   -5,512173772e-01
       74825000   -5,975748897e-01   -5,525177121e-01
       74900000   -6,001932025e-01   -5,409886837e-01
       74975000   -5,994549990e-01   -5,447340012e-01
       75050000   -6,039385796e-01   -5,427981019e-01
       75125000   -6,003544331e-01   -5,374917388e-01
       75200000   -6,040139794e-01   -5,390333533e-01
       75275000   -6,017198563e-01   -5,345831513e-01
       75350000   -6,052187085e-01   -5,359653234e-01
       75425000   -6,073619723e-01   -5,307519436e-01
       75500000   -6,032317877e-01   -5,299095511e-01
       75575000   -6,069558859e-01   -5,293340087e-01
       75650000   -6,066746712e-01   -5,297698379e-01
       75725000   -6,083437204e-01   -5,220809579e-01
       75800000   -6,118988395e-01   -5,248782635e-01
       75875000   -6,097915173e-01   -5,179774761e-01
       75950000   -6,117821932e-01   -5,183577538e-01
       76025000   -6,101366282e-01   -5,178876519e-01
       76100000   -6,150735021e-01   -5,180591345e-01
       76175000   -6,154844761e-01   -5,153360367e-01
       76250000   -6,152971387e-01   -5,141593814e-01
       76325000   -6,175990701e-01   -5,086875558e-01
       76400000   -6,164545417e-01   -5,099186897e-01
       76475000   -6,154120564e-01   -5,061687231e-01
       76550000   -6,192546487e-01   -5,059744120e-01
       76625000   -6,176100373e-01   -5,001052022e-01
       76700000   -6,215291023e-01   -5,032500625e-01
       76775000   -6,193690896e-01   -5,025219917e-01
       76850000   -6,220142841e-01   -4,993610680e-01
       76925000   -6,237129569e-01   -4,989864528e-01
       77000000   -6,235636473e-01   -4,921448231e-01
       77075000   -6,242032051e-01   -4,936997294e-01
       77150000   -6,276664734e-01   -4,962724447e-01
       77225000   -6,284106374e-01   -4,889386892e-01
       77300000   -6,280661225e-01   -4,886740744e-01
       77375000   -6,288392544e-01   -4,862657189e-01
       77450000   -6,300102472e-01   -4,849745333e-01
       77525000   -6,310018301e-01   -4,822285473e-01
       77600000   -6,334543824e-01   -4,828520715e-01
       77675000   -6,336218715e-01   -4,813380539e-01
       77750000   -6,347863078e-01   -4,786039591e-01
       77825000   -6,373559237e-01   -4,769533575e-01
       77900000   -6,381177902e-01   -4,758423865e-01
       77975000   -6,374828219e-01   -4,732507765e-01
       78050000   -6,386124492e-01   -4,712030590e-01
       78125000   -6,412353516e-01   -4,688099325e-01
       78200000   -6,437182426e-01   -4,672720134e-01
       78275000   -6,416209936e-01   -4,654950202e-01
       78350000   -6,430396438e-01   -4,636834264e-01
       78425000   -6,435880065e-01   -4,618404210e-01
       78500000   -6,466729045e-01   -4,608688354e-01
       78575000   -6,463076472e-01   -4,565134943e-01
       78650000   -6,472032070e-01   -4,564673305e-01
       78725000   -6,507036090e-01   -4,544986486e-01
       78800000   -6,522954702e-01   -4,542379975e-01
       78875000   -6,524050236e-01   -4,540845156e-01
       78950000   -6,554607153e-01   -4,489828050e-01
       79025000   -6,562871933e-01   -4,484208524e-01
       79100000   -6,566132903e-01   -4,463292658e-01
       79175000   -6,586996913e-01   -4,456542432e-01
       79250000   -6,587830186e-01   -4,430804849e-01
       79325000   -6,592223048e-01   -4,394892454e-01
       79400000   -6,616567969e-01   -4,356231391e-01
       79475000   -6,619006991e-01   -4,375712872e-01
       79550000   -6,635485888e-01   -4,338528216e-01
       79625000   -6,657875776e-01   -4,338209033e-01
       79700000   -6,660816669e-01   -4,294851422e-01
       79775000   -6,673369408e-01   -4,280631542e-01
       79850000   -6,697475314e-01   -4,231227934e-01
       79925000   -6,720876098e-01   -4,243937135e-01
       80000000   -6,724091172e-01   -4,258578718e-01
       80075000   -6,726244092e-01   -4,173656106e-01
       80150000   -6,745721102e-01   -4,164265096e-01
       80225000   -6,782243848e-01   -4,148694873e-01
       80300000   -6,781652570e-01   -4,122475684e-01
       80375000   -6,788085103e-01   -4,101047218e-01
       80450000   -6,807251573e-01   -4,079203606e-01
       80525000   -6,809690595e-01   -4,063031375e-01
       80600000   -6,852449179e-01   -4,041825831e-01
       80675000   -6,851333380e-01   -4,016784728e-01
       80750000   -6,842980385e-01   -3,976147771e-01
       80825000   -6,855252981e-01   -3,943699896e-01
       80900000   -6,865246296e-01   -3,926278055e-01
       80975000   -6,905664802e-01   -3,898985684e-01
       81050000   -6,899630427e-01   -3,889593184e-01
       81125000   -6,936081052e-01   -3,848067522e-01
       81200000   -6,925620437e-01   -3,820824325e-01
       81275000   -6,932927966e-01   -3,793010712e-01
       81350000   -6,939680576e-01   -3,758870959e-01
       81425000   -6,960695982e-01   -3,755698502e-01
       81500000   -6,968784332e-01   -3,687380552e-01
       81575000   -6,972113252e-01   -3,703722656e-01
       81650000   -6,988920569e-01   -3,677346408e-01
       81725000   -7,015842199e-01   -3,651082218e-01
       81800000   -7,011082172e-01   -3,619862497e-01
       81875000   -7,009309530e-01   -3,603910208e-01
       81950000   -7,036559582e-01   -3,574046493e-01
       82025000   -7,042371035e-01   -3,548201323e-01
       82100000   -7,065300345e-01   -3,514465094e-01
       82175000   -7,083217502e-01   -3,477710783e-01
       82250000   -7,079320550e-01   -3,454849720e-01
       82325000   -7,101350427e-01   -3,427653313e-01
       82400000   -7,098363042e-01   -3,390994966e-01
       82475000   -7,102698088e-01   -3,381828666e-01
       82550000   -7,132291794e-01   -3,339021206e-01
       82625000   -7,121027112e-01   -3,308733404e-01
       82700000   -7,133952379e-01   -3,267740905e-01
       82775000   -7,131219506e-01   -3,249745369e-01
       82850000   -7,165384889e-01   -3,222013414e-01
       82925000   -7,150517702e-01   -3,220024407e-01
       83000000   -7,181337476e-01   -3,173024356e-01
       83075000   -7,191809416e-01   -3,134936094e-01
       83150000   -7,189232707e-01   -3,109851182e-01
       83225000   -7,187977433e-01   -3,062884212e-01
       83300000   -7,204433084e-01   -3,050549030e-01
       83375000   -7,211714387e-01   -3,022165596e-01
       83450000   -7,235189676e-01   -2,984924018e-01
       83525000   -7,226489186e-01   -2,950300872e-01
       83600000   -7,226956487e-01   -2,920562923e-01
       83675000   -7,254897952e-01   -2,893211246e-01
       83750000   -7,250742316e-01   -2,869811952e-01
       83825000   -7,262016535e-01   -2,825440466e-01
       83900000   -7,264313698e-01   -2,803857028e-01
       83975000   -7,258198261e-01   -2,777395546e-01
       84050000   -7,274835706e-01   -2,741475105e-01
       84125000   -7,284361720e-01   -2,708634436e-01
       84200000   -7,278798819e-01   -2,667406499e-01
       84275000   -7,287794352e-01   -2,628748715e-01
       84350000   -7,279756665e-01   -2,578915656e-01
       84425000   -7,296962738e-01   -2,565628588e-01
       84500000   -7,298328280e-01   -2,530038953e-01
       84575000   -7,301950455e-01   -2,476813644e-01
       84650000   -7,304407954e-01   -2,464091182e-01
       84725000   -7,319007516e-01   -2,421904802e-01
       84800000   -7,304635644e-01   -2,400304377e-01
       84875000   -7,314599156e-01   -2,357931286e-01
       84950000   -7,320103049e-01   -2,325473279e-01
       85025000   -7,305075526e-01   -2,263899297e-01
       85100000   -7,312031984e-01   -2,256335914e-01
       85175000   -7,307878137e-01   -2,228560001e-01
       85250000   -7,321739197e-01   -2,184733897e-01
       85325000   -7,301411629e-01   -2,160991877e-01
       85400000   -7,310491800e-01   -2,115025967e-01
       85475000   -7,301707864e-01   -2,077627927e-01
       85550000   -7,297783494e-01   -2,025652677e-01
       85625000   -7,285117507e-01   -2,015812397e-01
       85700000   -7,291617990e-01   -1,969744712e-01
       85775000   -7,285227776e-01   -1,935773641e-01
       85850000   -7,286459208e-01   -1,904956102e-01
       85925000   -7,265517712e-01   -1,856749207e-01
       86000000   -7,264767289e-01   -1,830650270e-01
       86075000   -7,254475951e-01   -1,798724085e-01
       86150000   -7,252039313e-01   -1,762763709e-01
       86225000   -7,232252955e-01   -1,734331399e-01
       86300000   -7,231538296e-01   -1,712012291e-01
       86375000   -7,219392061e-01   -1,666294336e-01
       86450000   -7,212727070e-01   -1,641551256e-01
       86525000   -7,195972800e-01   -1,612074673e-01
       86600000   -7,179848552e-01   -1,569869965e-01
       86675000   -7,169191837e-01   -1,540601254e-01
       86750000   -7,166635990e-01   -1,518435776e-01
       86825000   -7,156579494e-01   -1,488393694e-01
       86900000   -7,126833797e-01   -1,449316591e-01
       86975000   -7,134458423e-01   -1,435312480e-01
       87050000   -7,108577490e-01   -1,395977437e-01
       87125000   -7,094207406e-01   -1,389427930e-01
       87200000   -7,095865607e-01   -1,346967071e-01
       87275000   -7,082477212e-01   -1,318919063e-01
       87350000   -7,058761716e-01   -1,302342564e-01
       87425000   -7,051919699e-01   -1,284219623e-01
       87500000   -7,029173970e-01   -1,306382269e-01
       87575000   -7,032936215e-01   -1,247182116e-01
       87650000   -7,012499571e-01   -1,236197129e-01
       87725000   -6,994174719e-01   -1,207226068e-01
       87800000   -7,004303336e-01   -1,170210615e-01
       87875000   -6,973034739e-01   -1,163940802e-01
       87950000   -6,973514557e-01   -1,139734760e-01
       88025000   -6,961596012e-01   -1,107010245e-01
       88100000   -6,951403022e-01   -1,100560278e-01
       88175000   -6,942917705e-01   -1,066758409e-01
       88250000   -6,947553754e-01   -1,057583317e-01
       88325000   -6,931791902e-01   -1,054265946e-01
       88400000   -6,919615865e-01   -1,003598124e-01
       88475000   -6,911171675e-01   -1,007474810e-01
       88550000   -6,908642650e-01   -9,592129290e-02
       88625000   -6,913211346e-01   -9,431559592e-02
       88700000   -6,895082593e-01   -9,196326882e-02
       88775000   -6,870765090e-01   -9,208423644e-02
       88850000   -6,877519488e-01   -8,904649317e-02
       88925000   -6,860166192e-01   -8,762441576e-02
       89000000   -6,862361431e-01   -8,537672460e-02
       89075000   -6,837388873e-01   -8,398088813e-02
       89150000   -6,834976673e-01   -8,143071085e-02
       89225000   -6,833488345e-01   -7,836173475e-02
       89300000   -6,797074080e-01   -8,015099168e-02
       89375000   -6,802109480e-01   -7,591952384e-02
       89450000   -6,783215404e-01   -7,590757310e-02
       89525000   -6,766467690e-01   -7,547330856e-02
       89600000   -6,779252887e-01   -7,416675985e-02
       89675000   -6,759659052e-01   -7,113198936e-02
       89750000   -6,761189103e-01   -7,100480050e-02
       89825000   -6,741952300e-01   -7,139784098e-02
       89900000   -6,752781868e-01   -6,993863732e-02
       89975000   -6,739035845e-01   -7,077006996e-02
       90050000   -6,741040945e-01   -6,809006631e-02
       90125000   -6,747517586e-01   -6,607206911e-02
       90200000   -6,748278141e-01   -6,659346074e-02
       90275000   -6,761837602e-01   -6,589948386e-02
       90350000   -6,758486629e-01   -6,459014118e-02
       90425000   -6,771726012e-01   -6,287505478e-02
       90500000   -6,785898805e-01   -6,285961717e-02
       90575000   -6,791781187e-01   -6,091764942e-02
       90650000   -6,798794866e-01   -5,887158588e-02
       90725000   -6,810855865e-01   -5,716333166e-02
       90800000   -6,831875443e-01   -5,632220581e-02
       90875000   -6,835186481e-01   -5,286724865e-02
       90950000   -6,856947541e-01   -5,171046406e-02
       91025000   -6,869908571e-01   -4,953305423e-02
       91100000   -6,883091331e-01   -4,732683301e-02
       91175000   -6,901443601e-01   -4,424349219e-02
       91250000   -6,901175380e-01   -4,262091592e-02
       91325000   -6,928170323e-01   -3,867090866e-02
       91400000   -6,941826940e-01   -3,588536009e-02
       91475000   -6,958466172e-01   -3,327650949e-02
       91550000   -6,955888867e-01   -2,877692133e-02
       91625000   -6,971725225e-01   -2,590096742e-02
       91700000   -6,982067227e-01   -2,181976847e-02
       91775000   -6,987585425e-01   -1,815562136e-02
       91850000   -6,993780732e-01   -1,379189827e-02
       91925000   -7,013946176e-01   -1,058826502e-02
