! NanoVNA-App
! Date: 2025-08-09 16:35:09
! Start: 65MHz Stop: 95MHz Points: 401
! S-Parameter data: F S11
# Hz S RI R 50
!     Frequency           S11_Real           S11_Imag
       65000000   -3,710339665e-01   -8,510339856e-01
       65075000   -3,668094873e-01   -8,628236651e-01
       65150000   -3,720320761e-01   -8,608491421e-01
       65225000   -3,724369109e-01   -8,616786599e-01
       65300000   -3,742908239e-01   -8,592508435e-01
       65375000   -3,761268258e-01   -8,564141393e-01
       65450000   -3,780042529e-01   -8,556028605e-01
       65525000   -3,798005581e-01   -8,549244404e-01
       65600000   -3,818636537e-01   -8,529121280e-01
       65675000   -3,843410611e-01   -8,524954915e-01
       65750000   -3,869905472e-01   -8,492470384e-01
       65825000   -3,889731765e-01   -8,516411781e-01
       65900000   -3,925682604e-01   -8,502027392e-01
       65975000   -3,930453956e-01   -8,499382138e-01
       66050000   -3,963730633e-01   -8,476325870e-01
       66125000   -3,974011838e-01   -8,434639573e-01
       66200000   -3,999509513e-01   -8,454116583e-01
       66275000   -4,004799426e-01   -8,427861929e-01
       66350000   -4,058624804e-01   -8,410493135e-01
       66425000   -4,056999683e-01   -8,412333727e-01
       66500000   -4,093682468e-01   -8,406011462e-01
       66575000   -4,090144634e-01   -8,396201730e-01
       66650000   -4,123590887e-01   -8,385312557e-01
       66725000   -4,124541879e-01   -8,342955112e-01
       66800000   -4,147999883e-01   -8,336519003e-01
       66875000   -4,173452556e-01   -8,322405219e-01
       66950000   -4,181705117e-01   -8,308091760e-01
       67025000   -4,207095802e-01   -8,288296461e-01
       67100000   -4,245543778e-01   -8,274471760e-01
       67175000   -4,243038595e-01   -8,285377026e-01
       67250000   -4,271407127e-01   -8,277034760e-01
       67325000   -4,296445847e-01   -8,275901079e-01
       67400000   -4,304555058e-01   -8,257979751e-01
       67475000   -4,332184196e-01   -8,235822916e-01
       67550000   -4,371868074e-01   -8,215873837e-01
       67625000   -4,366295338e-01   -8,214613199e-01
       67700000   -4,400211275e-01   -8,205085397e-01
       67775000   -4,416455626e-01   -8,152414560e-01
       67850000   -4,440793395e-01   -8,164219856e-01
       67925000   -4,467462301e-01   -8,140538335e-01
       68000000   -4,471991658e-01   -8,139452338e-01
       68075000   -4,494341314e-01   -8,132205606e-01
       68150000   -4,494402111e-01   -8,109790087e-01
       68225000   -4,526822865e-01   -8,104230762e-01
       68300000   -4,547033012e-01   -8,062602282e-01
       68375000   -4,567965567e-01   -8,055791259e-01
       68450000   -4,611497223e-01   -8,056575060e-01
       68525000   -4,601437151e-01   -8,049439788e-01
       68600000   -4,652020037e-01   -8,032738566e-01
       68675000   -4,637241662e-01   -8,016467690e-01
       68750000   -4,668220580e-01   -8,009944558e-01
       68825000   -4,680259824e-01   -7,968845963e-01
       68900000   -4,696843922e-01   -7,972167134e-01
       68975000   -4,718824625e-01   -7,957981825e-01
       69050000   -4,737913311e-01   -7,946921587e-01
       69125000   -4,752803743e-01   -7,916085124e-01
       69200000   -4,773674309e-01   -7,915065289e-01
       69275000   -4,797023237e-01   -7,895125151e-01
       69350000   -4,808840752e-01   -7,888075709e-01
       69425000   -4,829699695e-01   -7,863823175e-01
       69500000   -4,847280979e-01   -7,858774662e-01
       69575000   -4,871827662e-01   -7,823664546e-01
       69650000   -4,888230860e-01   -7,818648815e-01
       69725000   -4,921263456e-01   -7,800593972e-01
       69800000   -4,925051928e-01   -7,807962298e-01
       69875000   -4,954510927e-01   -7,773379087e-01
       69950000   -4,951672256e-01   -7,781634927e-01
       70025000   -4,991982281e-01   -7,771779299e-01
       70100000   -4,999842644e-01   -7,752853036e-01
       70175000   -5,022481084e-01   -7,710723877e-01
       70250000   -5,043860674e-01   -7,721269131e-01
       70325000   -5,079578757e-01   -7,692418694e-01
       70400000   -5,079958439e-01   -7,681970596e-01
       70475000   -5,099565387e-01   -7,683043480e-01
       70550000   -5,111736655e-01   -7,632404566e-01
       70625000   -5,132936239e-01   -7,640568614e-01
       70700000   -5,159127116e-01   -7,643547654e-01
       70775000   -5,155058503e-01   -7,612427473e-01
       70850000   -5,201683044e-01   -7,612484694e-01
       70925000   -5,219731331e-01   -7,567791343e-01
       71000000   -5,224881172e-01   -7,573487759e-01
       71075000   -5,244287848e-01   -7,556152940e-01
       71150000   -5,265811086e-01   -7,510806322e-01
       71225000   -5,269548297e-01   -7,514211535e-01
       71300000   -5,292506814e-01   -7,513357401e-01
       71375000   -5,312743187e-01   -7,481696606e-01
       71450000   -5,331361294e-01   -7,480696440e-01
       71525000   -5,348772407e-01   -7,464510202e-01
       71600000   -5,368707776e-01   -7,454782724e-01
       71675000   -5,401860476e-01   -7,422530055e-01
       71750000   -5,400786996e-01   -7,431040406e-01
       71825000   -5,434614420e-01   -7,383003235e-01
       71900000   -5,442553759e-01   -7,386336327e-01
       71975000   -5,457869172e-01   -7,363738418e-01
       72050000   -5,472664833e-01   -7,361583710e-01
       72125000   -5,494154692e-01   -7,314016819e-01
       72200000   -5,501396060e-01   -7,322465777e-01
       72275000   -5,535097718e-01   -7,281814814e-01
       72350000   -5,543459058e-01   -7,294797897e-01
       72425000   -5,572442412e-01   -7,249381542e-01
       72500000   -5,569713116e-01   -7,316828370e-01
       72575000   -5,615509152e-01   -7,185093164e-01
       72650000   -5,593853593e-01   -7,219491005e-01
       72725000   -5,640161633e-01   -7,186484933e-01
       72800000   -5,660589933e-01   -7,190561891e-01
       72875000   -5,657672882e-01   -7,187509537e-01
       72950000   -5,695033073e-01   -7,148408294e-01
       73025000   -5,705321431e-01   -7,130438089e-01
       73100000   -5,714758039e-01   -7,108291984e-01
       73175000   -5,730267167e-01   -7,114374638e-01
       73250000   -5,742980242e-01   -7,103094459e-01
       73325000   -5,761118531e-01   -7,079825401e-01
       73400000   -5,764287114e-01   -7,061557174e-01
       73475000   -5,821336508e-01   -7,076764107e-01
       73550000   -5,806998014e-01   -7,020033598e-01
       73625000   -5,830910802e-01   -7,015787363e-01
       73700000   -5,842406750e-01   -6,982482076e-01
       73775000   -5,861688852e-01   -6,976675391e-01
       73850000   -5,883231759e-01   -6,956016421e-01
       73925000   -5,876660943e-01   -6,951878667e-01
       74000000   -5,911509991e-01   -6,932782531e-01
       74075000   -5,911676884e-01   -6,903538108e-01
       74150000   -5,942276716e-01   -6,905248761e-01
       74225000   -5,973785520e-01   -6,853476167e-01
       74300000   -5,982817411e-01   -6,843574047e-01
       74375000   -5,993865728e-01   -6,852811575e-01
       74450000   -6,003991365e-01   -6,824120879e-01
       74525000   -6,011804342e-01   -6,808742881e-01
       74600000   -6,041448116e-01   -6,784489155e-01
       74675000   -6,051217318e-01   -6,771320105e-01
       74750000   -6,072666049e-01   -6,756871939e-01
       74825000   -6,095139384e-01   -6,745921969e-01
       74900000   -6,095798612e-01   -6,736134291e-01
       74975000   -6,113486290e-01   -6,673436165e-01
       75050000   -6,126760244e-01   -6,683328748e-01
       75125000   -6,160590649e-01   -6,665517092e-01
       75200000   -6,155887842e-01   -6,657543778e-01
       75275000   -6,185846925e-01   -6,640772820e-01
       75350000   -6,194233894e-01   -6,629834771e-01
       75425000   -6,209702492e-01   -6,610360742e-01
       75500000   -6,230256557e-01   -6,570671201e-01
       75575000   -6,241827607e-01   -6,574659944e-01
       75650000   -6,271376014e-01   -6,538254023e-01
       75725000   -6,277112961e-01   -6,547416449e-01
       75800000   -6,297701597e-01   -6,508016586e-01
       75875000   -6,299626827e-01   -6,501744390e-01
       75950000   -6,328093410e-01   -6,472303867e-01
       76025000   -6,337435246e-01   -6,447129250e-01
       76100000   -6,344534755e-01   -6,447530985e-01
       76175000   -6,371965408e-01   -6,424490809e-01
       76250000   -6,378451586e-01   -6,411913037e-01
       76325000   -6,404250264e-01   -6,392618418e-01
       76400000   -6,401893497e-01   -6,384524703e-01
       76475000   -6,425463557e-01   -6,356931329e-01
       76550000   -6,448827386e-01   -6,348261833e-01
       76625000   -6,447861791e-01   -6,320301294e-01
       76700000   -6,477319002e-01   -6,299993396e-01
       76775000   -6,490725279e-01   -6,275528073e-01
       76850000   -6,486039758e-01   -6,253055334e-01
       76925000   -6,513118744e-01   -6,248377562e-01
       77000000   -6,526827812e-01   -6,221188307e-01
       77075000   -6,542689204e-01   -6,215872169e-01
       77150000   -6,552140117e-01   -6,195952296e-01
       77225000   -6,567170024e-01   -6,185262799e-01
       77300000   -6,589716077e-01   -6,157017350e-01
       77375000   -6,590788364e-01   -6,151710749e-01
       77450000   -6,618126035e-01   -6,126193404e-01
       77525000   -6,634770036e-01   -6,099823117e-01
       77600000   -6,637028456e-01   -6,084612012e-01
       77675000   -6,663063765e-01   -6,075993776e-01
       77750000   -6,672639251e-01   -6,037954092e-01
       77825000   -6,673550010e-01   -6,035291553e-01
       77900000   -6,665404439e-01   -6,006515026e-01
       77975000   -6,718045473e-01   -5,976620317e-01
       78050000   -6,718599796e-01   -5,971544385e-01
       78125000   -6,746174097e-01   -5,964505672e-01
       78200000   -6,759659648e-01   -5,931309462e-01
       78275000   -6,763550043e-01   -5,913909674e-01
       78350000   -6,780444384e-01   -5,909382701e-01
       78425000   -6,792351604e-01   -5,896182656e-01
       78500000   -6,813285351e-01   -5,858116746e-01
       78575000   -6,820785403e-01   -5,843567252e-01
       78650000   -6,844404340e-01   -5,844684243e-01
       78725000   -6,851940155e-01   -5,791622400e-01
       78800000   -6,868115664e-01   -5,797311664e-01
       78875000   -6,887903810e-01   -5,763809085e-01
       78950000   -6,886558533e-01   -5,752088428e-01
       79025000   -6,910073161e-01   -5,725556016e-01
       79100000   -6,920792460e-01   -5,712180734e-01
       79175000   -6,928479075e-01   -5,702645183e-01
       79250000   -6,945028305e-01   -5,666146278e-01
       79325000   -6,954929233e-01   -5,651816130e-01
       79400000   -6,958736181e-01   -5,657507181e-01
       79475000   -6,983687282e-01   -5,624182820e-01
       79550000   -7,005476952e-01   -5,603385568e-01
       79625000   -7,015399933e-01   -5,567975044e-01
       79700000   -7,019529343e-01   -5,573901534e-01
       79775000   -7,048920989e-01   -5,535933375e-01
       79850000   -7,052767873e-01   -5,512953401e-01
       79925000   -7,065903544e-01   -5,503924489e-01
       80000000   -7,096830010e-01   -5,465207696e-01
       80075000   -7,092995048e-01   -5,452734828e-01
       80150000   -7,109886408e-01   -5,448919535e-01
       80225000   -7,129734755e-01   -5,431974530e-01
       80300000   -7,138893008e-01   -5,408245325e-01
       80375000   -7,147542238e-01   -5,415974855e-01
       80450000   -7,164904475e-01   -5,347625017e-01
       80525000   -7,173227072e-01   -5,343338847e-01
       80600000   -7,194171548e-01   -5,316298008e-01
       80675000   -7,196929455e-01   -5,305006504e-01
       80750000   -7,226173282e-01   -5,287774801e-01
       80825000   -7,225598097e-01   -5,250462294e-01
       80900000   -7,239538431e-01   -5,249978304e-01
       80975000   -7,261486650e-01   -5,225979090e-01
       81050000   -7,261992097e-01   -5,200692415e-01
       81125000   -7,265311480e-01   -5,163883567e-01
       81200000   -7,283566594e-01   -5,154168010e-01
       81275000   -7,308076024e-01   -5,157541037e-01
       81350000   -7,316517830e-01   -5,121853948e-01
       81425000   -7,333698273e-01   -5,101326108e-01
       81500000   -7,356272936e-01   -5,070036054e-01
       81575000   -7,356467247e-01   -5,059240460e-01
       81650000   -7,363619208e-01   -5,047969222e-01
       81725000   -7,389751673e-01   -5,032273531e-01
       81800000   -7,386652827e-01   -4,989737570e-01
       81875000   -7,425566912e-01   -4,988085330e-01
       81950000   -7,423363924e-01   -4,944690764e-01
       82025000   -7,434476018e-01   -4,933856428e-01
       82100000   -7,453724742e-01   -4,911310673e-01
       82175000   -7,451183200e-01   -4,892365038e-01
       82250000   -7,478981018e-01   -4,858854413e-01
       82325000   -7,479175329e-01   -4,845395088e-01
       82400000   -7,497726679e-01   -4,833103418e-01
       82475000   -7,502591014e-01   -4,795137346e-01
       82550000   -7,507829070e-01   -4,796935022e-01
       82625000   -7,522234917e-01   -4,777238369e-01
       82700000   -7,539920211e-01   -4,747788310e-01
       82775000   -7,551484108e-01   -4,699913561e-01
       82850000   -7,567525506e-01   -4,696312547e-01
       82925000   -7,583503723e-01   -4,671850502e-01
       83000000   -7,583761811e-01   -4,663356543e-01
       83075000   -7,607233524e-01   -4,617570937e-01
       83150000   -7,610810995e-01   -4,611529112e-01
       83225000   -7,630101442e-01   -4,572004080e-01
       83300000   -7,632461190e-01   -4,563497603e-01
       83375000   -7,649264336e-01   -4,529592097e-01
       83450000   -7,655485868e-01   -4,520200491e-01
       83525000   -7,669082880e-01   -4,498421550e-01
       83600000   -7,675168514e-01   -4,466759264e-01
       83675000   -7,686110139e-01   -4,452194870e-01
       83750000   -7,711833119e-01   -4,416155517e-01
       83825000   -7,711172700e-01   -4,402042627e-01
       83900000   -7,730932832e-01   -4,390802085e-01
       83975000   -7,729589939e-01   -4,353694320e-01
       84050000   -7,742427588e-01   -4,335854650e-01
       84125000   -7,756329179e-01   -4,298835099e-01
       84200000   -7,762434483e-01   -4,280172884e-01
       84275000   -7,775084376e-01   -4,266566336e-01
       84350000   -7,782125473e-01   -4,232599139e-01
       84425000   -7,795304656e-01   -4,224104285e-01
       84500000   -7,807922363e-01   -4,171846509e-01
       84575000   -7,816792727e-01   -4,169349372e-01
       84650000   -7,831920981e-01   -4,160431921e-01
       84725000   -7,843872905e-01   -4,121243954e-01
       84800000   -7,843847275e-01   -4,097603858e-01
       84875000   -7,851967216e-01   -4,059057832e-01
       84950000   -7,870029211e-01   -4,047992229e-01
       85025000   -7,877359986e-01   -4,026317894e-01
       85100000   -7,895426750e-01   -4,001823068e-01
       85175000   -7,887290120e-01   -3,972318172e-01
       85250000   -7,898034453e-01   -3,962851465e-01
       85325000   -7,915114164e-01   -3,920961618e-01
       85400000   -7,920659781e-01   -3,905362785e-01
       85475000   -7,942274213e-01   -3,869753480e-01
       85550000   -7,944988012e-01   -3,826741576e-01
       85625000   -7,937369347e-01   -3,828056157e-01
       85700000   -7,952176332e-01   -3,800927699e-01
       85775000   -7,968543172e-01   -3,759394288e-01
       85850000   -7,955414057e-01   -3,740355968e-01
       85925000   -7,969112992e-01   -3,730469942e-01
       86000000   -7,984826565e-01   -3,704194725e-01
       86075000   -7,977681756e-01   -3,677622378e-01
       86150000   -7,990301847e-01   -3,655275404e-01
       86225000   -7,996335626e-01   -3,631795347e-01
       86300000   -8,006978035e-01   -3,601293862e-01
       86375000   -8,020062447e-01   -3,570131063e-01
       86450000   -8,016122580e-01   -3,558379412e-01
       86525000   -8,016306758e-01   -3,532745540e-01
       86600000   -8,032841682e-01   -3,487660289e-01
       86675000   -8,033144474e-01   -3,470071256e-01
       86750000   -8,035739660e-01   -3,439003527e-01
       86825000   -8,042176366e-01   -3,421928883e-01
       86900000   -8,039028645e-01   -3,397764564e-01
       86975000   -8,051403761e-01   -3,381639123e-01
       87050000   -8,045101762e-01   -3,361353576e-01
       87125000   -8,067318797e-01   -3,340699673e-01
       87200000   -8,055766225e-01   -3,322971165e-01
       87275000   -8,068491220e-01   -3,289749324e-01
       87350000   -8,077387810e-01   -3,270311356e-01
       87425000   -8,071522117e-01   -3,246373832e-01
       87500000   -8,079770207e-01   -3,239493072e-01
       87575000   -8,071722388e-01   -3,185795844e-01
       87650000   -8,084542155e-01   -3,186363578e-01
       87725000   -8,084376454e-01   -3,147154152e-01
       87800000   -8,093824387e-01   -3,124837279e-01
       87875000   -8,107922673e-01   -3,081104457e-01
       87950000   -8,100640178e-01   -3,065397143e-01
       88025000   -8,087448478e-01   -3,077487648e-01
       88100000   -8,117180467e-01   -3,039705157e-01
       88175000   -8,116971254e-01   -3,014120460e-01
       88250000   -8,112831116e-01   -2,971289456e-01
       88325000   -8,133007884e-01   -2,976997495e-01
       88400000   -8,113359809e-01   -2,945100069e-01
       88475000   -8,132884502e-01   -2,952330709e-01
       88550000   -8,136985302e-01   -2,899648845e-01
       88625000   -8,140769601e-01   -2,905536592e-01
       88700000   -8,134888411e-01   -2,865554392e-01
       88775000   -8,135832548e-01   -2,829174697e-01
       88850000   -8,139221668e-01   -2,794856727e-01
       88925000   -8,140752316e-01   -2,782332301e-01
       89000000   -8,154116869e-01   -2,765147984e-01
       89075000   -8,149959445e-01   -2,762395144e-01
       89150000   -8,157195449e-01   -2,716135085e-01
       89225000   -8,157640696e-01   -2,693537772e-01
       89300000   -8,158812523e-01   -2,689137161e-01
       89375000   -8,157716393e-01   -2,652816474e-01
       89450000   -8,149992824e-01   -2,638309598e-01
       89525000   -8,161746264e-01   -2,609830201e-01
       89600000   -8,155232072e-01   -2,612743080e-01
       89675000   -8,170085549e-01   -2,582544088e-01
       89750000   -8,159145117e-01   -2,551821470e-01
       89825000   -8,167940974e-01   -2,529374063e-01
       89900000   -8,172277808e-01   -2,546138465e-01
       89975000   -8,165611625e-01   -2,504556477e-01
       90050000   -8,177698255e-01   -2,488948107e-01
       90125000   -8,185549378e-01   -2,459005713e-01
       90200000   -8,182247877e-01   -2,477561384e-01
       90275000   -8,183277845e-01   -2,441262901e-01
       90350000   -8,184497952e-01   -2,441042364e-01
       90425000   -8,178990483e-01   -2,432622761e-01
       90500000   -8,208070397e-01   -2,399436831e-01
       90575000   -8,208709359e-01   -2,381777614e-01
       90650000   -8,219609261e-01   -2,377020568e-01
       90725000   -8,223307133e-01   -2,365176380e-01
       90800000   -8,231218457e-01   -2,330119163e-01
       90875000   -8,232391477e-01   -2,318433672e-01
       90950000   -8,240413070e-01   -2,315330952e-01
       91025000   -8,259089589e-01   -2,289753407e-01
       91100000   -8,261878490e-01   -2,257887870e-01
       91175000   -8,263554573e-01   -2,251766324e-01
       91250000   -8,291410804e-01   -2,230386138e-01
       91325000   -8,293861747e-01   -2,203543484e-01
       91400000   -8,311499953e-01   -2,190773636e-01
       91475000   -8,297384977e-01   -2,180091292e-01
       91550000   -8,332567811e-01   -2,141313851e-01
       91625000   -8,338533640e-01   -2,105633169e-01
       91700000   -8,340281844e-01   -2,098085582e-01
       91775000   -8,349533677e-01   -2,081246376e-01
       91850000   -8,373022079e-01   -2,051678598e-01
       91925000   -8,376318216e-01   -2,022038549e-01
