! NanoVNA-App
! Date: 2025-08-09 13:13:24
! Start: 65MHz Stop: 95MHz Points: 401
! S-Parameter data: F S11
# Hz S RI R 50
!     Frequency           S11_Real           S11_Imag
       65000000    6,759648025e-02    3,330585063e-01
       65075000    6,819628924e-02    3,299562931e-01
       65150000    7,153923810e-02    3,267287314e-01
       65225000    7,349092513e-02    3,239295781e-01
       65300000    7,713674754e-02    3,188652098e-01
       65375000    8,139283955e-02    3,146987855e-01
       65450000    8,383612335e-02    3,120974898e-01
       65525000    8,665292710e-02    3,079575598e-01
       65600000    8,979101479e-02    3,050828278e-01
       65675000    9,189468622e-02    3,012994230e-01
       65750000    9,547222406e-02    2,977512777e-01
       65825000    9,889170527e-02    2,927151918e-01
       65900000    1,015594751e-01    2,896904647e-01
       65975000    1,046325564e-01    2,862572074e-01
       66050000    1,068715900e-01    2,827085555e-01
       66125000    1,091553271e-01    2,801180780e-01
       66200000    1,123369411e-01    2,776564956e-01
       66275000    1,155768558e-01    2,720679641e-01
       66350000    1,182761937e-01    2,698192298e-01
       66425000    1,203892231e-01    2,669284046e-01
       66500000    1,228675172e-01    2,627978325e-01
       66575000    1,256198138e-01    2,598445714e-01
       66650000    1,275885105e-01    2,568289936e-01
       66725000    1,297025979e-01    2,530027330e-01
       66800000    1,326441914e-01    2,505917847e-01
       66875000    1,353378296e-01    2,478289306e-01
       66950000    1,374347657e-01    2,452708036e-01
       67025000    1,401060522e-01    2,426657677e-01
       67100000    1,423595399e-01    2,393599451e-01
       67175000    1,460595429e-01    2,366108149e-01
       67250000    1,487405598e-01    2,339881808e-01
       67325000    1,519066989e-01    2,300559878e-01
       67400000    1,540892273e-01    2,268513143e-01
       67475000    1,568619311e-01    2,237459123e-01
       67550000    1,594106257e-01    2,200832367e-01
       67625000    1,615829021e-01    2,171979100e-01
       67700000    1,653473973e-01    2,139565051e-01
       67775000    1,669136882e-01    2,107285559e-01
       67850000    1,701250225e-01    2,068374902e-01
       67925000    1,721436083e-01    2,036827058e-01
       68000000    1,751350015e-01    2,001479119e-01
       68075000    1,777866781e-01    1,968099922e-01
       68150000    1,806518883e-01    1,938128471e-01
       68225000    1,820427328e-01    1,888974160e-01
       68300000    1,852222681e-01    1,854895502e-01
       68375000    1,869291067e-01    1,815978885e-01
       68450000    1,891759783e-01    1,779030412e-01
       68525000    1,918984950e-01    1,735426635e-01
       68600000    1,929563731e-01    1,698016971e-01
       68675000    1,957805306e-01    1,657738239e-01
       68750000    1,967573315e-01    1,612904966e-01
       68825000    1,986323297e-01    1,574286669e-01
       68900000    2,000856698e-01    1,535615474e-01
       68975000    2,005610466e-01    1,494457722e-01
       69050000    2,019295096e-01    1,445055455e-01
       69125000    2,041499466e-01    1,413437128e-01
       69200000    2,051728368e-01    1,373777241e-01
       69275000    2,056887895e-01    1,319489926e-01
       69350000    2,071717381e-01    1,288180053e-01
       69425000    2,072186768e-01    1,246393323e-01
       69500000    2,076740265e-01    1,206668094e-01
       69575000    2,083347291e-01    1,163383499e-01
       69650000    2,077883929e-01    1,132319048e-01
       69725000    2,081638128e-01    1,089956015e-01
       69800000    2,086969912e-01    1,052246913e-01
       69875000    2,081091106e-01    1,018022671e-01
       69950000    2,076345533e-01    9,738089144e-02
       70025000    2,080359608e-01    9,527264535e-02
       70100000    2,073431760e-01    9,144439548e-02
       70175000    2,070027888e-01    8,804705739e-02
       70250000    2,067988664e-01    8,465059102e-02
       70325000    2,061161995e-01    8,183110505e-02
       70400000    2,055901289e-01    7,896244526e-02
       70475000    2,051069289e-01    7,536753267e-02
       70550000    2,041120678e-01    7,378845662e-02
       70625000    2,036467046e-01    7,103139907e-02
       70700000    2,033579350e-01    6,866461784e-02
       70775000    2,020894587e-01    6,602612138e-02
       70850000    2,011610866e-01    6,454415619e-02
       70925000    2,011795193e-01    6,234940141e-02
       71000000    1,999948472e-01    6,001575664e-02
       71075000    1,990405321e-01    5,881300569e-02
       71150000    1,994971931e-01    5,613979325e-02
       71225000    1,992719322e-01    5,471048504e-02
       71300000    1,985548884e-01    5,297662690e-02
       71375000    1,978034079e-01    5,027860031e-02
       71450000    1,970165819e-01    4,926427081e-02
       71525000    1,973395348e-01    4,785023630e-02
       71600000    1,966723055e-01    4,591995478e-02
       71675000    1,971762031e-01    4,440803081e-02
       71750000    1,965495944e-01    4,233060032e-02
       71825000    1,960397214e-01    4,126956686e-02
       71900000    1,962173879e-01    3,992778435e-02
       71975000    1,955719143e-01    3,825264424e-02
       72050000    1,959411651e-01    3,714591637e-02
       72125000    1,948919892e-01    3,508124128e-02
       72200000    1,945090294e-01    3,325515613e-02
       72275000    1,944560409e-01    3,264889121e-02
       72350000    1,942671537e-01    3,127910197e-02
       72425000    1,940846443e-01    3,016915545e-02
       72500000    1,940797120e-01    2,924850769e-02
       72575000    1,939389110e-01    2,727665193e-02
       72650000    1,932105124e-01    2,724818327e-02
       72725000    1,939056814e-01    2,548803017e-02
       72800000    1,936026514e-01    2,375927567e-02
       72875000    1,933576465e-01    2,399760298e-02
       72950000    1,934561431e-01    2,148933522e-02
       73025000    1,927466989e-01    2,067758143e-02
       73100000    1,925797015e-01    2,027168684e-02
       73175000    1,930856556e-01    1,916712336e-02
       73250000    1,927001476e-01    1,745003089e-02
       73325000    1,930075139e-01    1,720404252e-02
       73400000    1,922185421e-01    1,639224589e-02
       73475000    1,926545352e-01    1,545895264e-02
       73550000    1,928537935e-01    1,358400751e-02
       73625000    1,934020519e-01    1,363243069e-02
       73700000    1,934883446e-01    1,294145081e-02
       73775000    1,939234138e-01    1,130739786e-02
       73850000    1,932414174e-01    1,129957102e-02
       73925000    1,936567575e-01    9,995714761e-03
       74000000    1,944756210e-01    9,033739567e-03
       74075000    1,943956614e-01    8,295903914e-03
       74150000    1,955641210e-01    7,503448520e-03
       74225000    1,947125494e-01    7,030273322e-03
       74300000    1,953494251e-01    5,393763073e-03
       74375000    1,957570612e-01    4,220816307e-03
       74450000    1,953536868e-01    4,442833364e-03
       74525000    1,964375377e-01    2,956025535e-03
       74600000    1,968666911e-01    1,997909509e-03
       74675000    1,969780028e-01    1,336903370e-04
       74750000    1,966288388e-01   -4,520963557e-05
       74825000    1,976387799e-01   -1,322889468e-03
       74900000    1,972673535e-01   -2,418440301e-03
       74975000    1,969324648e-01   -3,404365620e-03
       75050000    1,985145211e-01   -3,445797833e-03
       75125000    1,976539344e-01   -4,272082355e-03
       75200000    1,983794570e-01   -5,436890759e-03
       75275000    1,983191073e-01   -7,480753120e-03
       75350000    1,993882656e-01   -7,098867092e-03
       75425000    1,990521252e-01   -8,155311458e-03
       75500000    1,988833696e-01   -9,910323657e-03
       75575000    1,995165199e-01   -1,006067544e-02
       75650000    1,993844062e-01   -1,122580934e-02
       75725000    1,999315917e-01   -1,153721847e-02
       75800000    2,004564553e-01   -1,222751848e-02
       75875000    1,994208246e-01   -1,328462362e-02
       75950000    2,000675499e-01   -1,405585557e-02
       76025000    2,005396038e-01   -1,474535372e-02
       76100000    2,003156841e-01   -1,547010429e-02
       76175000    1,996886134e-01   -1,687200926e-02
       76250000    2,010073364e-01   -1,679721288e-02
       76325000    2,006969005e-01   -1,820834912e-02
       76400000    1,998683363e-01   -1,897012256e-02
       76475000    2,004341930e-01   -1,859131828e-02
       76550000    2,013165653e-01   -1,974289306e-02
       76625000    2,004558295e-01   -2,079513669e-02
       76700000    2,010540962e-01   -2,183780260e-02
       76775000    2,011768073e-01   -2,183119953e-02
       76850000    2,012779862e-01   -2,187111415e-02
       76925000    2,007651478e-01   -2,267516032e-02
       77000000    2,018455118e-01   -2,326320298e-02
       77075000    2,006191462e-01   -2,407270111e-02
       77150000    2,007148564e-01   -2,509171702e-02
       77225000    2,004248053e-01   -2,526845410e-02
       77300000    2,004123032e-01   -2,487493679e-02
       77375000    1,999981999e-01   -2,503535710e-02
       77450000    2,010399699e-01   -2,627163567e-02
       77525000    1,998581737e-01   -2,571124956e-02
       77600000    2,003381848e-01   -2,507150918e-02
       77675000    1,992467642e-01   -2,531999722e-02
       77750000    1,992697120e-01   -2,491077222e-02
       77825000    1,989907175e-01   -2,519526519e-02
       77900000    1,987046897e-01   -2,433427051e-02
       77975000    1,987560689e-01   -2,447485738e-02
       78050000    1,976215988e-01   -2,220823430e-02
       78125000    1,977654397e-01   -2,126134746e-02
       78200000    1,981303990e-01   -1,981995814e-02
       78275000    1,987861246e-01   -1,768413000e-02
       78350000    2,001433522e-01   -1,646573469e-02
       78425000    2,012736797e-01   -1,491723768e-02
       78500000    2,035271376e-01   -1,382115297e-02
       78575000    2,057431936e-01   -1,219112985e-02
       78650000    2,083845139e-01   -1,239091810e-02
       78725000    2,094458044e-01   -1,265257038e-02
       78800000    2,112531662e-01   -1,214871649e-02
       78875000    2,115512639e-01   -1,148726977e-02
       78950000    2,139580995e-01   -1,152284537e-02
       79025000    2,142024040e-01   -1,181571092e-02
       79100000    2,155493647e-01   -1,101076137e-02
       79175000    2,179594338e-01   -1,041689329e-02
       79250000    2,196344286e-01   -1,048049703e-02
       79325000    2,203985900e-01   -9,483359754e-03
       79400000    2,223443240e-01   -9,203310125e-03
       79475000    2,245009691e-01   -8,923152462e-03
       79550000    2,259192020e-01   -9,422128089e-03
       79625000    2,282692194e-01   -7,938416675e-03
       79700000    2,293299139e-01   -7,739868946e-03
       79775000    2,319842726e-01   -7,269683294e-03
       79850000    2,344522774e-01   -6,963219959e-03
       79925000    2,358304113e-01   -7,102335803e-03
       80000000    2,379229665e-01   -6,546834018e-03
       80075000    2,413188815e-01   -5,624169484e-03
       80150000    2,429356426e-01   -7,208481431e-03
       80225000    2,453852296e-01   -5,639801733e-03
       80300000    2,475773990e-01   -5,861358251e-03
       80375000    2,508693039e-01   -5,368412007e-03
       80450000    2,538784146e-01   -5,316668656e-03
       80525000    2,556632757e-01   -4,993780982e-03
       80600000    2,593995035e-01   -5,189112388e-03
       80675000    2,619474828e-01   -5,915304646e-03
       80750000    2,645462155e-01   -5,792310461e-03
       80825000    2,683049440e-01   -6,125201471e-03
       80900000    2,708002031e-01   -7,021725643e-03
       80975000    2,743643224e-01   -7,164279465e-03
       81050000    2,757903934e-01   -8,221701719e-03
       81125000    2,797159255e-01   -8,897623979e-03
       81200000    2,829505205e-01   -9,793785401e-03
       81275000    2,852357328e-01   -1,039677579e-02
       81350000    2,890296876e-01   -1,142726932e-02
       81425000    2,920957506e-01   -1,260692813e-02
       81500000    2,947117388e-01   -1,344322041e-02
       81575000    2,986478806e-01   -1,390952989e-02
       81650000    3,014725447e-01   -1,550827082e-02
       81725000    3,045260012e-01   -1,652679220e-02
       81800000    3,079010546e-01   -1,794493571e-02
       81875000    3,108809888e-01   -2,100895345e-02
       81950000    3,140661418e-01   -2,142052911e-02
       82025000    3,171366453e-01   -2,354733460e-02
       82100000    3,209361136e-01   -2,509137429e-02
       82175000    3,236225545e-01   -2,565510944e-02
       82250000    3,271713853e-01   -2,815164253e-02
       82325000    3,291327357e-01   -3,055530600e-02
       82400000    3,332025111e-01   -3,149782121e-02
       82475000    3,361599445e-01   -3,417899832e-02
       82550000    3,390306234e-01   -3,623809293e-02
       82625000    3,432370126e-01   -3,808005527e-02
       82700000    3,461896479e-01   -4,057137296e-02
       82775000    3,488122225e-01   -4,391248897e-02
       82850000    3,517746925e-01   -4,566726089e-02
       82925000    3,551601768e-01   -4,879217967e-02
       83000000    3,584054708e-01   -5,029280111e-02
       83075000    3,621145189e-01   -5,329722911e-02
       83150000    3,639389277e-01   -5,552678555e-02
       83225000    3,679259717e-01   -5,848445371e-02
       83300000    3,713908195e-01   -6,167653203e-02
       83375000    3,733109534e-01   -6,498007476e-02
       83450000    3,769784272e-01   -6,841800362e-02
       83525000    3,796981275e-01   -7,217039168e-02
       83600000    3,821778297e-01   -7,572430372e-02
       83675000    3,846442997e-01   -7,840077579e-02
       83750000    3,882107139e-01   -8,085319400e-02
       83825000    3,900915086e-01   -8,603177220e-02
       83900000    3,926475942e-01   -8,948998898e-02
       83975000    3,960890174e-01   -9,296140820e-02
       84050000    3,987286389e-01   -9,821841866e-02
       84125000    4,004465044e-01   -1,004118174e-01
       84200000    4,017536640e-01   -1,046822071e-01
       84275000    4,056501687e-01   -1,081099287e-01
       84350000    4,074729085e-01   -1,133270413e-01
       84425000    4,092233181e-01   -1,158826202e-01
       84500000    4,118371010e-01   -1,209131181e-01
       84575000    4,147073627e-01   -1,248970777e-01
       84650000    4,138578773e-01   -1,289680898e-01
       84725000    4,180658758e-01   -1,337911338e-01
       84800000    4,192614555e-01   -1,383635998e-01
       84875000    4,200045466e-01   -1,432220638e-01
       84950000    4,230528772e-01   -1,469622552e-01
       85025000    4,229380190e-01   -1,524468511e-01
       85100000    4,241689444e-01   -1,562993526e-01
       85175000    4,265107810e-01   -1,620787084e-01
       85250000    4,260997176e-01   -1,668233424e-01
       85325000    4,285902381e-01   -1,715401411e-01
       85400000    4,287839830e-01   -1,756331623e-01
       85475000    4,296360910e-01   -1,805027872e-01
       85550000    4,307212234e-01   -1,862511784e-01
       85625000    4,293799400e-01   -1,911389977e-01
       85700000    4,315080643e-01   -1,955821812e-01
       85775000    4,301195741e-01   -2,002240121e-01
       85850000    4,316067398e-01   -2,048357129e-01
       85925000    4,308299720e-01   -2,096356750e-01
       86000000    4,310080409e-01   -2,144549638e-01
       86075000    4,307370186e-01   -2,197287232e-01
       86150000    4,302741587e-01   -2,245679796e-01
       86225000    4,297188222e-01   -2,290465534e-01
       86300000    4,288276732e-01   -2,330378294e-01
       86375000    4,275294840e-01   -2,371401489e-01
       86450000    4,283795953e-01   -2,423014790e-01
       86525000    4,264284968e-01   -2,479204386e-01
       86600000    4,253234863e-01   -2,512889206e-01
       86675000    4,231310189e-01   -2,560434341e-01
       86750000    4,224731922e-01   -2,604686320e-01
       86825000    4,220041335e-01   -2,642182112e-01
       86900000    4,200122058e-01   -2,674739957e-01
       86975000    4,189467728e-01   -2,722701728e-01
       87050000    4,169484675e-01   -2,764624655e-01
       87125000    4,160657227e-01   -2,806512713e-01
       87200000    4,142043293e-01   -2,837966383e-01
       87275000    4,112925529e-01   -2,881996632e-01
       87350000    4,104876220e-01   -2,907337248e-01
       87425000    4,094376564e-01   -2,953206003e-01
       87500000    4,065840840e-01   -2,973047793e-01
       87575000    4,051487446e-01   -3,007560372e-01
       87650000    4,038106501e-01   -3,041211069e-01
       87725000    4,010652900e-01   -3,079272211e-01
       87800000    3,998658657e-01   -3,124242127e-01
       87875000    3,994324803e-01   -3,143210113e-01
       87950000    3,961859941e-01   -3,168257475e-01
       88025000    3,939375877e-01   -3,189676404e-01
       88100000    3,919104636e-01   -3,227753043e-01
       88175000    3,911902308e-01   -3,275203407e-01
       88250000    3,885309696e-01   -3,286851943e-01
       88325000    3,862747550e-01   -3,331358731e-01
       88400000    3,851606548e-01   -3,350632787e-01
       88475000    3,814583719e-01   -3,392211795e-01
       88550000    3,806506693e-01   -3,404189348e-01
       88625000    3,773283660e-01   -3,434685469e-01
       88700000    3,758635819e-01   -3,455612063e-01
       88775000    3,739129007e-01   -3,490835130e-01
       88850000    3,710080683e-01   -3,509725928e-01
       88925000    3,685783148e-01   -3,534978926e-01
       89000000    3,651806712e-01   -3,568376303e-01
       89075000    3,635478914e-01   -3,574118018e-01
       89150000    3,605003059e-01   -3,594717383e-01
       89225000    3,572397530e-01   -3,607323468e-01
       89300000    3,536515236e-01   -3,621165156e-01
       89375000    3,513751328e-01   -3,631255627e-01
       89450000    3,475493491e-01   -3,646769226e-01
       89525000    3,458123803e-01   -3,663624823e-01
       89600000    3,425458074e-01   -3,658207953e-01
       89675000    3,399021924e-01   -3,673961163e-01
       89750000    3,371954262e-01   -3,675644696e-01
       89825000    3,357892931e-01   -3,667402267e-01
       89900000    3,334216475e-01   -3,682395816e-01
       89975000    3,311202824e-01   -3,663625121e-01
       90050000    3,290827870e-01   -3,665656447e-01
       90125000    3,269178569e-01   -3,656425476e-01
       90200000    3,247993290e-01   -3,651803136e-01
       90275000    3,244934678e-01   -3,626579344e-01
       90350000    3,242379427e-01   -3,632209897e-01
       90425000    3,233423531e-01   -3,612249494e-01
       90500000    3,216623366e-01   -3,616597354e-01
       90575000    3,234878480e-01   -3,590959013e-01
       90650000    3,236112595e-01   -3,593025804e-01
       90725000    3,228456676e-01   -3,571228385e-01
       90800000    3,239429593e-01   -3,576337993e-01
       90875000    3,242224157e-01   -3,560127318e-01
       90950000    3,261185288e-01   -3,563312590e-01
       91025000    3,289946616e-01   -3,559689224e-01
       91100000    3,281590044e-01   -3,556073606e-01
       91175000    3,304471374e-01   -3,562728465e-01
       91250000    3,319893777e-01   -3,564659953e-01
       91325000    3,341133595e-01   -3,562119603e-01
       91400000    3,381347060e-01   -3,571366668e-01
       91475000    3,379002810e-01   -3,596538305e-01
       91550000    3,418051600e-01   -3,597521782e-01
       91625000    3,440837562e-01   -3,602366745e-01
       91700000    3,464172482e-01   -3,636439145e-01
       91775000    3,482477665e-01   -3,635262549e-01
       91850000    3,513567150e-01   -3,671719730e-01
       91925000    3,526444733e-01   -3,691220582e-01
