! NanoVNA-App
! Date: 2025-08-02 16:43:21
! Start: 65MHz Stop: 95MHz Points: 401
! S-Parameter data: F S11
# Hz S RI R 50
!     Frequency           S11_Real           S11_Imag
       65000000    1,573928297e-01    1,959396452e-01
       65075000    1,619697809e-01    1,934028268e-01
       65150000    1,677568704e-01    1,876538247e-01
       65225000    1,716832370e-01    1,831913739e-01
       65300000    1,768178195e-01    1,759618819e-01
       65375000    1,814094484e-01    1,704038978e-01
       65450000    1,861883551e-01    1,640603244e-01
       65525000    1,894823611e-01    1,581265330e-01
       65600000    1,934508979e-01    1,519218236e-01
       65675000    1,975122094e-01    1,461229175e-01
       65750000    1,999627501e-01    1,398130953e-01
       65825000    2,028743923e-01    1,341352165e-01
       65900000    2,049461454e-01    1,273764074e-01
       65975000    2,085061520e-01    1,223366857e-01
       66050000    2,099986225e-01    1,155072972e-01
       66125000    2,122059017e-01    1,100276932e-01
       66200000    2,145856768e-01    1,045877859e-01
       66275000    2,163294405e-01    9,841398150e-02
       66350000    2,181073427e-01    9,297233820e-02
       66425000    2,198590189e-01    8,780176938e-02
       66500000    2,206676602e-01    8,189187199e-02
       66575000    2,224047929e-01    7,662656158e-02
       66650000    2,234468013e-01    7,087281346e-02
       66725000    2,247347534e-01    6,677977741e-02
       66800000    2,262237966e-01    6,068472937e-02
       66875000    2,272069156e-01    5,673353001e-02
       66950000    2,287844270e-01    5,162504315e-02
       67025000    2,302399278e-01    4,679639265e-02
       67100000    2,309744507e-01    4,217424244e-02
       67175000    2,331822664e-01    3,747035936e-02
       67250000    2,336670309e-01    3,114113212e-02
       67325000    2,345924526e-01    2,653176524e-02
       67400000    2,371615767e-01    2,189978212e-02
       67475000    2,367759943e-01    1,526590064e-02
       67550000    2,379615456e-01    1,153822057e-02
       67625000    2,394056320e-01    5,198897328e-03
       67700000    2,381724566e-01   -5,554960808e-04
       67775000    2,391744703e-01   -5,200220738e-03
       67850000    2,403549701e-01   -1,016806997e-02
       67925000    2,391551584e-01   -1,504533645e-02
       68000000    2,403729409e-01   -2,084750496e-02
       68075000    2,390262485e-01   -2,693831362e-02
       68150000    2,394025326e-01   -3,113955632e-02
       68225000    2,389980108e-01   -3,690278158e-02
       68300000    2,383169532e-01   -4,100743681e-02
       68375000    2,378766984e-01   -4,743669927e-02
       68450000    2,366806865e-01   -5,138834193e-02
       68525000    2,364972383e-01   -5,598105490e-02
       68600000    2,334237546e-01   -6,089958176e-02
       68675000    2,330162674e-01   -6,550729275e-02
       68750000    2,306678891e-01   -7,117745280e-02
       68825000    2,295007855e-01   -7,503197342e-02
       68900000    2,279538214e-01   -8,072218299e-02
       68975000    2,257811874e-01   -8,305574954e-02
       69050000    2,230892479e-01   -8,906614780e-02
       69125000    2,213546783e-01   -9,095858037e-02
       69200000    2,188992202e-01   -9,573251009e-02
       69275000    2,164744735e-01   -9,842234105e-02
       69350000    2,148453891e-01   -1,027928889e-01
       69425000    2,126516253e-01   -1,046246737e-01
       69500000    2,096196115e-01   -1,085408702e-01
       69575000    2,079836726e-01   -1,097866595e-01
       69650000    2,055766433e-01   -1,135609150e-01
       69725000    2,031057179e-01   -1,150207371e-01
       69800000    2,013647407e-01   -1,175750270e-01
       69875000    1,993861347e-01   -1,180709302e-01
       69950000    1,961522698e-01   -1,209331825e-01
       70025000    1,951395869e-01   -1,235249564e-01
       70100000    1,916684806e-01   -1,255152076e-01
       70175000    1,914061159e-01   -1,267220974e-01
       70250000    1,900889426e-01   -1,286978573e-01
       70325000    1,882385015e-01   -1,288236082e-01
       70400000    1,864702404e-01   -1,319403648e-01
       70475000    1,842164993e-01   -1,316341460e-01
       70550000    1,834204644e-01   -1,336380094e-01
       70625000    1,817988604e-01   -1,368000507e-01
       70700000    1,799655110e-01   -1,362036169e-01
       70775000    1,805452555e-01   -1,377321929e-01
       70850000    1,777283996e-01   -1,384231299e-01
       70925000    1,775867343e-01   -1,414341480e-01
       71000000    1,769558042e-01   -1,430104822e-01
       71075000    1,747959554e-01   -1,429799050e-01
       71150000    1,737089902e-01   -1,456363648e-01
       71225000    1,732903868e-01   -1,472678632e-01
       71300000    1,705338359e-01   -1,495372802e-01
       71375000    1,704866439e-01   -1,503029466e-01
       71450000    1,708976775e-01   -1,515102386e-01
       71525000    1,699209064e-01   -1,545042545e-01
       71600000    1,655106843e-01   -1,547227055e-01
       71675000    1,670133770e-01   -1,562397480e-01
       71750000    1,659539491e-01   -1,594753414e-01
       71825000    1,637126356e-01   -1,593277901e-01
       71900000    1,640038341e-01   -1,623955667e-01
       71975000    1,618032455e-01   -1,643653512e-01
       72050000    1,581126153e-01   -1,636690795e-01
       72125000    1,586156189e-01   -1,668567657e-01
       72200000    1,565647274e-01   -1,687992811e-01
       72275000    1,553935409e-01   -1,684304476e-01
       72350000    1,539848298e-01   -1,728352308e-01
       72425000    1,528532207e-01   -1,716759205e-01
       72500000    1,513517201e-01   -1,760441661e-01
       72575000    1,493679434e-01   -1,739313304e-01
       72650000    1,467534304e-01   -1,740260571e-01
       72725000    1,454833001e-01   -1,781115383e-01
       72800000    1,440187395e-01   -1,770630628e-01
       72875000    1,413177848e-01   -1,773925424e-01
       72950000    1,401645690e-01   -1,786220223e-01
       73025000    1,383466572e-01   -1,794733703e-01
       73100000    1,371787339e-01   -1,784812063e-01
       73175000    1,348455548e-01   -1,821843088e-01
       73250000    1,333399713e-01   -1,805888712e-01
       73325000    1,322345883e-01   -1,800474375e-01
       73400000    1,300264895e-01   -1,827236861e-01
       73475000    1,283282638e-01   -1,815267205e-01
       73550000    1,272022128e-01   -1,815651953e-01
       73625000    1,241727769e-01   -1,822434068e-01
       73700000    1,243541762e-01   -1,828437001e-01
       73775000    1,219975427e-01   -1,817502975e-01
       73850000    1,203669310e-01   -1,822093725e-01
       73925000    1,194383129e-01   -1,837117821e-01
       74000000    1,181698143e-01   -1,815715730e-01
       74075000    1,163885146e-01   -1,819214076e-01
       74150000    1,140144318e-01   -1,828838885e-01
       74225000    1,136586517e-01   -1,812186986e-01
       74300000    1,130794138e-01   -1,807475090e-01
       74375000    1,101559624e-01   -1,819290668e-01
       74450000    1,116514504e-01   -1,796392649e-01
       74525000    1,094660237e-01   -1,801786125e-01
       74600000    1,083461270e-01   -1,791826040e-01
       74675000    1,090316325e-01   -1,795990616e-01
       74750000    1,060277447e-01   -1,782645881e-01
       74825000    1,064023525e-01   -1,778735369e-01
       74900000    1,057212278e-01   -1,793980598e-01
       74975000    1,046491265e-01   -1,777283847e-01
       75050000    1,046630815e-01   -1,772614419e-01
       75125000    1,033487618e-01   -1,762973964e-01
       75200000    1,044412404e-01   -1,767598838e-01
       75275000    1,021433026e-01   -1,746258289e-01
       75350000    1,022839546e-01   -1,755435467e-01
       75425000    1,010495946e-01   -1,751089096e-01
       75500000    1,003657207e-01   -1,733317226e-01
       75575000    9,932848811e-02   -1,732637733e-01
       75650000    1,008355692e-01   -1,735813767e-01
       75725000    9,823312610e-02   -1,718253046e-01
       75800000    9,890435636e-02   -1,708218008e-01
       75875000    9,760843962e-02   -1,721629500e-01
       75950000    9,790054709e-02   -1,702277511e-01
       76025000    9,757168591e-02   -1,694234014e-01
       76100000    9,705468267e-02   -1,692700088e-01
       76175000    9,732553363e-02   -1,676999032e-01
       76250000    9,517344087e-02   -1,664581746e-01
       76325000    9,638494998e-02   -1,669925749e-01
       76400000    9,436257184e-02   -1,647987664e-01
       76475000    9,567087144e-02   -1,633778960e-01
       76550000    9,536771476e-02   -1,637513787e-01
       76625000    9,418863803e-02   -1,628511548e-01
       76700000    9,522745013e-02   -1,611838043e-01
       76775000    9,491712600e-02   -1,600856036e-01
       76850000    9,387462586e-02   -1,596447974e-01
       76925000    9,507281333e-02   -1,569107324e-01
       77000000    9,567712247e-02   -1,573460549e-01
       77075000    9,509155154e-02   -1,561689973e-01
       77150000    9,563509375e-02   -1,556556970e-01
       77225000    9,422824532e-02   -1,530954838e-01
       77300000    9,666109830e-02   -1,512164623e-01
       77375000    9,556593746e-02   -1,502885222e-01
       77450000    9,694255143e-02   -1,485648304e-01
       77525000    9,824817628e-02   -1,463968754e-01
       77600000    9,829966724e-02   -1,465634257e-01
       77675000    9,928008169e-02   -1,449619979e-01
       77750000    1,010782123e-01   -1,439737231e-01
       77825000    1,007249430e-01   -1,424948424e-01
       77900000    1,018842608e-01   -1,403250843e-01
       77975000    1,042365953e-01   -1,389298588e-01
       78050000    1,042188928e-01   -1,381139010e-01
       78125000    1,067602858e-01   -1,365537494e-01
       78200000    1,078957841e-01   -1,355864406e-01
       78275000    1,086656228e-01   -1,350489706e-01
       78350000    1,107616499e-01   -1,323615909e-01
       78425000    1,123844832e-01   -1,314330399e-01
       78500000    1,148340926e-01   -1,315332204e-01
       78575000    1,157149971e-01   -1,292266995e-01
       78650000    1,188419387e-01   -1,283763051e-01
       78725000    1,205367967e-01   -1,288973540e-01
       78800000    1,228396222e-01   -1,263046116e-01
       78875000    1,252972037e-01   -1,259204298e-01
       78950000    1,271048486e-01   -1,255167127e-01
       79025000    1,298132539e-01   -1,247926503e-01
       79100000    1,307662576e-01   -1,242423505e-01
       79175000    1,349947602e-01   -1,240497306e-01
       79250000    1,376792639e-01   -1,249569505e-01
       79325000    1,396356523e-01   -1,227156222e-01
       79400000    1,443119347e-01   -1,238518804e-01
       79475000    1,449062675e-01   -1,240347698e-01
       79550000    1,484914869e-01   -1,236558482e-01
       79625000    1,510553807e-01   -1,255301088e-01
       79700000    1,536983848e-01   -1,245429292e-01
       79775000    1,574317515e-01   -1,252396554e-01
       79850000    1,588857025e-01   -1,274030507e-01
       79925000    1,615242213e-01   -1,272782534e-01
       80000000    1,652369946e-01   -1,279939413e-01
       80075000    1,671996266e-01   -1,309370399e-01
       80150000    1,712322682e-01   -1,300262064e-01
       80225000    1,728530973e-01   -1,312263310e-01
       80300000    1,743425131e-01   -1,333666593e-01
       80375000    1,775264740e-01   -1,349443942e-01
       80450000    1,819716543e-01   -1,364715546e-01
       80525000    1,837658733e-01   -1,365989000e-01
       80600000    1,868265122e-01   -1,405590475e-01
       80675000    1,873124838e-01   -1,407360584e-01
       80750000    1,892371029e-01   -1,434832215e-01
       80825000    1,918503344e-01   -1,468711644e-01
       80900000    1,938126534e-01   -1,480969638e-01
       80975000    1,964289844e-01   -1,486776173e-01
       81050000    1,972283721e-01   -1,533640623e-01
       81125000    1,992738992e-01   -1,543350518e-01
       81200000    1,995915622e-01   -1,574806422e-01
       81275000    2,023315728e-01   -1,591630727e-01
       81350000    2,042161375e-01   -1,618704945e-01
       81425000    2,044706494e-01   -1,611729860e-01
       81500000    2,066137493e-01   -1,642062813e-01
       81575000    2,061086893e-01   -1,663994193e-01
       81650000    2,078997046e-01   -1,701031625e-01
       81725000    2,085699290e-01   -1,718599945e-01
       81800000    2,073453218e-01   -1,747881323e-01
       81875000    2,103138715e-01   -1,761054099e-01
       81950000    2,108167261e-01   -1,791709512e-01
       82025000    2,112166733e-01   -1,798826605e-01
       82100000    2,134490013e-01   -1,816474050e-01
       82175000    2,123814076e-01   -1,828195602e-01
       82250000    2,138122171e-01   -1,859281361e-01
       82325000    2,115616649e-01   -1,863573045e-01
       82400000    2,133655399e-01   -1,881775111e-01
       82475000    2,113458067e-01   -1,909642369e-01
       82550000    2,133863270e-01   -1,924003661e-01
       82625000    2,128062844e-01   -1,943176538e-01
       82700000    2,139651179e-01   -1,953242570e-01
       82775000    2,130623162e-01   -1,971113980e-01
       82850000    2,144337893e-01   -1,973769218e-01
       82925000    2,136583626e-01   -1,998694390e-01
       83000000    2,153565586e-01   -2,002838552e-01
       83075000    2,155171633e-01   -2,025071084e-01
       83150000    2,164181769e-01   -2,018953711e-01
       83225000    2,150991559e-01   -2,040480524e-01
       83300000    2,169747800e-01   -2,038532197e-01
       83375000    2,171668708e-01   -2,063495368e-01
       83450000    2,171602100e-01   -2,040694058e-01
       83525000    2,194116861e-01   -2,049904615e-01
       83600000    2,189393342e-01   -2,053448111e-01
       83675000    2,209969610e-01   -2,082280666e-01
       83750000    2,212132812e-01   -2,104142010e-01
       83825000    2,221706510e-01   -2,078018188e-01
       83900000    2,244488895e-01   -2,094596177e-01
       83975000    2,220810503e-01   -2,108539194e-01
       84050000    2,253053635e-01   -2,117672414e-01
       84125000    2,239103764e-01   -2,136032879e-01
       84200000    2,277438045e-01   -2,135009021e-01
       84275000    2,283722907e-01   -2,131712288e-01
       84350000    2,278112620e-01   -2,142558545e-01
       84425000    2,304887474e-01   -2,154368609e-01
       84500000    2,304560393e-01   -2,166640162e-01
       84575000    2,331829071e-01   -2,187744826e-01
       84650000    2,358538657e-01   -2,192627490e-01
       84725000    2,345995009e-01   -2,188099623e-01
       84800000    2,378259450e-01   -2,201222628e-01
       84875000    2,364651859e-01   -2,210026383e-01
       84950000    2,411895841e-01   -2,231415361e-01
       85025000    2,415115386e-01   -2,236984223e-01
       85100000    2,435160130e-01   -2,267453969e-01
       85175000    2,455193251e-01   -2,250110209e-01
       85250000    2,487853616e-01   -2,262793481e-01
       85325000    2,469157130e-01   -2,287295014e-01
       85400000    2,509685457e-01   -2,300484329e-01
       85475000    2,514978945e-01   -2,327750325e-01
       85550000    2,525500655e-01   -2,320202738e-01
       85625000    2,578113079e-01   -2,330894172e-01
       85700000    2,597770989e-01   -2,353921682e-01
       85775000    2,587179840e-01   -2,382456362e-01
       85850000    2,638464868e-01   -2,370409817e-01
       85925000    2,655713558e-01   -2,416571677e-01
       86000000    2,670750916e-01   -2,449193299e-01
       86075000    2,706672251e-01   -2,458624095e-01
       86150000    2,732349932e-01   -2,462233156e-01
       86225000    2,756409347e-01   -2,499495447e-01
       86300000    2,745063305e-01   -2,532071471e-01
       86375000    2,755363882e-01   -2,552618384e-01
       86450000    2,803222239e-01   -2,562719285e-01
       86525000    2,839944065e-01   -2,593380511e-01
       86600000    2,816487551e-01   -2,635855973e-01
       86675000    2,851247191e-01   -2,657533586e-01
       86750000    2,857491970e-01   -2,709470093e-01
       86825000    2,877859771e-01   -2,720756531e-01
       86900000    2,919914424e-01   -2,743872404e-01
       86975000    2,947551906e-01   -2,777361870e-01
       87050000    2,941253781e-01   -2,808377147e-01
       87125000    2,960347831e-01   -2,864980996e-01
       87200000    2,979301214e-01   -2,882809639e-01
       87275000    3,008630574e-01   -2,900427580e-01
       87350000    2,993568480e-01   -2,965566814e-01
       87425000    3,015213907e-01   -2,980302274e-01
       87500000    3,017206490e-01   -3,041429222e-01
       87575000    3,040819764e-01   -3,055124283e-01
       87650000    3,045405746e-01   -3,106782436e-01
       87725000    3,049178720e-01   -3,091921210e-01
       87800000    3,076877296e-01   -3,128828108e-01
       87875000    3,047136366e-01   -3,158149719e-01
       87950000    3,095367253e-01   -3,208042681e-01
       88025000    3,084605634e-01   -3,245453835e-01
       88100000    3,089348078e-01   -3,299310207e-01
       88175000    3,101709187e-01   -3,288738430e-01
       88250000    3,121784627e-01   -3,334952593e-01
       88325000    3,114048839e-01   -3,406686485e-01
       88400000    3,132503331e-01   -3,417945504e-01
       88475000    3,123484850e-01   -3,493708074e-01
       88550000    3,149168193e-01   -3,483151495e-01
       88625000    3,149902821e-01   -3,506807387e-01
       88700000    3,174548745e-01   -3,573938608e-01
       88775000    3,129585385e-01   -3,603548110e-01
       88850000    3,184245825e-01   -3,628332019e-01
       88925000    3,172303438e-01   -3,661303222e-01
       89000000    3,151265681e-01   -3,690072298e-01
       89075000    3,175620437e-01   -3,744395971e-01
       89150000    3,155179024e-01   -3,787443936e-01
       89225000    3,191770613e-01   -3,841702640e-01
       89300000    3,181105256e-01   -3,904702365e-01
       89375000    3,201228082e-01   -3,917191029e-01
       89450000    3,186986744e-01   -3,980286419e-01
       89525000    3,191526234e-01   -3,969205618e-01
       89600000    3,214784265e-01   -4,020264745e-01
       89675000    3,231835663e-01   -4,077368975e-01
       89750000    3,208729029e-01   -4,093299210e-01
       89825000    3,220356107e-01   -4,173417389e-01
       89900000    3,211230040e-01   -4,231233597e-01
       89975000    3,206735551e-01   -4,250410497e-01
       90050000    3,221027851e-01   -4,304239750e-01
       90125000    3,183016181e-01   -4,311075211e-01
       90200000    3,191745877e-01   -4,365687668e-01
       90275000    3,210510314e-01   -4,443732202e-01
       90350000    3,190404773e-01   -4,415962994e-01
       90425000    3,184659183e-01   -4,482699633e-01
       90500000    3,138648272e-01   -4,536290765e-01
       90575000    3,158148229e-01   -4,626282156e-01
       90650000    3,151507974e-01   -4,638543129e-01
       90725000    3,099509180e-01   -4,730737209e-01
       90800000    3,113609552e-01   -4,764496386e-01
       90875000    3,105866015e-01   -4,822391570e-01
       90950000    3,114881814e-01   -4,845317304e-01
       91025000    3,098958433e-01   -4,909976125e-01
       91100000    3,078284562e-01   -4,930224419e-01
       91175000    3,064299226e-01   -4,965468049e-01
       91250000    3,025807738e-01   -5,000219941e-01
       91325000    3,031375408e-01   -5,054299831e-01
       91400000    2,941403091e-01   -5,096552372e-01
       91475000    2,950664461e-01   -5,154541135e-01
       91550000    2,908480465e-01   -5,224408507e-01
       91625000    2,912499011e-01   -5,255467892e-01
       91700000    2,858199477e-01   -5,305725336e-01
       91775000    2,883300781e-01   -5,350719690e-01
       91850000    2,841337025e-01   -5,412608385e-01
       91925000    2,838739753e-01   -5,416457653e-01
