! NanoVNA-App
! Date: 2025-08-09 16:47:20
! Start: 65MHz Stop: 95MHz Points: 401
! S-Parameter data: F S11
# Hz S RI R 50
!     Frequency           S11_Real           S11_Imag
       65000000   -4,847459197e-01    1,863771230e-01
       65075000   -4,866572022e-01    1,866279691e-01
       65150000   -4,825496674e-01    1,869678646e-01
       65225000   -4,755536616e-01    1,876107156e-01
       65300000   -4,724345803e-01    1,892121434e-01
       65375000   -4,679382145e-01    1,933420151e-01
       65450000   -4,616762996e-01    1,932460666e-01
       65525000   -4,593382776e-01    1,943352371e-01
       65600000   -4,515778124e-01    1,967154443e-01
       65675000   -4,463503957e-01    1,958547086e-01
       65750000   -4,435757697e-01    1,967793256e-01
       65825000   -4,396331608e-01    1,957897544e-01
       65900000   -4,342395663e-01    1,989262402e-01
       65975000   -4,287437201e-01    1,972303987e-01
       66050000   -4,254484177e-01    1,985588074e-01
       66125000   -4,216042161e-01    2,001337260e-01
       66200000   -4,174755216e-01    1,995800883e-01
       66275000   -4,129956961e-01    2,017465830e-01
       66350000   -4,097356498e-01    2,021812052e-01
       66425000   -4,056190252e-01    2,017732859e-01
       66500000   -4,018193483e-01    2,020329088e-01
       66575000   -3,980262578e-01    2,030209005e-01
       66650000   -3,935469985e-01    2,030836791e-01
       66725000   -3,897908926e-01    2,045393139e-01
       66800000   -3,859359920e-01    2,058140486e-01
       66875000   -3,836604059e-01    2,062187046e-01
       66950000   -3,797881305e-01    2,065301239e-01
       67025000   -3,761712015e-01    2,078097612e-01
       67100000   -3,732235730e-01    2,088043839e-01
       67175000   -3,701480627e-01    2,084206939e-01
       67250000   -3,671421111e-01    2,098154873e-01
       67325000   -3,627600372e-01    2,116050273e-01
       67400000   -3,601176441e-01    2,136343867e-01
       67475000   -3,543522954e-01    2,145776749e-01
       67550000   -3,508597314e-01    2,156758308e-01
       67625000   -3,467032015e-01    2,161986977e-01
       67700000   -3,428305089e-01    2,166396677e-01
       67775000   -3,376782835e-01    2,184612900e-01
       67850000   -3,344502449e-01    2,188131809e-01
       67925000   -3,299273252e-01    2,190584838e-01
       68000000   -3,259212673e-01    2,187234908e-01
       68075000   -3,213167191e-01    2,189862728e-01
       68150000   -3,175108135e-01    2,183736265e-01
       68225000   -3,133285642e-01    2,199145406e-01
       68300000   -3,086410761e-01    2,202089429e-01
       68375000   -3,052966297e-01    2,204105258e-01
       68450000   -3,032021821e-01    2,205133885e-01
       68525000   -2,983489633e-01    2,204775512e-01
       68600000   -2,943255901e-01    2,204589099e-01
       68675000   -2,912056148e-01    2,199166864e-01
       68750000   -2,869766057e-01    2,196598500e-01
       68825000   -2,821428776e-01    2,192791104e-01
       68900000   -2,763546109e-01    2,195279747e-01
       68975000   -2,756053209e-01    2,185730487e-01
       69050000   -2,707327306e-01    2,187480032e-01
       69125000   -2,673199177e-01    2,180215269e-01
       69200000   -2,638161182e-01    2,176847160e-01
       69275000   -2,601337433e-01    2,175915390e-01
       69350000   -2,567430437e-01    2,170743197e-01
       69425000   -2,530429959e-01    2,158318758e-01
       69500000   -2,500316799e-01    2,153837830e-01
       69575000   -2,465746552e-01    2,150390893e-01
       69650000   -2,441328317e-01    2,141226083e-01
       69725000   -2,412419468e-01    2,136225849e-01
       69800000   -2,380499393e-01    2,128412277e-01
       69875000   -2,348975390e-01    2,121390104e-01
       69950000   -2,328602821e-01    2,098450065e-01
       70025000   -2,298200428e-01    2,104091942e-01
       70100000   -2,282320410e-01    2,093163282e-01
       70175000   -2,250086367e-01    2,065752000e-01
       70250000   -2,223683596e-01    2,072499245e-01
       70325000   -2,202538997e-01    2,066606581e-01
       70400000   -2,187069803e-01    2,064339817e-01
       70475000   -2,160844356e-01    2,054107487e-01
       70550000   -2,146283537e-01    2,046806663e-01
       70625000   -2,123176754e-01    2,038473040e-01
       70700000   -2,108491510e-01    2,052991539e-01
       70775000   -2,082848251e-01    2,050354034e-01
       70850000   -2,062746733e-01    2,048083693e-01
       70925000   -2,026509494e-01    2,043123841e-01
       71000000   -2,012891024e-01    2,049975693e-01
       71075000   -1,989926398e-01    2,057339698e-01
       71150000   -1,955635846e-01    2,047488838e-01
       71225000   -1,942977160e-01    2,062331736e-01
       71300000   -1,913119406e-01    2,059401274e-01
       71375000   -1,884287149e-01    2,054614723e-01
       71450000   -1,841097027e-01    2,060375810e-01
       71525000   -1,810749173e-01    2,050906569e-01
       71600000   -1,784273535e-01    2,051404268e-01
       71675000   -1,738706529e-01    2,037118822e-01
       71750000   -1,709949672e-01    2,032095045e-01
       71825000   -1,687243879e-01    2,025989592e-01
       71900000   -1,649337262e-01    2,004720271e-01
       71975000   -1,623845100e-01    1,986248493e-01
       72050000   -1,602079570e-01    1,981143504e-01
       72125000   -1,577325165e-01    1,962607503e-01
       72200000   -1,562005579e-01    1,942749918e-01
       72275000   -1,532929987e-01    1,921805143e-01
       72350000   -1,522012949e-01    1,902690083e-01
       72425000   -1,506886035e-01    1,886901110e-01
       72500000   -1,490183473e-01    1,885982454e-01
       72575000   -1,478794664e-01    1,859503239e-01
       72650000   -1,471866071e-01    1,856391281e-01
       72725000   -1,467505693e-01    1,844694614e-01
       72800000   -1,457900405e-01    1,831192523e-01
       72875000   -1,446665078e-01    1,825318187e-01
       72950000   -1,444165707e-01    1,816158742e-01
       73025000   -1,436758637e-01    1,823449433e-01
       73100000   -1,429399997e-01    1,819505543e-01
       73175000   -1,419141591e-01    1,816145033e-01
       73250000   -1,401490867e-01    1,819343120e-01
       73325000   -1,395618469e-01    1,811929345e-01
       73400000   -1,389460415e-01    1,819001883e-01
       73475000   -1,372599155e-01    1,825271547e-01
       73550000   -1,363028437e-01    1,831803769e-01
       73625000   -1,347227246e-01    1,834781766e-01
       73700000   -1,329077780e-01    1,835733950e-01
       73775000   -1,319542676e-01    1,844366342e-01
       73850000   -1,312154979e-01    1,842811704e-01
       73925000   -1,295479536e-01    1,845964938e-01
       74000000   -1,281218976e-01    1,846377701e-01
       74075000   -1,258292645e-01    1,855971962e-01
       74150000   -1,238605604e-01    1,860221177e-01
       74225000   -1,221602261e-01    1,859381199e-01
       74300000   -1,211224347e-01    1,862241328e-01
       74375000   -1,184300855e-01    1,865276545e-01
       74450000   -1,166152209e-01    1,860080063e-01
       74525000   -1,148249507e-01    1,868694276e-01
       74600000   -1,124754697e-01    1,867084354e-01
       74675000   -1,112956405e-01    1,871061772e-01
       74750000   -1,092046052e-01    1,872981191e-01
       74825000   -1,074469686e-01    1,873740107e-01
       74900000   -1,049497947e-01    1,872665435e-01
       74975000   -1,039757952e-01    1,867525727e-01
       75050000   -1,025046855e-01    1,866440624e-01
       75125000   -1,000534743e-01    1,858942360e-01
       75200000   -9,857659042e-02    1,869383901e-01
       75275000   -9,631367773e-02    1,867515892e-01
       75350000   -9,477733821e-02    1,857055724e-01
       75425000   -9,209900349e-02    1,865513474e-01
       75500000   -9,052564204e-02    1,859205216e-01
       75575000   -8,878571540e-02    1,855112761e-01
       75650000   -8,753986657e-02    1,856274307e-01
       75725000   -8,581928909e-02    1,855975986e-01
       75800000   -8,428454399e-02    1,845064759e-01
       75875000   -8,198512346e-02    1,843625456e-01
       75950000   -8,081173152e-02    1,843004823e-01
       76025000   -7,976957411e-02    1,838769615e-01
       76100000   -7,788345218e-02    1,831314862e-01
       76175000   -7,647598535e-02    1,833020598e-01
       76250000   -7,542196661e-02    1,830540150e-01
       76325000   -7,438342273e-02    1,821410060e-01
       76400000   -7,186207175e-02    1,824965328e-01
       76475000   -7,242207229e-02    1,814366430e-01
       76550000   -7,049161196e-02    1,812819242e-01
       76625000   -6,882563978e-02    1,810844839e-01
       76700000   -6,865926832e-02    1,806973666e-01
       76775000   -6,835670769e-02    1,801173538e-01
       76850000   -6,709269434e-02    1,800896227e-01
       76925000   -6,811887026e-02    1,797450483e-01
       77000000   -6,863902509e-02    1,799282730e-01
       77075000   -6,829358637e-02    1,817830950e-01
       77150000   -6,787411124e-02    1,835268736e-01
       77225000   -6,664135307e-02    1,850870550e-01
       77300000   -6,497460604e-02    1,867303848e-01
       77375000   -6,334295124e-02    1,885697246e-01
       77450000   -6,119011715e-02    1,898594946e-01
       77525000   -5,854682624e-02    1,903224736e-01
       77600000   -5,614192784e-02    1,909637451e-01
       77675000   -5,473511666e-02    1,915372014e-01
       77750000   -5,322081596e-02    1,914676875e-01
       77825000   -5,088489875e-02    1,924212426e-01
       77900000   -5,028892681e-02    1,923579425e-01
       77975000   -4,839525744e-02    1,924204230e-01
       78050000   -4,680113867e-02    1,928987503e-01
       78125000   -4,603316262e-02    1,943214238e-01
       78200000   -4,450497404e-02    1,944124997e-01
       78275000   -4,284062609e-02    1,951122284e-01
       78350000   -4,163604975e-02    1,962591112e-01
       78425000   -4,008281603e-02    1,963685602e-01
       78500000   -3,802894056e-02    1,968236268e-01
       78575000   -3,651015833e-02    1,975653917e-01
       78650000   -3,564499691e-02    1,981536895e-01
       78725000   -3,348584473e-02    1,993928254e-01
       78800000   -3,291162848e-02    2,002407461e-01
       78875000   -3,178597987e-02    2,017908841e-01
       78950000   -2,985671535e-02    2,020728290e-01
       79025000   -2,772307582e-02    2,039457411e-01
       79100000   -2,639391087e-02    2,044983506e-01
       79175000   -2,464444004e-02    2,056080848e-01
       79250000   -2,259968407e-02    2,072104365e-01
       79325000   -2,124581300e-02    2,088076919e-01
       79400000   -1,947372779e-02    2,094764411e-01
       79475000   -1,685588248e-02    2,109862715e-01
       79550000   -1,483826805e-02    2,127457559e-01
       79625000   -1,272314787e-02    2,139473408e-01
       79700000   -1,137589756e-02    2,161460966e-01
       79775000   -8,425375447e-03    2,171745002e-01
       79850000   -6,593001075e-03    2,182313800e-01
       79925000   -3,946677782e-03    2,199140042e-01
       80000000   -1,279049669e-03    2,223629951e-01
       80075000    1,485079061e-03    2,243461758e-01
       80150000    4,920696840e-03    2,254816890e-01
       80225000    7,559463847e-03    2,250638604e-01
       80300000    1,064275298e-02    2,281206995e-01
       80375000    1,341118477e-02    2,286352068e-01
       80450000    1,566665806e-02    2,296669185e-01
       80525000    1,945452765e-02    2,316844910e-01
       80600000    2,220722474e-02    2,322914451e-01
       80675000    2,586501464e-02    2,336027473e-01
       80750000    2,974274196e-02    2,336780429e-01
       80825000    3,292012587e-02    2,353562713e-01
       80900000    3,589458391e-02    2,364242226e-01
       80975000    4,084960371e-02    2,360134274e-01
       81050000    4,341826215e-02    2,383995503e-01
       81125000    4,646094516e-02    2,387049496e-01
       81200000    5,017690361e-02    2,397823185e-01
       81275000    5,380313098e-02    2,401636243e-01
       81350000    5,737741664e-02    2,409508079e-01
       81425000    6,066033617e-02    2,410029620e-01
       81500000    6,378906220e-02    2,414668351e-01
       81575000    6,800255179e-02    2,419143915e-01
       81650000    7,135628164e-02    2,424481660e-01
       81725000    7,542109489e-02    2,434585989e-01
       81800000    7,967372984e-02    2,431053519e-01
       81875000    8,272787929e-02    2,440719455e-01
       81950000    8,615273237e-02    2,444466501e-01
       82025000    9,053850919e-02    2,447737604e-01
       82100000    9,404109418e-02    2,451214790e-01
       82175000    9,813112020e-02    2,450172007e-01
       82250000    1,019974574e-01    2,457132936e-01
       82325000    1,059781313e-01    2,459418923e-01
       82400000    1,095178723e-01    2,459504455e-01
       82475000    1,145915687e-01    2,463198006e-01
       82550000    1,178778037e-01    2,466404140e-01
       82625000    1,225895435e-01    2,464511544e-01
       82700000    1,265295893e-01    2,468611300e-01
       82775000    1,309393942e-01    2,470549941e-01
       82850000    1,350801885e-01    2,471466660e-01
       82925000    1,400327533e-01    2,465727329e-01
       83000000    1,447360814e-01    2,464540154e-01
       83075000    1,484067887e-01    2,463810295e-01
       83150000    1,539991200e-01    2,452435791e-01
       83225000    1,587274075e-01    2,456938773e-01
       83300000    1,633400470e-01    2,446274310e-01
       83375000    1,683714539e-01    2,444604039e-01
       83450000    1,728996634e-01    2,434956133e-01
       83525000    1,782549620e-01    2,426800281e-01
       83600000    1,835332513e-01    2,414337397e-01
       83675000    1,875724345e-01    2,403461635e-01
       83750000    1,931684464e-01    2,390849292e-01
       83825000    1,982645541e-01    2,378595769e-01
       83900000    2,044868320e-01    2,372356206e-01
       83975000    2,085082978e-01    2,348466367e-01
       84050000    2,138684690e-01    2,327049375e-01
       84125000    2,190478146e-01    2,315298915e-01
       84200000    2,237502187e-01    2,288839221e-01
       84275000    2,290919870e-01    2,269193828e-01
       84350000    2,343400121e-01    2,248636633e-01
       84425000    2,390003502e-01    2,229812890e-01
       84500000    2,450686097e-01    2,201135308e-01
       84575000    2,493944615e-01    2,173982114e-01
       84650000    2,547690868e-01    2,155562341e-01
       84725000    2,598763108e-01    2,112780809e-01
       84800000    2,644510567e-01    2,082671523e-01
       84875000    2,693537474e-01    2,048414499e-01
       84950000    2,737995386e-01    2,014524788e-01
       85025000    2,786438763e-01    1,984466761e-01
       85100000    2,831152081e-01    1,943614483e-01
       85175000    2,875032425e-01    1,900185198e-01
       85250000    2,926138341e-01    1,867495328e-01
       85325000    2,968496680e-01    1,821488291e-01
       85400000    3,011491001e-01    1,784208119e-01
       85475000    3,053536117e-01    1,741898805e-01
       85550000    3,088343143e-01    1,692886800e-01
       85625000    3,123495579e-01    1,641448438e-01
       85700000    3,161985874e-01    1,607922912e-01
       85775000    3,195036650e-01    1,554139555e-01
       85850000    3,226585090e-01    1,512998790e-01
       85925000    3,257354796e-01    1,461368948e-01
       86000000    3,295691311e-01    1,416546255e-01
       86075000    3,325377703e-01    1,363662332e-01
       86150000    3,358312249e-01    1,321290135e-01
       86225000    3,386631906e-01    1,269203573e-01
       86300000    3,406900167e-01    1,219095364e-01
       86375000    3,427167535e-01    1,169413254e-01
       86450000    3,449254334e-01    1,112954915e-01
       86525000    3,472588062e-01    1,066376492e-01
       86600000    3,486477435e-01    1,006294191e-01
       86675000    3,500382602e-01    9,565229714e-02
       86750000    3,515842557e-01    9,006013721e-02
       86825000    3,530364037e-01    8,532588184e-02
       86900000    3,542701602e-01    7,968100905e-02
       86975000    3,558053076e-01    7,526075840e-02
       87050000    3,556723893e-01    7,063589245e-02
       87125000    3,563773632e-01    6,540533155e-02
       87200000    3,561431766e-01    6,094786525e-02
       87275000    3,571141660e-01    5,762163922e-02
       87350000    3,574493229e-01    5,146976188e-02
       87425000    3,573145568e-01    4,803752899e-02
       87500000    3,575324714e-01    4,382310063e-02
       87575000    3,566323519e-01    3,958423063e-02
       87650000    3,577020466e-01    3,606368974e-02
       87725000    3,565720618e-01    3,224159777e-02
       87800000    3,563445508e-01    2,822324261e-02
       87875000    3,559536338e-01    2,453907207e-02
       87950000    3,553849161e-01    2,130415291e-02
       88025000    3,557133973e-01    1,824136637e-02
       88100000    3,556127548e-01    1,502872072e-02
       88175000    3,551639318e-01    1,172123477e-02
       88250000    3,557362556e-01    9,042397141e-03
       88325000    3,551636338e-01    5,569661036e-03
       88400000    3,551189601e-01    3,242697800e-03
       88475000    3,554061055e-01   -3,268237342e-04
       88550000    3,545930386e-01   -2,368080895e-03
       88625000    3,550609648e-01   -5,908965599e-03
       88700000    3,552169204e-01   -9,661556222e-03
       88775000    3,552065194e-01   -1,266632602e-02
       88850000    3,545236290e-01   -1,618751325e-02
       88925000    3,541630805e-01   -1,874080859e-02
       89000000    3,535368443e-01   -2,241287753e-02
       89075000    3,530298471e-01   -2,513243072e-02
       89150000    3,527305126e-01   -2,877876163e-02
       89225000    3,515747488e-01   -3,140890226e-02
       89300000    3,511770964e-01   -3,428867087e-02
       89375000    3,488559127e-01   -3,631483018e-02
       89450000    3,484866321e-01   -3,926641867e-02
       89525000    3,458566666e-01   -4,181936756e-02
       89600000    3,448867202e-01   -4,311704636e-02
       89675000    3,436130285e-01   -4,618937150e-02
       89750000    3,414705396e-01   -4,845730588e-02
       89825000    3,388133645e-01   -4,929274321e-02
       89900000    3,379845619e-01   -5,077788606e-02
       89975000    3,357430995e-01   -5,074743554e-02
       90050000    3,347060978e-01   -5,214255303e-02
       90125000    3,326726258e-01   -5,173515528e-02
       90200000    3,311539590e-01   -5,115611479e-02
       90275000    3,301123679e-01   -5,147714913e-02
       90350000    3,296669424e-01   -5,035041273e-02
       90425000    3,296040297e-01   -4,915381595e-02
       90500000    3,274693489e-01   -4,929730669e-02
       90575000    3,270392716e-01   -4,731396586e-02
       90650000    3,288795054e-01   -4,636165500e-02
       90725000    3,280335367e-01   -4,517820105e-02
       90800000    3,290091157e-01   -4,330100119e-02
       90875000    3,315541446e-01   -4,173857719e-02
       90950000    3,322629333e-01   -4,032017291e-02
       91025000    3,345252872e-01   -3,906137869e-02
       91100000    3,367900550e-01   -3,747576103e-02
       91175000    3,398725390e-01   -3,631376103e-02
       91250000    3,425167501e-01   -3,529422730e-02
       91325000    3,461081684e-01   -3,442473337e-02
       91400000    3,489115238e-01   -3,451820090e-02
       91475000    3,527395427e-01   -3,333889693e-02
       91550000    3,561459482e-01   -3,551755846e-02
       91625000    3,610116243e-01   -3,367790580e-02
       91700000    3,646519184e-01   -3,494002670e-02
       91775000    3,694921732e-01   -3,472565114e-02
       91850000    3,746895194e-01   -3,652319312e-02
       91925000    3,778147697e-01   -3,743334115e-02
