! NanoVNA-App
! Date: 2025-08-09 12:52:52
! Start: 65MHz Stop: 95MHz Points: 401
! S-Parameter data: F S11
# Hz S RI R 50
!     Frequency           S11_Real           S11_Imag
       65000000   -4,113643467e-01   -8,032874465e-01
       65075000   -4,108241796e-01   -8,182674050e-01
       65150000   -4,136007428e-01   -8,133133650e-01
       65225000   -4,160977006e-01   -8,121030927e-01
       65300000   -4,180164039e-01   -8,143141270e-01
       65375000   -4,192056060e-01   -8,102951646e-01
       65450000   -4,199034572e-01   -8,101343513e-01
       65525000   -4,231553376e-01   -8,081200719e-01
       65600000   -4,244137108e-01   -8,044931293e-01
       65675000   -4,261586964e-01   -8,040090799e-01
       65750000   -4,283273220e-01   -8,006795049e-01
       65825000   -4,317225218e-01   -7,989864349e-01
       65900000   -4,345601797e-01   -7,987122536e-01
       65975000   -4,356704056e-01   -7,973273993e-01
       66050000   -4,381166697e-01   -7,952567339e-01
       66125000   -4,380474091e-01   -7,917829752e-01
       66200000   -4,398814142e-01   -7,924115062e-01
       66275000   -4,415806532e-01   -7,922163010e-01
       66350000   -4,449043870e-01   -7,874481678e-01
       66425000   -4,463256598e-01   -7,863953710e-01
       66500000   -4,497531950e-01   -7,854021788e-01
       66575000   -4,502904117e-01   -7,831369042e-01
       66650000   -4,536050260e-01   -7,829334140e-01
       66725000   -4,531987011e-01   -7,799591422e-01
       66800000   -4,544450045e-01   -7,783054113e-01
       66875000   -4,566277266e-01   -7,761445045e-01
       66950000   -4,582515657e-01   -7,747846246e-01
       67025000   -4,603092968e-01   -7,747179270e-01
       67100000   -4,631110728e-01   -7,704654932e-01
       67175000   -4,651845694e-01   -7,716248035e-01
       67250000   -4,664338827e-01   -7,706010938e-01
       67325000   -4,694989026e-01   -7,686619759e-01
       67400000   -4,708276987e-01   -7,665542364e-01
       67475000   -4,709559381e-01   -7,643609643e-01
       67550000   -4,750038981e-01   -7,598282695e-01
       67625000   -4,757480919e-01   -7,615458965e-01
       67700000   -4,789063334e-01   -7,581445575e-01
       67775000   -4,786152840e-01   -7,567939758e-01
       67850000   -4,813606441e-01   -7,544500232e-01
       67925000   -4,848450720e-01   -7,520353794e-01
       68000000   -4,847150147e-01   -7,517051101e-01
       68075000   -4,869744480e-01   -7,502658963e-01
       68150000   -4,874186814e-01   -7,492474914e-01
       68225000   -4,884933531e-01   -7,461310625e-01
       68300000   -4,916559756e-01   -7,420789003e-01
       68375000   -4,915899336e-01   -7,417339683e-01
       68450000   -4,962341189e-01   -7,407557368e-01
       68525000   -4,967266321e-01   -7,408452630e-01
       68600000   -5,001689792e-01   -7,379285097e-01
       68675000   -4,991927147e-01   -7,357548475e-01
       68750000   -5,019427538e-01   -7,354277968e-01
       68825000   -5,028408170e-01   -7,307754159e-01
       68900000   -5,040248036e-01   -7,299557328e-01
       68975000   -5,061125755e-01   -7,271544337e-01
       69050000   -5,068513751e-01   -7,248276472e-01
       69125000   -5,087416172e-01   -7,226768732e-01
       69200000   -5,102245808e-01   -7,210900784e-01
       69275000   -5,126568675e-01   -7,191396952e-01
       69350000   -5,130962133e-01   -7,184164524e-01
       69425000   -5,158399343e-01   -7,148445845e-01
       69500000   -5,165504217e-01   -7,138073444e-01
       69575000   -5,186089277e-01   -7,104293704e-01
       69650000   -5,199189782e-01   -7,101283669e-01
       69725000   -5,231742859e-01   -7,073212862e-01
       69800000   -5,233688354e-01   -7,061184049e-01
       69875000   -5,258489251e-01   -7,040540576e-01
       69950000   -5,245016217e-01   -7,040979266e-01
       70025000   -5,281666517e-01   -7,030873895e-01
       70100000   -5,279296637e-01   -7,010301352e-01
       70175000   -5,294740200e-01   -6,962745786e-01
       70250000   -5,323683619e-01   -6,958742142e-01
       70325000   -5,349922776e-01   -6,944934726e-01
       70400000   -5,349585414e-01   -6,924232841e-01
       70475000   -5,356698036e-01   -6,930176616e-01
       70550000   -5,368191600e-01   -6,874115467e-01
       70625000   -5,388319492e-01   -6,877306700e-01
       70700000   -5,396713018e-01   -6,883535981e-01
       70775000   -5,403274894e-01   -6,841812134e-01
       70850000   -5,420309305e-01   -6,840727925e-01
       70925000   -5,465081334e-01   -6,813075542e-01
       71000000   -5,460724831e-01   -6,795607209e-01
       71075000   -5,466865301e-01   -6,781730056e-01
       71150000   -5,499814153e-01   -6,745076776e-01
       71225000   -5,503019094e-01   -6,724378467e-01
       71300000   -5,503919125e-01   -6,710907221e-01
       71375000   -5,535236001e-01   -6,691909432e-01
       71450000   -5,529085398e-01   -6,702098846e-01
       71525000   -5,548963547e-01   -6,688612700e-01
       71600000   -5,555667281e-01   -6,652737856e-01
       71675000   -5,584881306e-01   -6,654428244e-01
       71750000   -5,589042902e-01   -6,639771461e-01
       71825000   -5,606570244e-01   -6,613115668e-01
       71900000   -5,608947873e-01   -6,594295502e-01
       71975000   -5,634788275e-01   -6,575306058e-01
       72050000   -5,642635226e-01   -6,545917988e-01
       72125000   -5,680543184e-01   -6,526165009e-01
       72200000   -5,682851076e-01   -6,522002816e-01
       72275000   -5,694943070e-01   -6,506914496e-01
       72350000   -5,692610741e-01   -6,502078772e-01
       72425000   -5,714669824e-01   -6,471823454e-01
       72500000   -5,721099973e-01   -6,483090520e-01
       72575000   -5,739681721e-01   -6,445699930e-01
       72650000   -5,761064887e-01   -6,389975548e-01
       72725000   -5,756226778e-01   -6,412416101e-01
       72800000   -5,779994726e-01   -6,404744387e-01
       72875000   -5,784388185e-01   -6,362442374e-01
       72950000   -5,789068937e-01   -6,399154067e-01
       73025000   -5,820129514e-01   -6,347942948e-01
       73100000   -5,852343440e-01   -6,317108870e-01
       73175000   -5,843955278e-01   -6,311342120e-01
       73250000   -5,858227611e-01   -6,275584698e-01
       73325000   -5,864246488e-01   -6,260001659e-01
       73400000   -5,882700682e-01   -6,223700643e-01
       73475000   -5,889053941e-01   -6,221231222e-01
       73550000   -5,937499404e-01   -6,191469431e-01
       73625000   -5,937072039e-01   -6,189133525e-01
       73700000   -5,951675773e-01   -6,186681986e-01
       73775000   -5,959954262e-01   -6,171125174e-01
       73850000   -5,971240401e-01   -6,163045168e-01
       73925000   -5,975158811e-01   -6,109452248e-01
       74000000   -5,986536741e-01   -6,099320650e-01
       74075000   -6,023806334e-01   -6,074080467e-01
       74150000   -6,019189358e-01   -6,070845723e-01
       74225000   -6,030924916e-01   -6,061288118e-01
       74300000   -6,054548621e-01   -6,045215726e-01
       74375000   -6,053683162e-01   -6,025847197e-01
       74450000   -6,083600521e-01   -5,996471643e-01
       74525000   -6,107959747e-01   -5,973027349e-01
       74600000   -6,107119918e-01   -5,963041782e-01
       74675000   -6,121639609e-01   -5,975648165e-01
       74750000   -6,123411655e-01   -5,938665867e-01
       74825000   -6,123650074e-01   -5,904492736e-01
       74900000   -6,145375371e-01   -5,870800018e-01
       74975000   -6,172654033e-01   -5,866823792e-01
       75050000   -6,201515794e-01   -5,856527090e-01
       75125000   -6,200014949e-01   -5,835063457e-01
       75200000   -6,223713160e-01   -5,826106071e-01
       75275000   -6,219490767e-01   -5,808292031e-01
       75350000   -6,244583130e-01   -5,789348483e-01
       75425000   -6,237187982e-01   -5,761274695e-01
       75500000   -6,245673299e-01   -5,746693611e-01
       75575000   -6,260803342e-01   -5,717231035e-01
       75650000   -6,274430752e-01   -5,706202388e-01
       75725000   -6,284138560e-01   -5,662971735e-01
       75800000   -6,299713254e-01   -5,669021010e-01
       75875000   -6,314470768e-01   -5,642969012e-01
       75950000   -6,322833300e-01   -5,621855259e-01
       76025000   -6,336570382e-01   -5,623535514e-01
       76100000   -6,345382929e-01   -5,592074394e-01
       76175000   -6,355471611e-01   -5,580524802e-01
       76250000   -6,365528107e-01   -5,539586544e-01
       76325000   -6,381401420e-01   -5,530828238e-01
       76400000   -6,400213838e-01   -5,495798588e-01
       76475000   -6,406113505e-01   -5,510903597e-01
       76550000   -6,434587240e-01   -5,481694341e-01
       76625000   -6,446285248e-01   -5,443068147e-01
       76700000   -6,455347538e-01   -5,444575548e-01
       76775000   -6,450963616e-01   -5,423711538e-01
       76850000   -6,489874125e-01   -5,399127007e-01
       76925000   -6,467433572e-01   -5,390160680e-01
       77000000   -6,487838626e-01   -5,371564627e-01
       77075000   -6,503256559e-01   -5,364882350e-01
       77150000   -6,534672976e-01   -5,344080925e-01
       77225000   -6,531206369e-01   -5,296466947e-01
       77300000   -6,546158791e-01   -5,293309093e-01
       77375000   -6,569343209e-01   -5,280929208e-01
       77450000   -6,559435129e-01   -5,271413922e-01
       77525000   -6,575688720e-01   -5,242659450e-01
       77600000   -6,592023969e-01   -5,234006047e-01
       77675000   -6,587819457e-01   -5,214805007e-01
       77750000   -6,594419479e-01   -5,194068551e-01
       77825000   -6,630709767e-01   -5,172747374e-01
       77900000   -6,613369584e-01   -5,140935779e-01
       77975000   -6,633244157e-01   -5,124904513e-01
       78050000   -6,666588783e-01   -5,117706656e-01
       78125000   -6,648768783e-01   -5,100274682e-01
       78200000   -6,675962210e-01   -5,081911087e-01
       78275000   -6,689735055e-01   -5,077333450e-01
       78350000   -6,693619490e-01   -5,030754805e-01
       78425000   -6,707966924e-01   -5,019557476e-01
       78500000   -6,726146936e-01   -5,013815761e-01
       78575000   -6,761353612e-01   -4,998885095e-01
       78650000   -6,768239737e-01   -4,988718331e-01
       78725000   -6,764786839e-01   -4,963894188e-01
       78800000   -6,793578267e-01   -4,927775264e-01
       78875000   -6,799537539e-01   -4,925226867e-01
       78950000   -6,830624342e-01   -4,906575680e-01
       79025000   -6,818986535e-01   -4,886815548e-01
       79100000   -6,846216321e-01   -4,876874089e-01
       79175000   -6,840575337e-01   -4,819147587e-01
       79250000   -6,850740314e-01   -4,815118611e-01
       79325000   -6,879971623e-01   -4,791679978e-01
       79400000   -6,894756556e-01   -4,790166318e-01
       79475000   -6,901376247e-01   -4,777106345e-01
       79550000   -6,900989413e-01   -4,723649919e-01
       79625000   -6,914221048e-01   -4,718532264e-01
       79700000   -6,952583194e-01   -4,699717164e-01
       79775000   -6,940243840e-01   -4,688728154e-01
       79850000   -6,950612068e-01   -4,659080207e-01
       79925000   -6,986858845e-01   -4,647480845e-01
       80000000   -6,995650530e-01   -4,626834095e-01
       80075000   -6,998851895e-01   -4,604667425e-01
       80150000   -7,029631734e-01   -4,583527744e-01
       80225000   -7,017845511e-01   -4,552060366e-01
       80300000   -7,037594318e-01   -4,546708763e-01
       80375000   -7,049222589e-01   -4,500750005e-01
       80450000   -7,070811987e-01   -4,504136741e-01
       80525000   -7,095255256e-01   -4,478881061e-01
       80600000   -7,099086642e-01   -4,457289875e-01
       80675000   -7,108371258e-01   -4,439394176e-01
       80750000   -7,111009955e-01   -4,400015175e-01
       80825000   -7,135357261e-01   -4,393567443e-01
       80900000   -7,155706286e-01   -4,350126684e-01
       80975000   -7,153428793e-01   -4,334577918e-01
       81050000   -7,174757719e-01   -4,314194620e-01
       81125000   -7,193318605e-01   -4,276721776e-01
       81200000   -7,206110954e-01   -4,268517792e-01
       81275000   -7,217879891e-01   -4,232503176e-01
       81350000   -7,226890922e-01   -4,231439829e-01
       81425000   -7,239632607e-01   -4,206485748e-01
       81500000   -7,237008810e-01   -4,166617393e-01
       81575000   -7,265712619e-01   -4,158934057e-01
       81650000   -7,286725640e-01   -4,132476151e-01
       81725000   -7,289862037e-01   -4,086744189e-01
       81800000   -7,294504642e-01   -4,072619379e-01
       81875000   -7,318807840e-01   -4,060194194e-01
       81950000   -7,316657901e-01   -4,026579261e-01
       82025000   -7,341051698e-01   -4,020082355e-01
       82100000   -7,336806655e-01   -3,984069228e-01
       82175000   -7,359644771e-01   -3,972024620e-01
       82250000   -7,357506156e-01   -3,934397697e-01
       82325000   -7,377986312e-01   -3,898258507e-01
       82400000   -7,396912575e-01   -3,867938221e-01
       82475000   -7,407685518e-01   -3,868364990e-01
       82550000   -7,424166203e-01   -3,844061494e-01
       82625000   -7,433943748e-01   -3,814862072e-01
       82700000   -7,441403866e-01   -3,783826828e-01
       82775000   -7,443192601e-01   -3,761892617e-01
       82850000   -7,466136813e-01   -3,732905984e-01
       82925000   -7,473205328e-01   -3,720161021e-01
       83000000   -7,486044765e-01   -3,678399026e-01
       83075000   -7,489326000e-01   -3,654159904e-01
       83150000   -7,509316802e-01   -3,624700308e-01
       83225000   -7,509300113e-01   -3,596329391e-01
       83300000   -7,529721856e-01   -3,569866419e-01
       83375000   -7,524049878e-01   -3,535912037e-01
       83450000   -7,549160719e-01   -3,523466587e-01
       83525000   -7,568228245e-01   -3,486476839e-01
       83600000   -7,562485337e-01   -3,459604084e-01
       83675000   -7,574327588e-01   -3,426554799e-01
       83750000   -7,575991750e-01   -3,392027915e-01
       83825000   -7,594303489e-01   -3,366717100e-01
       83900000   -7,615453601e-01   -3,344027400e-01
       83975000   -7,605623603e-01   -3,321752548e-01
       84050000   -7,630221844e-01   -3,286087513e-01
       84125000   -7,613511682e-01   -3,249830902e-01
       84200000   -7,635294795e-01   -3,218632638e-01
       84275000   -7,653734684e-01   -3,202719688e-01
       84350000   -7,647889853e-01   -3,175719082e-01
       84425000   -7,669144869e-01   -3,139027953e-01
       84500000   -7,659599781e-01   -3,105155230e-01
       84575000   -7,677213550e-01   -3,074150681e-01
       84650000   -7,686404586e-01   -3,053145409e-01
       84725000   -7,674724460e-01   -3,015854359e-01
       84800000   -7,704979181e-01   -2,989265621e-01
       84875000   -7,691546679e-01   -2,947331667e-01
       84950000   -7,711086273e-01   -2,924909890e-01
       85025000   -7,706303000e-01   -2,886000276e-01
       85100000   -7,725750208e-01   -2,859350741e-01
       85175000   -7,719450593e-01   -2,833341360e-01
       85250000   -7,734087706e-01   -2,800731361e-01
       85325000   -7,723076344e-01   -2,756533623e-01
       85400000   -7,727744579e-01   -2,725279033e-01
       85475000   -7,740219235e-01   -2,700891495e-01
       85550000   -7,744018435e-01   -2,675628662e-01
       85625000   -7,732044458e-01   -2,646251321e-01
       85700000   -7,750437260e-01   -2,605103254e-01
       85775000   -7,751181722e-01   -2,570521235e-01
       85850000   -7,744435668e-01   -2,547577024e-01
       85925000   -7,756085396e-01   -2,535368800e-01
       86000000   -7,759423852e-01   -2,488375455e-01
       86075000   -7,746879458e-01   -2,452552021e-01
       86150000   -7,758641839e-01   -2,433083802e-01
       86225000   -7,762936354e-01   -2,392955273e-01
       86300000   -7,762812972e-01   -2,364533246e-01
       86375000   -7,761198878e-01   -2,321379185e-01
       86450000   -7,754638791e-01   -2,307573110e-01
       86525000   -7,750942111e-01   -2,268498391e-01
       86600000   -7,754633427e-01   -2,220049798e-01
       86675000   -7,745057940e-01   -2,213675380e-01
       86750000   -7,747111917e-01   -2,178848833e-01
       86825000   -7,745499015e-01   -2,136662304e-01
       86900000   -7,728418112e-01   -2,109276354e-01
       86975000   -7,738507986e-01   -2,094147503e-01
       87050000   -7,735121250e-01   -2,061953247e-01
       87125000   -7,730315328e-01   -2,032480240e-01
       87200000   -7,717340589e-01   -2,001622468e-01
       87275000   -7,722404003e-01   -1,977651417e-01
       87350000   -7,720369697e-01   -1,952240169e-01
       87425000   -7,702512145e-01   -1,924735755e-01
       87500000   -7,711902857e-01   -1,905670911e-01
       87575000   -7,696368098e-01   -1,865662932e-01
       87650000   -7,706390023e-01   -1,843043417e-01
       87725000   -7,696121335e-01   -1,806364954e-01
       87800000   -7,690269351e-01   -1,796332002e-01
       87875000   -7,685062289e-01   -1,758469194e-01
       87950000   -7,670431137e-01   -1,727561653e-01
       88025000   -7,662772536e-01   -1,710662246e-01
       88100000   -7,676253319e-01   -1,688441634e-01
       88175000   -7,661789060e-01   -1,649369895e-01
       88250000   -7,645410299e-01   -1,629718989e-01
       88325000   -7,653716207e-01   -1,606369317e-01
       88400000   -7,637390494e-01   -1,572388858e-01
       88475000   -7,640568018e-01   -1,564819515e-01
       88550000   -7,626361251e-01   -1,520645320e-01
       88625000   -7,619118094e-01   -1,509395689e-01
       88700000   -7,620176673e-01   -1,487315744e-01
       88775000   -7,611635327e-01   -1,456406862e-01
       88850000   -7,604894638e-01   -1,434100866e-01
       88925000   -7,583273053e-01   -1,413079798e-01
       89000000   -7,583012581e-01   -1,382200718e-01
       89075000   -7,572749853e-01   -1,359550953e-01
       89150000   -7,570132017e-01   -1,347906739e-01
       89225000   -7,555365562e-01   -1,315257400e-01
       89300000   -7,552475929e-01   -1,309795976e-01
       89375000   -7,539532781e-01   -1,284513772e-01
       89450000   -7,533130050e-01   -1,266553551e-01
       89525000   -7,523057461e-01   -1,250131130e-01
       89600000   -7,505214214e-01   -1,228615567e-01
       89675000   -7,500970960e-01   -1,226223782e-01
       89750000   -7,504574060e-01   -1,203983128e-01
       89825000   -7,486510873e-01   -1,190128028e-01
       89900000   -7,485828400e-01   -1,189750209e-01
       89975000   -7,476621270e-01   -1,167555973e-01
       90050000   -7,470683455e-01   -1,162962541e-01
       90125000   -7,480989099e-01   -1,149764135e-01
       90200000   -7,458325624e-01   -1,129908338e-01
       90275000   -7,464344501e-01   -1,135075688e-01
       90350000   -7,476098537e-01   -1,125514209e-01
       90425000   -7,463355660e-01   -1,106012017e-01
       90500000   -7,480839491e-01   -1,095431224e-01
       90575000   -7,483988404e-01   -1,089309976e-01
       90650000   -7,485545874e-01   -1,080111191e-01
       90725000   -7,497163415e-01   -1,076875478e-01
       90800000   -7,510659695e-01   -1,051902547e-01
       90875000   -7,510013580e-01   -1,046481282e-01
       90950000   -7,526800632e-01   -1,028086841e-01
       91025000   -7,523907423e-01   -1,017189026e-01
       91100000   -7,548971772e-01   -9,978853166e-02
       91175000   -7,553464770e-01   -9,830794483e-02
       91250000   -7,577914596e-01   -9,561277181e-02
       91325000   -7,578783631e-01   -9,413169324e-02
       91400000   -7,601233125e-01   -9,155765176e-02
       91475000   -7,613736987e-01   -8,962542564e-02
       91550000   -7,624719739e-01   -8,860917389e-02
       91625000   -7,633597851e-01   -8,457980305e-02
       91700000   -7,649320364e-01   -8,330883086e-02
       91775000   -7,654395103e-01   -7,938443869e-02
       91850000   -7,674794197e-01   -7,766351849e-02
       91925000   -7,689914703e-01   -7,438071072e-02
