! NanoVNA-App
! Date: 2025-08-09 13:14:38
! Start: 65MHz Stop: 95MHz Points: 401
! S-Parameter data: F S11
# Hz S RI R 50
!     Frequency           S11_Real           S11_Imag
       65000000   -3,404731750e-01    2,627507746e-01
       65075000   -3,415216208e-01    2,629413903e-01
       65150000   -3,386491239e-01    2,609344721e-01
       65225000   -3,326992691e-01    2,614727616e-01
       65300000   -3,266286254e-01    2,617120147e-01
       65375000   -3,231115043e-01    2,621985674e-01
       65450000   -3,177508116e-01    2,617141604e-01
       65525000   -3,123672903e-01    2,615926266e-01
       65600000   -3,076484203e-01    2,608339190e-01
       65675000   -3,036288023e-01    2,604821622e-01
       65750000   -2,988336086e-01    2,600854635e-01
       65825000   -2,933467329e-01    2,591880858e-01
       65900000   -2,883919477e-01    2,578675449e-01
       65975000   -2,835828364e-01    2,573395669e-01
       66050000   -2,786161602e-01    2,571941018e-01
       66125000   -2,756119370e-01    2,569149137e-01
       66200000   -2,709148824e-01    2,557123899e-01
       66275000   -2,664740980e-01    2,571751773e-01
       66350000   -2,616364956e-01    2,549969554e-01
       66425000   -2,557740808e-01    2,548459470e-01
       66500000   -2,516989410e-01    2,537709773e-01
       66575000   -2,475889772e-01    2,538900673e-01
       66650000   -2,424682081e-01    2,530857027e-01
       66725000   -2,403811663e-01    2,521905899e-01
       66800000   -2,357679605e-01    2,521516979e-01
       66875000   -2,317487150e-01    2,508940697e-01
       66950000   -2,278259099e-01    2,502196729e-01
       67025000   -2,235744148e-01    2,505177259e-01
       67100000   -2,182251215e-01    2,499038130e-01
       67175000   -2,145376652e-01    2,501601577e-01
       67250000   -2,100188732e-01    2,499485910e-01
       67325000   -2,046692818e-01    2,490013093e-01
       67400000   -2,011998445e-01    2,481174171e-01
       67475000   -1,971331388e-01    2,466094941e-01
       67550000   -1,911373287e-01    2,459328324e-01
       67625000   -1,878510416e-01    2,456239313e-01
       67700000   -1,838313639e-01    2,445795536e-01
       67775000   -1,789179742e-01    2,428054810e-01
       67850000   -1,750464141e-01    2,421370745e-01
       67925000   -1,699989289e-01    2,421175987e-01
       68000000   -1,664753407e-01    2,405159175e-01
       68075000   -1,624962240e-01    2,392841876e-01
       68150000   -1,582934409e-01    2,387678027e-01
       68225000   -1,536829174e-01    2,362115383e-01
       68300000   -1,485613436e-01    2,345638424e-01
       68375000   -1,447236389e-01    2,337419540e-01
       68450000   -1,403744072e-01    2,328642309e-01
       68525000   -1,362500638e-01    2,303722352e-01
       68600000   -1,324073672e-01    2,293578237e-01
       68675000   -1,293469369e-01    2,260372043e-01
       68750000   -1,254328638e-01    2,244637758e-01
       68825000   -1,193800420e-01    2,216853052e-01
       68900000   -1,167654619e-01    2,204224169e-01
       68975000   -1,130023897e-01    2,171564102e-01
       69050000   -1,092441753e-01    2,145083100e-01
       69125000   -1,057856157e-01    2,130317241e-01
       69200000   -1,024526879e-01    2,101406008e-01
       69275000   -9,877120703e-02    2,069738805e-01
       69350000   -9,591703117e-02    2,050949633e-01
       69425000   -9,231816977e-02    2,024005651e-01
       69500000   -8,987234533e-02    1,993848383e-01
       69575000   -8,673050255e-02    1,975144893e-01
       69650000   -8,473170549e-02    1,943052262e-01
       69725000   -8,197067678e-02    1,920301765e-01
       69800000   -8,026060462e-02    1,893349290e-01
       69875000   -7,738361508e-02    1,878108978e-01
       69950000   -7,617105544e-02    1,829065979e-01
       70025000   -7,394790649e-02    1,813560426e-01
       70100000   -7,229670137e-02    1,776989996e-01
       70175000   -6,965653598e-02    1,755900830e-01
       70250000   -6,837130338e-02    1,735078692e-01
       70325000   -6,713061780e-02    1,708595604e-01
       70400000   -6,611452252e-02    1,681423485e-01
       70475000   -6,462147087e-02    1,655805111e-01
       70550000   -6,266529858e-02    1,626987606e-01
       70625000   -6,262777001e-02    1,611296833e-01
       70700000   -6,125109643e-02    1,588611156e-01
       70775000   -6,058857590e-02    1,569384485e-01
       70850000   -5,932548642e-02    1,551890373e-01
       70925000   -5,891666189e-02    1,535833776e-01
       71000000   -5,886814371e-02    1,521255374e-01
       71075000   -5,739917234e-02    1,507624835e-01
       71150000   -5,619477853e-02    1,490812451e-01
       71225000   -5,509085953e-02    1,478921622e-01
       71300000   -5,370688438e-02    1,461370438e-01
       71375000   -5,379649997e-02    1,455038637e-01
       71450000   -5,279796571e-02    1,434495151e-01
       71525000   -5,162122846e-02    1,424536258e-01
       71600000   -5,116159841e-02    1,414372623e-01
       71675000   -5,036632344e-02    1,405420154e-01
       71750000   -4,931624979e-02    1,389905661e-01
       71825000   -4,823908582e-02    1,385675520e-01
       71900000   -4,678108171e-02    1,366131604e-01
       71975000   -4,603771865e-02    1,358120143e-01
       72050000   -4,498155788e-02    1,356649101e-01
       72125000   -4,423101619e-02    1,343068331e-01
       72200000   -4,358492792e-02    1,329215020e-01
       72275000   -4,214519262e-02    1,327056438e-01
       72350000   -4,227390885e-02    1,305859089e-01
       72425000   -4,031675681e-02    1,298555583e-01
       72500000   -4,011115432e-02    1,292271167e-01
       72575000   -3,899359331e-02    1,287082881e-01
       72650000   -3,803217039e-02    1,283119023e-01
       72725000   -3,688443080e-02    1,265813261e-01
       72800000   -3,631711379e-02    1,264884919e-01
       72875000   -3,567287698e-02    1,253842711e-01
       72950000   -3,488297760e-02    1,246716380e-01
       73025000   -3,421166167e-02    1,242868900e-01
       73100000   -3,365170956e-02    1,240820661e-01
       73175000   -3,194854036e-02    1,225527003e-01
       73250000   -3,185102344e-02    1,219443902e-01
       73325000   -3,070357628e-02    1,216148511e-01
       73400000   -2,907559648e-02    1,212641373e-01
       73475000   -2,869083546e-02    1,210399643e-01
       73550000   -2,807217091e-02    1,207768843e-01
       73625000   -2,719580755e-02    1,199516580e-01
       73700000   -2,601495758e-02    1,198872253e-01
       73775000   -2,607125416e-02    1,189680323e-01
       73850000   -2,393897623e-02    1,187071577e-01
       73925000   -2,257586457e-02    1,187458634e-01
       74000000   -2,239014953e-02    1,182113141e-01
       74075000   -2,060490660e-02    1,180205569e-01
       74150000   -1,958923228e-02    1,174059510e-01
       74225000   -1,952577755e-02    1,169738546e-01
       74300000   -1,754094288e-02    1,164254174e-01
       74375000   -1,579244994e-02    1,156109795e-01
       74450000   -1,587988064e-02    1,157401279e-01
       74525000   -1,465472765e-02    1,151769534e-01
       74600000   -1,297745854e-02    1,147428751e-01
       74675000   -1,252466440e-02    1,146403700e-01
       74750000   -1,109634992e-02    1,136664301e-01
       74825000   -1,033126377e-02    1,131895706e-01
       74900000   -8,309673518e-03    1,127894372e-01
       74975000   -8,161018603e-03    1,121306643e-01
       75050000   -6,838451605e-03    1,127050668e-01
       75125000   -6,010003388e-03    1,117665097e-01
       75200000   -5,058413371e-03    1,111058146e-01
       75275000   -3,792139469e-03    1,101136133e-01
       75350000   -2,985527040e-03    1,100530103e-01
       75425000   -1,420641900e-03    1,091205478e-01
       75500000   -5,759972846e-04    1,083154082e-01
       75575000    5,849689478e-04    1,086884886e-01
       75650000    7,664199802e-04    1,077272445e-01
       75725000    1,953320578e-03    1,076162010e-01
       75800000    3,118547844e-03    1,066972613e-01
       75875000    3,719715402e-03    1,066145673e-01
       75950000    4,369787872e-03    1,061395109e-01
       76025000    5,682804156e-03    1,057676598e-01
       76100000    6,989194080e-03    1,057032123e-01
       76175000    6,291780621e-03    1,046715006e-01
       76250000    7,637033239e-03    1,046002060e-01
       76325000    8,731453680e-03    1,042000577e-01
       76400000    8,785658516e-03    1,035678014e-01
       76475000    1,055507269e-02    1,030595526e-01
       76550000    1,097388472e-02    1,032357886e-01
       76625000    1,134689897e-02    1,031617075e-01
       76700000    1,175603643e-02    1,019548923e-01
       76775000    1,292539667e-02    1,019439697e-01
       76850000    1,321860123e-02    1,021090299e-01
       76925000    1,426587999e-02    1,014880687e-01
       77000000    1,489712950e-02    1,013143361e-01
       77075000    1,487774681e-02    1,013172194e-01
       77150000    1,458039414e-02    1,003526226e-01
       77225000    1,602805406e-02    1,006958410e-01
       77300000    1,623582095e-02    1,001228020e-01
       77375000    1,582278870e-02    1,006905064e-01
       77450000    1,677686349e-02    9,996107966e-02
       77525000    1,727932878e-02    1,006234139e-01
       77600000    1,680045389e-02    1,007795781e-01
       77675000    1,741485670e-02    1,000640318e-01
       77750000    1,715749502e-02    1,012554839e-01
       77825000    1,682300307e-02    1,011441350e-01
       77900000    1,656209864e-02    1,019772142e-01
       77975000    1,618186571e-02    1,020416468e-01
       78050000    1,655244082e-02    1,033975333e-01
       78125000    1,579700597e-02    1,048764735e-01
       78200000    1,551290974e-02    1,063099727e-01
       78275000    1,583659276e-02    1,086755991e-01
       78350000    1,579974592e-02    1,109793112e-01
       78425000    1,728772931e-02    1,135750413e-01
       78500000    1,864866354e-02    1,157305241e-01
       78575000    2,053165808e-02    1,179804057e-01
       78650000    2,289962582e-02    1,187219992e-01
       78725000    2,489804290e-02    1,199114546e-01
       78800000    2,644566819e-02    1,212711707e-01
       78875000    2,779496089e-02    1,216095462e-01
       78950000    2,984102629e-02    1,230986193e-01
       79025000    3,181224316e-02    1,242857575e-01
       79100000    3,253953531e-02    1,255501807e-01
       79175000    3,443850204e-02    1,273206472e-01
       79250000    3,585686162e-02    1,283070147e-01
       79325000    3,735340759e-02    1,291570514e-01
       79400000    3,983246908e-02    1,304832995e-01
       79475000    4,187336564e-02    1,325041056e-01
       79550000    4,336963966e-02    1,337718368e-01
       79625000    4,538740218e-02    1,342357695e-01
       79700000    4,716374353e-02    1,363621056e-01
       79775000    4,988950491e-02    1,367152333e-01
       79850000    5,126593634e-02    1,391977668e-01
       79925000    5,372836813e-02    1,402531266e-01
       80000000    5,560692772e-02    1,416205764e-01
       80075000    5,857423320e-02    1,431421638e-01
       80150000    6,083780155e-02    1,444673538e-01
       80225000    6,385123730e-02    1,470034719e-01
       80300000    6,602571905e-02    1,477243900e-01
       80375000    6,911495328e-02    1,494614035e-01
       80450000    7,238794863e-02    1,501267552e-01
       80525000    7,494686544e-02    1,517102718e-01
       80600000    7,901304960e-02    1,537908316e-01
       80675000    8,083381504e-02    1,549576968e-01
       80750000    8,459588885e-02    1,565113664e-01
       80825000    8,776676655e-02    1,571897119e-01
       80900000    9,085987508e-02    1,584462970e-01
       80975000    9,487717599e-02    1,598964781e-01
       81050000    9,790907800e-02    1,594908684e-01
       81125000    1,012798026e-01    1,607052088e-01
       81200000    1,055828854e-01    1,614806801e-01
       81275000    1,092955098e-01    1,628902704e-01
       81350000    1,132792234e-01    1,630626917e-01
       81425000    1,168402582e-01    1,634072810e-01
       81500000    1,210710481e-01    1,642815918e-01
       81575000    1,244333237e-01    1,639640778e-01
       81650000    1,281820685e-01    1,648718864e-01
       81725000    1,321783066e-01    1,651948541e-01
       81800000    1,368166804e-01    1,653114855e-01
       81875000    1,408562660e-01    1,659028381e-01
       81950000    1,450936794e-01    1,662525833e-01
       82025000    1,490515471e-01    1,657321006e-01
       82100000    1,531761140e-01    1,663758457e-01
       82175000    1,573502272e-01    1,654013246e-01
       82250000    1,616810560e-01    1,655327678e-01
       82325000    1,660551429e-01    1,649890989e-01
       82400000    1,706378758e-01    1,645719409e-01
       82475000    1,749256551e-01    1,646562219e-01
       82550000    1,795766056e-01    1,643865854e-01
       82625000    1,838989705e-01    1,634974927e-01
       82700000    1,879792362e-01    1,618257165e-01
       82775000    1,929517835e-01    1,618722826e-01
       82850000    1,974744648e-01    1,604547352e-01
       82925000    2,020296007e-01    1,595920324e-01
       83000000    2,063844204e-01    1,584994793e-01
       83075000    2,119986564e-01    1,576728821e-01
       83150000    2,157144248e-01    1,557085961e-01
       83225000    2,205562145e-01    1,542818844e-01
       83300000    2,252033651e-01    1,524653882e-01
       83375000    2,295691371e-01    1,516267657e-01
       83450000    2,355584055e-01    1,493431032e-01
       83525000    2,393848002e-01    1,475577950e-01
       83600000    2,440547496e-01    1,454318911e-01
       83675000    2,489144206e-01    1,429598778e-01
       83750000    2,536407709e-01    1,412158012e-01
       83825000    2,581946850e-01    1,384232789e-01
       83900000    2,628163993e-01    1,361103803e-01
       83975000    2,674015760e-01    1,331965476e-01
       84050000    2,711668611e-01    1,300075799e-01
       84125000    2,759651244e-01    1,284092218e-01
       84200000    2,799921632e-01    1,248660684e-01
       84275000    2,838531733e-01    1,216473952e-01
       84350000    2,883757353e-01    1,191958040e-01
       84425000    2,922422290e-01    1,161333546e-01
       84500000    2,968831956e-01    1,127932072e-01
       84575000    3,009756505e-01    1,095955372e-01
       84650000    3,056527674e-01    1,052128971e-01
       84725000    3,094726801e-01    1,025471911e-01
       84800000    3,142601252e-01    9,817820042e-02
       84875000    3,176458776e-01    9,447432309e-02
       84950000    3,216591477e-01    9,031146020e-02
       85025000    3,258187473e-01    8,631683141e-02
       85100000    3,296158612e-01    8,180921525e-02
       85175000    3,329333663e-01    7,802682370e-02
       85250000    3,357906342e-01    7,308486849e-02
       85325000    3,390883803e-01    6,898634881e-02
       85400000    3,420694172e-01    6,430751085e-02
       85475000    3,443091214e-01    5,981149897e-02
       85550000    3,483580053e-01    5,497948080e-02
       85625000    3,508790731e-01    5,030607432e-02
       85700000    3,538257480e-01    4,541626200e-02
       85775000    3,558189869e-01    4,026103020e-02
       85850000    3,584429324e-01    3,650220111e-02
       85925000    3,612912297e-01    3,025789745e-02
       86000000    3,627690971e-01    2,484575473e-02
       86075000    3,654127121e-01    2,116511390e-02
       86150000    3,670110106e-01    1,502534933e-02
       86225000    3,682296872e-01    9,588420391e-03
       86300000    3,699696958e-01    4,957629833e-03
       86375000    3,711545467e-01    2,556762483e-04
       86450000    3,729568720e-01   -5,334937945e-03
       86525000    3,736915588e-01   -1,005431451e-02
       86600000    3,743170500e-01   -1,550886501e-02
       86675000    3,750745356e-01   -1,966810785e-02
       86750000    3,753044903e-01   -2,526136488e-02
       86825000    3,760094345e-01   -3,010639921e-02
       86900000    3,765345514e-01   -3,458347172e-02
       86975000    3,771564960e-01   -3,937003389e-02
       87050000    3,776579499e-01   -4,411260411e-02
       87125000    3,773630857e-01   -4,901148006e-02
       87200000    3,773806095e-01   -5,271022394e-02
       87275000    3,775396347e-01   -5,763586983e-02
       87350000    3,770207465e-01   -6,291910261e-02
       87425000    3,765032589e-01   -6,619204581e-02
       87500000    3,758148551e-01   -7,098399103e-02
       87575000    3,749416769e-01   -7,431801409e-02
       87650000    3,757336438e-01   -7,915863395e-02
       87725000    3,747843206e-01   -8,278901130e-02
       87800000    3,752370477e-01   -8,624202758e-02
       87875000    3,738962114e-01   -9,018468112e-02
       87950000    3,734463155e-01   -9,389787167e-02
       88025000    3,733421862e-01   -9,788952768e-02
       88100000    3,726949990e-01   -1,015606523e-01
       88175000    3,711240590e-01   -1,053858772e-01
       88250000    3,714534044e-01   -1,093642712e-01
       88325000    3,702159226e-01   -1,124394685e-01
       88400000    3,691852093e-01   -1,157883108e-01
       88475000    3,693941832e-01   -1,204486117e-01
       88550000    3,662557304e-01   -1,229276061e-01
       88625000    3,661339879e-01   -1,267717779e-01
       88700000    3,658625782e-01   -1,304380596e-01
       88775000    3,643568456e-01   -1,342219263e-01
       88850000    3,616803586e-01   -1,376670599e-01
       88925000    3,607825041e-01   -1,401905417e-01
       89000000    3,591722846e-01   -1,445982605e-01
       89075000    3,571263254e-01   -1,466271430e-01
       89150000    3,556826711e-01   -1,501723528e-01
       89225000    3,531322777e-01   -1,525700837e-01
       89300000    3,522003293e-01   -1,546346992e-01
       89375000    3,486762941e-01   -1,574677825e-01
       89450000    3,466808200e-01   -1,594059169e-01
       89525000    3,440385461e-01   -1,622415334e-01
       89600000    3,409065306e-01   -1,634320170e-01
       89675000    3,387652934e-01   -1,647530645e-01
       89750000    3,367366493e-01   -1,664590687e-01
       89825000    3,333064318e-01   -1,677615941e-01
       89900000    3,310238123e-01   -1,664981842e-01
       89975000    3,290592432e-01   -1,682004333e-01
       90050000    3,277997971e-01   -1,670393944e-01
       90125000    3,255963326e-01   -1,670170277e-01
       90200000    3,239021897e-01   -1,671250015e-01
       90275000    3,222442567e-01   -1,663712859e-01
       90350000    3,218765259e-01   -1,656971127e-01
       90425000    3,198911548e-01   -1,637095660e-01
       90500000    3,202574849e-01   -1,630846709e-01
       90575000    3,200138509e-01   -1,620474309e-01
       90650000    3,188338578e-01   -1,598341316e-01
       90725000    3,198185265e-01   -1,592590809e-01
       90800000    3,212672770e-01   -1,585905403e-01
       90875000    3,217114508e-01   -1,565828323e-01
       90950000    3,239983916e-01   -1,557365507e-01
       91025000    3,252235651e-01   -1,535723060e-01
       91100000    3,274574280e-01   -1,532590389e-01
       91175000    3,292173743e-01   -1,521027833e-01
       91250000    3,321776092e-01   -1,516193897e-01
       91325000    3,338828683e-01   -1,504425257e-01
       91400000    3,372612894e-01   -1,501827389e-01
       91475000    3,396531940e-01   -1,508443803e-01
       91550000    3,440564871e-01   -1,497493684e-01
       91625000    3,470646441e-01   -1,516263634e-01
       91700000    3,500002325e-01   -1,517854035e-01
       91775000    3,550334275e-01   -1,533436626e-01
       91850000    3,576605022e-01   -1,528419703e-01
       91925000    3,626337051e-01   -1,558995098e-01
