! NanoVNA-App
! Date: 2025-08-02 15:45:54
! Start: 65MHz Stop: 95MHz Points: 401
! S-Parameter data: F S11
# Hz S RI R 50
!     Frequency           S11_Real           S11_Imag
       65000000   -5,844635367e-01   -5,064391717e-02
       65075000   -5,815874338e-01   -4,705673456e-02
       65150000   -5,770707130e-01   -4,114999995e-02
       65225000   -5,730721354e-01   -3,742776066e-02
       65300000   -5,670340061e-01   -3,271447122e-02
       65375000   -5,649387836e-01   -2,773291059e-02
       65450000   -5,589002371e-01   -2,389921993e-02
       65525000   -5,540999770e-01   -1,991724595e-02
       65600000   -5,496603251e-01   -1,515532937e-02
       65675000   -5,444216132e-01   -1,282817870e-02
       65750000   -5,390127301e-01   -8,606374264e-03
       65825000   -5,329579711e-01   -6,028657313e-03
       65900000   -5,286859274e-01   -2,827969845e-03
       65975000   -5,233846307e-01   -1,730211079e-04
       66050000   -5,191545486e-01    2,739187330e-03
       66125000   -5,140393972e-01    4,918837454e-03
       66200000   -5,100756288e-01    6,893531885e-03
       66275000   -5,050073266e-01    1,108512282e-02
       66350000   -4,992782772e-01    1,195676997e-02
       66425000   -4,952852428e-01    1,433180552e-02
       66500000   -4,898279607e-01    1,617890596e-02
       66575000   -4,867534935e-01    1,928542554e-02
       66650000   -4,810118973e-01    2,066326141e-02
       66725000   -4,781126380e-01    2,300891094e-02
       66800000   -4,730119705e-01    2,570830844e-02
       66875000   -4,688279629e-01    2,675195597e-02
       66950000   -4,640486538e-01    2,961986512e-02
       67025000   -4,589367509e-01    3,077849001e-02
       67100000   -4,548474550e-01    3,323569149e-02
       67175000   -4,492166042e-01    3,517644480e-02
       67250000   -4,450512528e-01    3,769809753e-02
       67325000   -4,392863214e-01    3,896315023e-02
       67400000   -4,359582961e-01    4,059822485e-02
       67475000   -4,294864237e-01    4,285211489e-02
       67550000   -4,242449105e-01    4,295395687e-02
       67625000   -4,201672673e-01    4,454727471e-02
       67700000   -4,129528701e-01    4,580628127e-02
       67775000   -4,090467095e-01    4,479880258e-02
       67850000   -4,041630328e-01    4,609515518e-02
       67925000   -3,978005350e-01    4,599158466e-02
       68000000   -3,940850496e-01    4,698130116e-02
       68075000   -3,883563280e-01    4,639437422e-02
       68150000   -3,846678734e-01    4,663850367e-02
       68225000   -3,799115717e-01    4,711358994e-02
       68300000   -3,760265708e-01    4,642393440e-02
       68375000   -3,710073531e-01    4,693343490e-02
       68450000   -3,654243648e-01    4,527942836e-02
       68525000   -3,618462682e-01    4,543162510e-02
       68600000   -3,567708135e-01    4,403984919e-02
       68675000   -3,537927270e-01    4,324638844e-02
       68750000   -3,482230604e-01    4,205169156e-02
       68825000   -3,443854153e-01    4,071283713e-02
       68900000   -3,393537402e-01    4,012820497e-02
       68975000   -3,376422524e-01    3,880451620e-02
       69050000   -3,332426846e-01    3,673295304e-02
       69125000   -3,301370740e-01    3,533394635e-02
       69200000   -3,267537653e-01    3,356399387e-02
       69275000   -3,250125945e-01    3,172352538e-02
       69350000   -3,209435940e-01    3,050103225e-02
       69425000   -3,186082840e-01    2,867121436e-02
       69500000   -3,164230585e-01    2,828583121e-02
       69575000   -3,144256175e-01    2,524723485e-02
       69650000   -3,116856813e-01    2,501478978e-02
       69725000   -3,101972938e-01    2,355455607e-02
       69800000   -3,069491386e-01    2,282353304e-02
       69875000   -3,068577945e-01    2,059742808e-02
       69950000   -3,044703603e-01    2,020295523e-02
       70025000   -3,032859564e-01    1,816864312e-02
       70100000   -3,013552129e-01    1,709642261e-02
       70175000   -2,993022501e-01    1,588918641e-02
       70250000   -2,981651723e-01    1,485803071e-02
       70325000   -2,961667180e-01    1,611104421e-02
       70400000   -2,954016924e-01    1,449592691e-02
       70475000   -2,937957048e-01    1,327958424e-02
       70550000   -2,914559841e-01    1,285891421e-02
       70625000   -2,905258834e-01    1,209629234e-02
       70700000   -2,889428437e-01    1,150187757e-02
       70775000   -2,872919142e-01    1,072894782e-02
       70850000   -2,855658829e-01    1,062123477e-02
       70925000   -2,843697071e-01    9,622381069e-03
       71000000   -2,821483016e-01    9,974881075e-03
       71075000   -2,816796601e-01    9,104875848e-03
       71150000   -2,804579139e-01    7,121581119e-03
       71225000   -2,779501379e-01    6,967922207e-03
       71300000   -2,765399218e-01    7,097784430e-03
       71375000   -2,748309374e-01    6,038449705e-03
       71450000   -2,735063732e-01    5,683039315e-03
       71525000   -2,722595632e-01    5,926877726e-03
       71600000   -2,703800201e-01    4,518439528e-03
       71675000   -2,694796920e-01    3,671748796e-03
       71750000   -2,678088546e-01    4,164729733e-03
       71825000   -2,673413754e-01    2,844895469e-03
       71900000   -2,661879659e-01    1,663913834e-03
       71975000   -2,633545995e-01    1,594194910e-03
       72050000   -2,627534568e-01    7,153269253e-04
       72125000   -2,619421184e-01   -9,674364701e-04
       72200000   -2,594986856e-01   -1,247284468e-03
       72275000   -2,600314915e-01   -2,148801927e-03
       72350000   -2,594529688e-01   -2,316091675e-03
       72425000   -2,571347058e-01   -3,567680949e-03
       72500000   -2,579070330e-01   -5,863353610e-03
       72575000   -2,558242083e-01   -6,481537595e-03
       72650000   -2,546634972e-01   -7,049690466e-03
       72725000   -2,551766932e-01   -7,641640957e-03
       72800000   -2,545375824e-01   -8,633641526e-03
       72875000   -2,533168197e-01   -9,134139866e-03
       72950000   -2,546177506e-01   -9,712442756e-03
       73025000   -2,535880506e-01   -1,084941626e-02
       73100000   -2,535773814e-01   -1,131366566e-02
       73175000   -2,531339228e-01   -1,015604567e-02
       73250000   -2,526038885e-01   -1,255408209e-02
       73325000   -2,527794838e-01   -1,263816841e-02
       73400000   -2,535980940e-01   -1,182414778e-02
       73475000   -2,525813580e-01   -1,369638648e-02
       73550000   -2,524415255e-01   -1,329438295e-02
       73625000   -2,523925006e-01   -1,295986678e-02
       73700000   -2,521176934e-01   -1,390281878e-02
       73775000   -2,517426610e-01   -1,435481943e-02
       73850000   -2,527825236e-01   -1,304345857e-02
       73925000   -2,513942122e-01   -1,432144269e-02
       74000000   -2,524684072e-01   -1,380511560e-02
       74075000   -2,516618669e-01   -1,183271687e-02
       74150000   -2,523457110e-01   -1,459375583e-02
       74225000   -2,524714470e-01   -1,407149993e-02
       74300000   -2,524206340e-01   -1,160955615e-02
       74375000   -2,519708872e-01   -1,312456932e-02
       74450000   -2,522068620e-01   -1,326107234e-02
       74525000   -2,517718971e-01   -1,101629343e-02
       74600000   -2,536398172e-01   -1,134658884e-02
       74675000   -2,532421947e-01   -1,066299900e-02
       74750000   -2,527748942e-01   -1,058166288e-02
       74825000   -2,537310123e-01   -9,405323304e-03
       74900000   -2,527518868e-01   -1,026849169e-02
       74975000   -2,528432906e-01   -8,923491463e-03
       75050000   -2,523387372e-01   -7,431813516e-03
       75125000   -2,536305189e-01   -7,594443392e-03
       75200000   -2,528619170e-01   -7,002405357e-03
       75275000   -2,520094812e-01   -5,502012093e-03
       75350000   -2,535842061e-01   -5,693098996e-03
       75425000   -2,529187202e-01   -5,710035097e-03
       75500000   -2,515347898e-01   -3,228863468e-03
       75575000   -2,530068755e-01   -3,714196151e-03
       75650000   -2,531786561e-01   -2,106125001e-03
       75725000   -2,515725195e-01   -2,266533440e-03
       75800000   -2,529493868e-01   -4,627646413e-04
       75875000   -2,532292902e-01   -2,895871294e-04
       75950000   -2,521061003e-01    9,557725862e-04
       76025000   -2,534445524e-01    2,194980392e-03
       76100000   -2,528979778e-01    2,749310574e-03
       76175000   -2,526836991e-01    4,504732788e-03
       76250000   -2,528730035e-01    4,246014170e-03
       76325000   -2,530741692e-01    6,266580429e-03
       76400000   -2,524664998e-01    6,428965367e-03
       76475000   -2,541871965e-01    8,339606225e-03
       76550000   -2,539002597e-01    9,162480012e-03
       76625000   -2,533302009e-01    1,052560378e-02
       76700000   -2,541484237e-01    1,209975313e-02
       76775000   -2,541204691e-01    1,328718103e-02
       76850000   -2,534936368e-01    1,427883096e-02
       76925000   -2,543886006e-01    1,546793059e-02
       77000000   -2,536617815e-01    1,773245260e-02
       77075000   -2,536205649e-01    1,916573755e-02
       77150000   -2,542348206e-01    2,020392939e-02
       77225000   -2,544631958e-01    2,119904570e-02
       77300000   -2,548780143e-01    2,457579412e-02
       77375000   -2,545646131e-01    2,510121278e-02
       77450000   -2,552274168e-01    2,848789841e-02
       77525000   -2,548481226e-01    3,056854382e-02
       77600000   -2,544274032e-01    3,168290854e-02
       77675000   -2,543229163e-01    3,445846960e-02
       77750000   -2,549646199e-01    3,616955876e-02
       77825000   -2,547212839e-01    3,866382688e-02
       77900000   -2,538581789e-01    4,243675247e-02
       77975000   -2,525114417e-01    4,423668608e-02
       78050000   -2,532385886e-01    4,570338875e-02
       78125000   -2,536120117e-01    4,892953113e-02
       78200000   -2,503508925e-01    5,123258382e-02
       78275000   -2,511725724e-01    5,357596651e-02
       78350000   -2,507210970e-01    5,738498643e-02
       78425000   -2,492938936e-01    6,067580357e-02
       78500000   -2,489969432e-01    6,188213453e-02
       78575000   -2,479685694e-01    6,598159671e-02
       78650000   -2,463413924e-01    6,881334633e-02
       78725000   -2,452706546e-01    7,084235549e-02
       78800000   -2,435685247e-01    7,450866699e-02
       78875000   -2,409677804e-01    7,781381905e-02
       78950000   -2,414594740e-01    7,987888157e-02
       79025000   -2,383114100e-01    8,398882300e-02
       79100000   -2,369871736e-01    8,645658195e-02
       79175000   -2,355512828e-01    8,939517289e-02
       79250000   -2,328035235e-01    9,175095707e-02
       79325000   -2,305106223e-01    9,506827593e-02
       79400000   -2,288027257e-01    9,678129852e-02
       79475000   -2,268808037e-01    9,993349761e-02
       79550000   -2,233666629e-01    1,027300507e-01
       79625000   -2,205955833e-01    1,055839509e-01
       79700000   -2,180432528e-01    1,075734422e-01
       79775000   -2,149029821e-01    1,101494804e-01
       79850000   -2,130565792e-01    1,124490872e-01
       79925000   -2,104589790e-01    1,147315875e-01
       80000000   -2,066010982e-01    1,170651689e-01
       80075000   -2,041272372e-01    1,175503433e-01
       80150000   -2,024943978e-01    1,213680506e-01
       80225000   -1,989160478e-01    1,239267066e-01
       80300000   -1,963007152e-01    1,259248704e-01
       80375000   -1,928832382e-01    1,278579831e-01
       80450000   -1,885491461e-01    1,287481636e-01
       80525000   -1,856073141e-01    1,312412024e-01
       80600000   -1,828505099e-01    1,329403967e-01
       80675000   -1,781423986e-01    1,339683086e-01
       80750000   -1,754251271e-01    1,369390339e-01
       80825000   -1,722114980e-01    1,381961107e-01
       80900000   -1,685922742e-01    1,391113400e-01
       80975000   -1,644462943e-01    1,411022097e-01
       81050000   -1,620529592e-01    1,418779641e-01
       81125000   -1,577709168e-01    1,427466124e-01
       81200000   -1,543125659e-01    1,434084773e-01
       81275000   -1,504145563e-01    1,445381939e-01
       81350000   -1,463527083e-01    1,453118324e-01
       81425000   -1,429343224e-01    1,456722915e-01
       81500000   -1,384372115e-01    1,461552233e-01
       81575000   -1,358423233e-01    1,458432227e-01
       81650000   -1,330525726e-01    1,456654519e-01
       81725000   -1,290559322e-01    1,466425806e-01
       81800000   -1,254043579e-01    1,473050117e-01
       81875000   -1,233818829e-01    1,464740038e-01
       81950000   -1,196154952e-01    1,460445076e-01
       82025000   -1,165517867e-01    1,465382427e-01
       82100000   -1,137899607e-01    1,449312866e-01
       82175000   -1,115021780e-01    1,451451033e-01
       82250000   -1,075515524e-01    1,453233808e-01
       82325000   -1,053314283e-01    1,450581104e-01
       82400000   -1,025377512e-01    1,452135146e-01
       82475000   -1,011877358e-01    1,452890486e-01
       82550000   -9,922356904e-02    1,453142315e-01
       82625000   -9,647492319e-02    1,455089301e-01
       82700000   -9,413600713e-02    1,450195312e-01
       82775000   -9,233634919e-02    1,452157050e-01
       82850000   -9,006799757e-02    1,456569433e-01
       82925000   -8,854136616e-02    1,457947791e-01
       83000000   -8,620811254e-02    1,460803449e-01
       83075000   -8,486828953e-02    1,462447345e-01
       83150000   -8,164302260e-02    1,457004845e-01
       83225000   -8,013473451e-02    1,474998146e-01
       83300000   -7,774432749e-02    1,481832713e-01
       83375000   -7,550662756e-02    1,478326023e-01
       83450000   -7,335613668e-02    1,483716518e-01
       83525000   -7,056640834e-02    1,492619663e-01
       83600000   -6,868457049e-02    1,498008966e-01
       83675000   -6,673873216e-02    1,508565545e-01
       83750000   -6,418616325e-02    1,513813436e-01
       83825000   -6,161041185e-02    1,509063691e-01
       83900000   -5,959730223e-02    1,517167538e-01
       83975000   -5,682063103e-02    1,525146663e-01
       84050000   -5,376097187e-02    1,539644599e-01
       84125000   -5,123196915e-02    1,545116752e-01
       84200000   -4,951868579e-02    1,552233994e-01
       84275000   -4,580017924e-02    1,553933322e-01
       84350000   -4,373812675e-02    1,564244181e-01
       84425000   -4,074531794e-02    1,579235494e-01
       84500000   -3,830174357e-02    1,581159830e-01
       84575000   -3,537159041e-02    1,597876400e-01
       84650000   -3,318804130e-02    1,595068276e-01
       84725000   -2,981474809e-02    1,603736281e-01
       84800000   -2,695327997e-02    1,608832777e-01
       84875000   -2,416515723e-02    1,616745144e-01
       84950000   -2,236896567e-02    1,628673375e-01
       85025000   -1,794951409e-02    1,641830504e-01
       85100000   -1,626955532e-02    1,648688167e-01
       85175000   -1,326445583e-02    1,642770767e-01
       85250000   -9,481674992e-03    1,653277874e-01
       85325000   -5,779941566e-03    1,672572792e-01
       85400000   -1,592509798e-03    1,676726639e-01
       85475000    2,933135256e-04    1,678723246e-01
       85550000    4,036742263e-03    1,694033742e-01
       85625000    6,817252841e-03    1,704020649e-01
       85700000    1,080150157e-02    1,703028083e-01
       85775000    1,461553480e-02    1,710557491e-01
       85850000    1,805372722e-02    1,722910404e-01
       85925000    2,257780917e-02    1,736615747e-01
       86000000    2,617402188e-02    1,738987863e-01
       86075000    2,975933813e-02    1,748168170e-01
       86150000    3,387095779e-02    1,742164046e-01
       86225000    3,829454258e-02    1,753137112e-01
       86300000    4,317105561e-02    1,755896360e-01
       86375000    4,651451111e-02    1,753182113e-01
       86450000    5,190015212e-02    1,762867421e-01
       86525000    5,583337322e-02    1,764359921e-01
       86600000    5,943115056e-02    1,758102179e-01
       86675000    6,565286964e-02    1,759974808e-01
       86750000    6,873412430e-02    1,758196354e-01
       86825000    7,306824625e-02    1,755817235e-01
       86900000    7,871687412e-02    1,760850251e-01
       86975000    8,283388615e-02    1,750762314e-01
       87050000    8,744116873e-02    1,742829382e-01
       87125000    9,268264472e-02    1,739314944e-01
       87200000    9,771654755e-02    1,735435575e-01
       87275000    1,012377515e-01    1,727621406e-01
       87350000    1,069418490e-01    1,706001312e-01
       87425000    1,116223633e-01    1,707084924e-01
       87500000    1,172120199e-01    1,690549552e-01
       87575000    1,211637482e-01    1,687004715e-01
       87650000    1,251783073e-01    1,666057557e-01
       87725000    1,294289082e-01    1,673777103e-01
       87800000    1,346706003e-01    1,641990095e-01
       87875000    1,387327164e-01    1,635158509e-01
       87950000    1,446655244e-01    1,620520651e-01
       88025000    1,493453681e-01    1,592281312e-01
       88100000    1,535964459e-01    1,582008451e-01
       88175000    1,574753374e-01    1,582108587e-01
       88250000    1,624405235e-01    1,546446681e-01
       88325000    1,675163507e-01    1,525554359e-01
       88400000    1,725774109e-01    1,508052051e-01
       88475000    1,769213974e-01    1,489146650e-01
       88550000    1,817144603e-01    1,477433741e-01
       88625000    1,859675050e-01    1,445422769e-01
       88700000    1,911524534e-01    1,426536888e-01
       88775000    1,943893284e-01    1,413059384e-01
       88850000    2,003540695e-01    1,392122656e-01
       88925000    2,046939582e-01    1,360692680e-01
       89000000    2,088642269e-01    1,346061230e-01
       89075000    2,147475183e-01    1,307952553e-01
       89150000    2,177198231e-01    1,295625418e-01
       89225000    2,243500203e-01    1,260976642e-01
       89300000    2,283732891e-01    1,236076653e-01
       89375000    2,329829484e-01    1,200218648e-01
       89450000    2,377436906e-01    1,165883988e-01
       89525000    2,423080802e-01    1,151952147e-01
       89600000    2,472558469e-01    1,107310131e-01
       89675000    2,526412308e-01    1,073265746e-01
       89750000    2,580895424e-01    1,052280962e-01
       89825000    2,627898455e-01    1,013205424e-01
       89900000    2,656368613e-01    9,670425206e-02
       89975000    2,723828554e-01    9,358435869e-02
       90050000    2,754400969e-01    8,930243552e-02
       90125000    2,803716362e-01    8,605805039e-02
       90200000    2,841874063e-01    8,027725667e-02
       90275000    2,889455259e-01    7,722136378e-02
       90350000    2,949459851e-01    7,302459329e-02
       90425000    2,985389531e-01    6,727053225e-02
       90500000    3,028331101e-01    6,470876187e-02
       90575000    3,073540628e-01    5,895621330e-02
       90650000    3,103181720e-01    5,303007737e-02
       90725000    3,157527745e-01    4,957282916e-02
       90800000    3,196409941e-01    4,374823719e-02
       90875000    3,231568933e-01    3,877472505e-02
       90950000    3,292283416e-01    3,329797089e-02
       91025000    3,307808638e-01    2,838574164e-02
       91100000    3,359893858e-01    2,170472406e-02
       91175000    3,371644616e-01    1,637376845e-02
       91250000    3,420660794e-01    1,096886210e-02
       91325000    3,438848555e-01    4,321389366e-03
       91400000    3,482216299e-01   -1,839830307e-03
       91475000    3,512032628e-01   -9,850139730e-03
       91550000    3,539240956e-01   -1,387019362e-02
       91625000    3,577378094e-01   -2,266323008e-02
       91700000    3,589482009e-01   -2,711191215e-02
       91775000    3,633307219e-01   -3,428588808e-02
       91850000    3,637263477e-01   -3,940105811e-02
       91925000    3,658261299e-01   -4,721863940e-02
