! NanoVNA-App
! Date: 2025-08-02 16:47:32
! Start: 65MHz Stop: 95MHz Points: 401
! S-Parameter data: F S11
# Hz S RI R 50
!     Frequency           S11_Real           S11_Imag
       65000000   -4,337353706e-01   -7,847772837e-01
       65075000   -4,323194921e-01   -7,890740633e-01
       65150000   -4,354045391e-01   -7,944918871e-01
       65225000   -4,361763597e-01   -7,923419476e-01
       65300000   -4,364323616e-01   -7,844727635e-01
       65375000   -4,401721358e-01   -7,839658856e-01
       65450000   -4,447445869e-01   -7,790196538e-01
       65525000   -4,447086453e-01   -7,777886987e-01
       65600000   -4,461852312e-01   -7,778829932e-01
       65675000   -4,504352808e-01   -7,735255361e-01
       65750000   -4,516696334e-01   -7,737864256e-01
       65825000   -4,539615810e-01   -7,783136964e-01
       65900000   -4,537948370e-01   -7,752547264e-01
       65975000   -4,582219422e-01   -7,728068233e-01
       66050000   -4,571801424e-01   -7,702926993e-01
       66125000   -4,614136815e-01   -7,638335228e-01
       66200000   -4,652646780e-01   -7,645512223e-01
       66275000   -4,616745114e-01   -7,586092949e-01
       66350000   -4,672878981e-01   -7,582159638e-01
       66425000   -4,706137776e-01   -7,580911517e-01
       66500000   -4,708021283e-01   -7,576755285e-01
       66575000   -4,745425582e-01   -7,548539639e-01
       66650000   -4,716262817e-01   -7,564100623e-01
       66725000   -4,732715487e-01   -7,499794960e-01
       66800000   -4,738976061e-01   -7,446085215e-01
       66875000   -4,767144620e-01   -7,448752522e-01
       66950000   -4,774968624e-01   -7,403158545e-01
       67025000   -4,793899059e-01   -7,391005754e-01
       67100000   -4,815795124e-01   -7,386023402e-01
       67175000   -4,876829982e-01   -7,378761768e-01
       67250000   -4,855013192e-01   -7,385185957e-01
       67325000   -4,888874590e-01   -7,362310290e-01
       67400000   -4,928054810e-01   -7,328618765e-01
       67475000   -4,890681505e-01   -7,293816209e-01
       67550000   -4,944155216e-01   -7,262222767e-01
       67625000   -4,970353842e-01   -7,250834107e-01
       67700000   -4,968426526e-01   -7,246647477e-01
       67775000   -4,961122274e-01   -7,208334804e-01
       67850000   -4,998237491e-01   -7,152693272e-01
       67925000   -5,005924106e-01   -7,149114013e-01
       68000000   -5,025205016e-01   -7,115253806e-01
       68075000   -5,046169758e-01   -7,138023376e-01
       68150000   -5,069593191e-01   -7,112438679e-01
       68225000   -5,037225485e-01   -7,096086740e-01
       68300000   -5,058454275e-01   -7,079895735e-01
       68375000   -5,064819455e-01   -7,035869956e-01
       68450000   -5,106269717e-01   -7,009050846e-01
       68525000   -5,118882060e-01   -6,958468556e-01
       68600000   -5,133070946e-01   -6,965685487e-01
       68675000   -5,164219141e-01   -6,929410100e-01
       68750000   -5,174666643e-01   -6,938253641e-01
       68825000   -5,202815533e-01   -6,936652660e-01
       68900000   -5,187139511e-01   -6,909019947e-01
       68975000   -5,222828984e-01   -6,894345880e-01
       69050000   -5,212422013e-01   -6,873514056e-01
       69125000   -5,240027905e-01   -6,872580051e-01
       69200000   -5,233017802e-01   -6,835408211e-01
       69275000   -5,269763470e-01   -6,817146540e-01
       69350000   -5,244769454e-01   -6,797513962e-01
       69425000   -5,287933350e-01   -6,777912974e-01
       69500000   -5,279042721e-01   -6,761109829e-01
       69575000   -5,308625102e-01   -6,740108728e-01
       69650000   -5,298371911e-01   -6,725225449e-01
       69725000   -5,313282609e-01   -6,703257561e-01
       69800000   -5,307525992e-01   -6,689257026e-01
       69875000   -5,340808630e-01   -6,681073904e-01
       69950000   -5,346773863e-01   -6,584762335e-01
       70025000   -5,337305069e-01   -6,630178094e-01
       70100000   -5,373296142e-01   -6,574839950e-01
       70175000   -5,413218737e-01   -6,555125713e-01
       70250000   -5,377249718e-01   -6,583542824e-01
       70325000   -5,402269959e-01   -6,548351049e-01
       70400000   -5,388674140e-01   -6,526210904e-01
       70475000   -5,419655442e-01   -6,497352123e-01
       70550000   -5,462145209e-01   -6,454740763e-01
       70625000   -5,449188352e-01   -6,485962272e-01
       70700000   -5,453895330e-01   -6,448285580e-01
       70775000   -5,452634096e-01   -6,409837008e-01
       70850000   -5,479534268e-01   -6,413663626e-01
       70925000   -5,524412394e-01   -6,401568055e-01
       71000000   -5,515663028e-01   -6,394792795e-01
       71075000   -5,516647100e-01   -6,373776793e-01
       71150000   -5,557457209e-01   -6,323090792e-01
       71225000   -5,549369454e-01   -6,286103129e-01
       71300000   -5,553951263e-01   -6,277199388e-01
       71375000   -5,578151345e-01   -6,238273382e-01
       71450000   -5,575795174e-01   -6,280616522e-01
       71525000   -5,597319007e-01   -6,264560819e-01
       71600000   -5,590938926e-01   -6,226620674e-01
       71675000   -5,648241043e-01   -6,196199656e-01
       71750000   -5,631876588e-01   -6,200013757e-01
       71825000   -5,666077733e-01   -6,152771115e-01
       71900000   -5,657218695e-01   -6,157174706e-01
       71975000   -5,664690137e-01   -6,120455265e-01
       72050000   -5,659222603e-01   -6,120858788e-01
       72125000   -5,670071840e-01   -6,051883101e-01
       72200000   -5,678659081e-01   -6,062211394e-01
       72275000   -5,710118413e-01   -6,019164324e-01
       72350000   -5,709355474e-01   -6,025314331e-01
       72425000   -5,733151436e-01   -5,984281898e-01
       72500000   -5,760039091e-01   -5,984704494e-01
       72575000   -5,744634271e-01   -5,946201682e-01
       72650000   -5,739260316e-01   -5,978789926e-01
       72725000   -5,753901601e-01   -5,926256776e-01
       72800000   -5,754896402e-01   -5,897037387e-01
       72875000   -5,765960217e-01   -5,890204310e-01
       72950000   -5,783779621e-01   -5,861905217e-01
       73025000   -5,775858164e-01   -5,843879580e-01
       73100000   -5,779407620e-01   -5,862945318e-01
       73175000   -5,794002414e-01   -5,818403363e-01
       73250000   -5,843298435e-01   -5,811227560e-01
       73325000   -5,835841894e-01   -5,781812668e-01
       73400000   -5,846372247e-01   -5,781909227e-01
       73475000   -5,863927603e-01   -5,746003985e-01
       73550000   -5,850526094e-01   -5,782443285e-01
       73625000   -5,887376666e-01   -5,747814775e-01
       73700000   -5,850493908e-01   -5,738126040e-01
       73775000   -5,889127851e-01   -5,733903646e-01
       73850000   -5,868158937e-01   -5,688650608e-01
       73925000   -5,896561742e-01   -5,667589307e-01
       74000000   -5,907092690e-01   -5,631115437e-01
       74075000   -5,927466154e-01   -5,641940832e-01
       74150000   -5,926823616e-01   -5,644668937e-01
       74225000   -5,951002836e-01   -5,633988976e-01
       74300000   -5,941853523e-01   -5,613246560e-01
       74375000   -5,966690779e-01   -5,601946712e-01
       74450000   -5,990246534e-01   -5,541126132e-01
       74525000   -5,990898609e-01   -5,543304086e-01
       74600000   -6,011357903e-01   -5,503126979e-01
       74675000   -6,009530425e-01   -5,525839329e-01
       74750000   -6,040731668e-01   -5,510186553e-01
       74825000   -6,006938815e-01   -5,477938652e-01
       74900000   -6,020033360e-01   -5,493344665e-01
       74975000   -6,046658158e-01   -5,418615341e-01
       75050000   -6,067570448e-01   -5,428963900e-01
       75125000   -6,079688668e-01   -5,389090776e-01
       75200000   -6,084430814e-01   -5,400685072e-01
       75275000   -6,106130481e-01   -5,359780788e-01
       75350000   -6,112405658e-01   -5,371783376e-01
       75425000   -6,135240793e-01   -5,374281406e-01
       75500000   -6,117617488e-01   -5,360805988e-01
       75575000   -6,157259345e-01   -5,340744257e-01
       75650000   -6,143206358e-01   -5,335932970e-01
       75725000   -6,176500916e-01   -5,305492878e-01
       75800000   -6,165202856e-01   -5,304023027e-01
       75875000   -6,205535531e-01   -5,278156400e-01
       75950000   -6,177677512e-01   -5,257882476e-01
       76025000   -6,209432483e-01   -5,230745673e-01
       76100000   -6,242414713e-01   -5,207580328e-01
       76175000   -6,232817769e-01   -5,206388831e-01
       76250000   -6,257764101e-01   -5,194737315e-01
       76325000   -6,245899200e-01   -5,181051493e-01
       76400000   -6,276727319e-01   -5,171732306e-01
       76475000   -6,272569895e-01   -5,098148584e-01
       76550000   -6,264893413e-01   -5,121618509e-01
       76625000   -6,295137405e-01   -5,110786557e-01
       76700000   -6,280645728e-01   -5,084314942e-01
       76775000   -6,317768693e-01   -5,088905096e-01
       76850000   -6,333478093e-01   -5,054585934e-01
       76925000   -6,364567876e-01   -5,014128089e-01
       77000000   -6,365025043e-01   -5,017611980e-01
       77075000   -6,364458799e-01   -4,997239411e-01
       77150000   -6,375601888e-01   -4,982159734e-01
       77225000   -6,418836713e-01   -4,983098805e-01
       77300000   -6,389755011e-01   -4,960819185e-01
       77375000   -6,431725621e-01   -4,952804446e-01
       77450000   -6,418694854e-01   -4,916877151e-01
       77525000   -6,425449848e-01   -4,902901947e-01
       77600000   -6,462175846e-01   -4,890968502e-01
       77675000   -6,453952193e-01   -4,853478968e-01
       77750000   -6,490452886e-01   -4,833028913e-01
       77825000   -6,505450606e-01   -4,853196740e-01
       77900000   -6,509422064e-01   -4,782369137e-01
       77975000   -6,535527110e-01   -4,793292284e-01
       78050000   -6,549306512e-01   -4,792825878e-01
       78125000   -6,550774574e-01   -4,749520719e-01
       78200000   -6,580801606e-01   -4,730911255e-01
       78275000   -6,586908698e-01   -4,728128612e-01
       78350000   -6,603780389e-01   -4,678258300e-01
       78425000   -6,614136696e-01   -4,651170373e-01
       78500000   -6,626822352e-01   -4,657181799e-01
       78575000   -6,665800214e-01   -4,633282423e-01
       78650000   -6,662518978e-01   -4,632458985e-01
       78725000   -6,667819619e-01   -4,604419470e-01
       78800000   -6,707939506e-01   -4,563179016e-01
       78875000   -6,698095202e-01   -4,571608901e-01
       78950000   -6,733728051e-01   -4,537730515e-01
       79025000   -6,717034578e-01   -4,532104135e-01
       79100000   -6,771998405e-01   -4,516753852e-01
       79175000   -6,747890115e-01   -4,455141723e-01
       79250000   -6,767148972e-01   -4,451497495e-01
       79325000   -6,801888347e-01   -4,410561919e-01
       79400000   -6,808885932e-01   -4,408237338e-01
       79475000   -6,833000779e-01   -4,397478104e-01
       79550000   -6,813284159e-01   -4,346161485e-01
       79625000   -6,840263009e-01   -4,331431687e-01
       79700000   -6,875529885e-01   -4,298276901e-01
       79775000   -6,873027086e-01   -4,301203191e-01
       79850000   -6,887851357e-01   -4,275221527e-01
       79925000   -6,918517351e-01   -4,222953022e-01
       80000000   -6,914778948e-01   -4,247388244e-01
       80075000   -6,925226450e-01   -4,185056388e-01
       80150000   -6,934158206e-01   -4,144817293e-01
       80225000   -6,930165291e-01   -4,163934290e-01
       80300000   -6,967225671e-01   -4,137437046e-01
       80375000   -6,946131587e-01   -4,097521007e-01
       80450000   -6,983248591e-01   -4,059961736e-01
       80525000   -6,982543468e-01   -4,008333087e-01
       80600000   -7,007228136e-01   -4,007252455e-01
       80675000   -7,012152672e-01   -3,973801434e-01
       80750000   -7,020395994e-01   -3,971863985e-01
       80825000   -7,041778564e-01   -3,925603926e-01
       80900000   -7,026217580e-01   -3,895003498e-01
       80975000   -7,051738501e-01   -3,892224431e-01
       81050000   -7,063044906e-01   -3,851434588e-01
       81125000   -7,048190832e-01   -3,832892776e-01
       81200000   -7,083618045e-01   -3,795808256e-01
       81275000   -7,061530948e-01   -3,782124519e-01
       81350000   -7,097318769e-01   -3,749350309e-01
       81425000   -7,102186680e-01   -3,707057834e-01
       81500000   -7,112434506e-01   -3,697172403e-01
       81575000   -7,117984295e-01   -3,653171360e-01
       81650000   -7,106488943e-01   -3,643318713e-01
       81725000   -7,124837637e-01   -3,636579514e-01
       81800000   -7,137187123e-01   -3,590353727e-01
       81875000   -7,120882869e-01   -3,552742898e-01
       81950000   -7,154228687e-01   -3,539336324e-01
       82025000   -7,140020132e-01   -3,517381549e-01
       82100000   -7,166330814e-01   -3,485910892e-01
       82175000   -7,161074281e-01   -3,453968465e-01
       82250000   -7,171159387e-01   -3,439352512e-01
       82325000   -7,186017036e-01   -3,395183682e-01
       82400000   -7,176381350e-01   -3,396764994e-01
       82475000   -7,197574973e-01   -3,372342288e-01
       82550000   -7,180878520e-01   -3,357437551e-01
       82625000   -7,205061913e-01   -3,316279352e-01
       82700000   -7,187604904e-01   -3,303216398e-01
       82775000   -7,223153114e-01   -3,277006149e-01
       82850000   -7,202506661e-01   -3,260208070e-01
       82925000   -7,229924202e-01   -3,226487339e-01
       83000000   -7,209106684e-01   -3,215966821e-01
       83075000   -7,236726880e-01   -3,174287081e-01
       83150000   -7,220583558e-01   -3,166697323e-01
       83225000   -7,251726389e-01   -3,123173118e-01
       83300000   -7,231034636e-01   -3,115148842e-01
       83375000   -7,262141705e-01   -3,082580268e-01
       83450000   -7,256323695e-01   -3,045566678e-01
       83525000   -7,265504599e-01   -3,026620150e-01
       83600000   -7,270318270e-01   -2,994188666e-01
       83675000   -7,269477248e-01   -2,995254397e-01
       83750000   -7,306696773e-01   -2,968361080e-01
       83825000   -7,284569144e-01   -2,928295135e-01
       83900000   -7,312765121e-01   -2,913267910e-01
       83975000   -7,307088375e-01   -2,879137099e-01
       84050000   -7,319270372e-01   -2,872447670e-01
       84125000   -7,324273586e-01   -2,824458182e-01
       84200000   -7,305642366e-01   -2,820184231e-01
       84275000   -7,339448929e-01   -2,792786062e-01
       84350000   -7,329595685e-01   -2,756039202e-01
       84425000   -7,356275320e-01   -2,744976580e-01
       84500000   -7,358522415e-01   -2,719441354e-01
       84575000   -7,359906435e-01   -2,703998387e-01
       84650000   -7,379322052e-01   -2,667652071e-01
       84725000   -7,365180850e-01   -2,635524273e-01
       84800000   -7,390980124e-01   -2,620258629e-01
       84875000   -7,381471992e-01   -2,577038705e-01
       84950000   -7,396405339e-01   -2,583208382e-01
       85025000   -7,407541275e-01   -2,543267012e-01
       85100000   -7,423647642e-01   -2,522827089e-01
       85175000   -7,413676977e-01   -2,483768910e-01
       85250000   -7,443294525e-01   -2,463074476e-01
       85325000   -7,431852818e-01   -2,434285432e-01
       85400000   -7,444595695e-01   -2,419045866e-01
       85475000   -7,452696562e-01   -2,369750887e-01
       85550000   -7,452134490e-01   -2,353105247e-01
       85625000   -7,458298802e-01   -2,344470620e-01
       85700000   -7,483754754e-01   -2,297255248e-01
       85775000   -7,475664616e-01   -2,261448652e-01
       85850000   -7,474718690e-01   -2,242538631e-01
       85925000   -7,497542500e-01   -2,230178267e-01
       86000000   -7,507075071e-01   -2,170254141e-01
       86075000   -7,505949140e-01   -2,175321877e-01
       86150000   -7,528989315e-01   -2,132711411e-01
       86225000   -7,533112168e-01   -2,118106335e-01
       86300000   -7,528286576e-01   -2,056349963e-01
       86375000   -7,532903552e-01   -2,027289867e-01
       86450000   -7,554003596e-01   -2,013334334e-01
       86525000   -7,557737231e-01   -1,975639611e-01
       86600000   -7,553555965e-01   -1,938372105e-01
       86675000   -7,564308047e-01   -1,927109659e-01
       86750000   -7,564468980e-01   -1,868765950e-01
       86825000   -7,567983270e-01   -1,850551963e-01
       86900000   -7,564867735e-01   -1,833050549e-01
       86975000   -7,584280968e-01   -1,811127663e-01
       87050000   -7,592313290e-01   -1,747770607e-01
       87125000   -7,593614459e-01   -1,720009744e-01
       87200000   -7,592754364e-01   -1,705148816e-01
       87275000   -7,603832483e-01   -1,651707590e-01
       87350000   -7,601321340e-01   -1,619482487e-01
       87425000   -7,612580657e-01   -1,603190750e-01
       87500000   -7,629147768e-01   -1,588474214e-01
       87575000   -7,606315613e-01   -1,545152515e-01
       87650000   -7,608951330e-01   -1,482821703e-01
       87725000   -7,601421475e-01   -1,476753652e-01
       87800000   -7,620024681e-01   -1,429849714e-01
       87875000   -7,604491711e-01   -1,386984885e-01
       87950000   -7,616647482e-01   -1,374516487e-01
       88025000   -7,623214722e-01   -1,333346218e-01
       88100000   -7,614730597e-01   -1,296887100e-01
       88175000   -7,607748508e-01   -1,277594715e-01
       88250000   -7,620611787e-01   -1,223008484e-01
       88325000   -7,617104650e-01   -1,188237518e-01
       88400000   -7,623704672e-01   -1,187601611e-01
       88475000   -7,619174123e-01   -1,117001548e-01
       88550000   -7,625547647e-01   -1,112955064e-01
       88625000   -7,629092932e-01   -1,051243022e-01
       88700000   -7,626624107e-01   -1,023576334e-01
       88775000   -7,616891861e-01   -9,921324998e-02
       88850000   -7,629960179e-01   -9,779728204e-02
       88925000   -7,629942298e-01   -9,228301793e-02
       89000000   -7,610825300e-01   -9,024126828e-02
       89075000   -7,639491558e-01   -8,484219760e-02
       89150000   -7,619337440e-01   -8,274437487e-02
       89225000   -7,633406520e-01   -7,861244678e-02
       89300000   -7,614489198e-01   -7,405083627e-02
       89375000   -7,619525194e-01   -7,239431888e-02
       89450000   -7,610991001e-01   -6,675614417e-02
       89525000   -7,601773143e-01   -6,458768994e-02
       89600000   -7,609498501e-01   -5,991806090e-02
       89675000   -7,613204122e-01   -5,635913834e-02
       89750000   -7,598936558e-01   -5,462922901e-02
       89825000   -7,601224184e-01   -5,060456693e-02
       89900000   -7,587823272e-01   -4,427468777e-02
       89975000   -7,598301172e-01   -4,282034561e-02
       90050000   -7,585691214e-01   -3,802274540e-02
       90125000   -7,579343319e-01   -3,696719557e-02
       90200000   -7,574930787e-01   -2,946508676e-02
       90275000   -7,569217682e-01   -2,673173882e-02
       90350000   -7,573428154e-01   -2,363304421e-02
       90425000   -7,592051625e-01   -1,956869662e-02
       90500000   -7,539843321e-01   -1,607049070e-02
       90575000   -7,571196556e-01   -1,114012301e-02
       90650000   -7,540169358e-01   -6,381480955e-03
       90725000   -7,530576587e-01   -2,592425561e-03
       90800000   -7,545261979e-01    1,537497388e-03
       90875000   -7,515985966e-01    4,436312709e-03
       90950000   -7,515397072e-01    7,342214696e-03
       91025000   -7,493271828e-01    1,299756113e-02
       91100000   -7,492182851e-01    1,459992584e-02
       91175000   -7,472879887e-01    2,008751407e-02
       91250000   -7,458084226e-01    2,279910445e-02
       91325000   -7,451244593e-01    2,844805643e-02
       91400000   -7,427775264e-01    3,178314865e-02
       91475000   -7,428839803e-01    3,727592155e-02
       91550000   -7,396276593e-01    4,092678800e-02
       91625000   -7,399682403e-01    4,459046945e-02
       91700000   -7,377469540e-01    4,840531200e-02
       91775000   -7,380206585e-01    5,186778679e-02
       91850000   -7,350482345e-01    5,646496639e-02
       91925000   -7,343562245e-01    5,981525034e-02
