! NanoVNA-App
! Date: 2025-08-02 16:44:24
! Start: 65MHz Stop: 95MHz Points: 401
! S-Parameter data: F S11
# Hz S RI R 50
!     Frequency           S11_Real           S11_Imag
       65000000   -3,671818972e-01    1,343027204e-01
       65075000   -3,607659042e-01    1,373752952e-01
       65150000   -3,519166708e-01    1,380645186e-01
       65225000   -3,456408679e-01    1,400387883e-01
       65300000   -3,386068046e-01    1,414500326e-01
       65375000   -3,319293857e-01    1,413094997e-01
       65450000   -3,237571418e-01    1,422860622e-01
       65525000   -3,171189129e-01    1,424035430e-01
       65600000   -3,092589974e-01    1,417251676e-01
       65675000   -3,033123910e-01    1,415427625e-01
       65750000   -2,962500751e-01    1,412570626e-01
       65825000   -2,876591980e-01    1,403783858e-01
       65900000   -2,819600999e-01    1,388224661e-01
       65975000   -2,757457495e-01    1,383263469e-01
       66050000   -2,689215541e-01    1,364037991e-01
       66125000   -2,650489211e-01    1,360916346e-01
       66200000   -2,580150366e-01    1,347066909e-01
       66275000   -2,522574663e-01    1,337174028e-01
       66350000   -2,478690892e-01    1,309647858e-01
       66425000   -2,415707856e-01    1,303415000e-01
       66500000   -2,356480807e-01    1,284125298e-01
       66575000   -2,309360802e-01    1,269792765e-01
       66650000   -2,249972969e-01    1,245505214e-01
       66725000   -2,208286524e-01    1,238760874e-01
       66800000   -2,162921727e-01    1,220047176e-01
       66875000   -2,111524194e-01    1,209766939e-01
       66950000   -2,058102041e-01    1,197952405e-01
       67025000   -2,015621066e-01    1,177174821e-01
       67100000   -1,970496625e-01    1,158664599e-01
       67175000   -1,916817725e-01    1,135791168e-01
       67250000   -1,857839078e-01    1,119007841e-01
       67325000   -1,815988421e-01    1,097258031e-01
       67400000   -1,763662547e-01    1,083079502e-01
       67475000   -1,711008847e-01    1,064189970e-01
       67550000   -1,671793461e-01    1,036804318e-01
       67625000   -1,621499360e-01    1,009893492e-01
       67700000   -1,576007903e-01    9,796058387e-02
       67775000   -1,537981033e-01    9,594683349e-02
       67850000   -1,497222632e-01    9,304536879e-02
       67925000   -1,456188709e-01    8,991305530e-02
       68000000   -1,413081884e-01    8,769378066e-02
       68075000   -1,374071538e-01    8,370150626e-02
       68150000   -1,331134886e-01    8,094181865e-02
       68225000   -1,298792660e-01    7,871088386e-02
       68300000   -1,266375482e-01    7,511139661e-02
       68375000   -1,221784055e-01    7,182855904e-02
       68450000   -1,196641922e-01    6,786616892e-02
       68525000   -1,162874922e-01    6,468588859e-02
       68600000   -1,140282601e-01    6,047025323e-02
       68675000   -1,108132750e-01    5,819983780e-02
       68750000   -1,087348908e-01    5,361695960e-02
       68825000   -1,058481261e-01    5,005443096e-02
       68900000   -1,033352092e-01    4,638428986e-02
       68975000   -1,022503749e-01    4,228454828e-02
       69050000   -9,968346357e-02    3,824697062e-02
       69125000   -9,906344861e-02    3,528337926e-02
       69200000   -9,699560702e-02    3,093870543e-02
       69275000   -9,638706595e-02    2,807128057e-02
       69350000   -9,509375691e-02    2,522671595e-02
       69425000   -9,460300207e-02    2,217885107e-02
       69500000   -9,328664094e-02    1,857982762e-02
       69575000   -9,371679276e-02    1,639442146e-02
       69650000   -9,226056188e-02    1,275033038e-02
       69725000   -9,230398387e-02    9,599437006e-03
       69800000   -9,112281352e-02    7,944545709e-03
       69875000   -9,135992080e-02    5,010972265e-03
       69950000   -9,128028899e-02    3,480087034e-03
       70025000   -9,072642773e-02    1,068157959e-03
       70100000   -9,052346647e-02   -1,039869618e-03
       70175000   -9,067521989e-02   -2,851203550e-03
       70250000   -9,002740681e-02   -5,266345106e-03
       70325000   -9,065353870e-02   -6,575177889e-03
       70400000   -8,985608816e-02   -8,716716431e-03
       70475000   -8,938908577e-02   -1,052893978e-02
       70550000   -8,884093165e-02   -1,060175896e-02
       70625000   -8,775730431e-02   -1,348155830e-02
       70700000   -8,831755072e-02   -1,567405462e-02
       70775000   -8,682067692e-02   -1,539566461e-02
       70850000   -8,680395782e-02   -1,777331345e-02
       70925000   -8,689523488e-02   -2,023329958e-02
       71000000   -8,515761793e-02   -2,062777616e-02
       71075000   -8,570364118e-02   -2,239232324e-02
       71150000   -8,529333770e-02   -2,393121086e-02
       71225000   -8,368954062e-02   -2,373435162e-02
       71300000   -8,375762403e-02   -2,632031031e-02
       71375000   -8,371925354e-02   -2,805845067e-02
       71450000   -8,173683286e-02   -2,882289328e-02
       71525000   -8,136647940e-02   -3,124058247e-02
       71600000   -8,209311217e-02   -3,346282244e-02
       71675000   -8,094467968e-02   -3,367693722e-02
       71750000   -8,045249432e-02   -3,534897789e-02
       71825000   -8,106678724e-02   -3,684199601e-02
       71900000   -7,881700248e-02   -3,884625435e-02
       71975000   -7,845141739e-02   -4,048778862e-02
       72050000   -7,978571206e-02   -4,262095690e-02
       72125000   -7,788665593e-02   -4,296505079e-02
       72200000   -7,830551267e-02   -4,607018456e-02
       72275000   -8,020792902e-02   -4,581791535e-02
       72350000   -7,810149342e-02   -4,903557152e-02
       72425000   -7,943092287e-02   -5,031191185e-02
       72500000   -7,978932559e-02   -5,193407089e-02
       72575000   -8,085820079e-02   -5,383770913e-02
       72650000   -7,976130396e-02   -5,574951693e-02
       72725000   -8,106061816e-02   -5,690249801e-02
       72800000   -8,285836130e-02   -5,735014006e-02
       72875000   -8,181428164e-02   -6,004516408e-02
       72950000   -8,297424763e-02   -6,016405299e-02
       73025000   -8,501659334e-02   -6,063821167e-02
       73100000   -8,376957476e-02   -6,307761371e-02
       73175000   -8,526258916e-02   -6,384168565e-02
       73250000   -8,759236336e-02   -6,321446598e-02
       73325000   -8,720567822e-02   -6,571853906e-02
       73400000   -8,730293810e-02   -6,634230912e-02
       73475000   -8,927740157e-02   -6,462801248e-02
       73550000   -8,901619166e-02   -6,810750067e-02
       73625000   -9,088832885e-02   -6,857183576e-02
       73700000   -9,098982811e-02   -6,638956815e-02
       73775000   -9,270238131e-02   -6,931437552e-02
       73850000   -9,316519648e-02   -6,946871430e-02
       73925000   -9,324853122e-02   -6,822530180e-02
       74000000   -9,575992078e-02   -6,949512661e-02
       74075000   -9,576567262e-02   -7,012066990e-02
       74150000   -9,595599771e-02   -6,874861568e-02
       74225000   -9,833060205e-02   -6,963086873e-02
       74300000   -9,819643945e-02   -6,866879016e-02
       74375000   -9,841506928e-02   -6,878279150e-02
       74450000   -1,008842140e-01   -6,933867931e-02
       74525000   -1,004272997e-01   -6,897386909e-02
       74600000   -1,014851406e-01   -6,810359657e-02
       74675000   -1,017064676e-01   -6,787499040e-02
       74750000   -1,028226912e-01   -6,824988127e-02
       74825000   -1,024436057e-01   -6,611562520e-02
       74900000   -1,032598913e-01   -6,703006476e-02
       74975000   -1,047969535e-01   -6,568906456e-02
       75050000   -1,041322127e-01   -6,550920010e-02
       75125000   -1,058866754e-01   -6,459736824e-02
       75200000   -1,059256867e-01   -6,479600817e-02
       75275000   -1,056942940e-01   -6,384377182e-02
       75350000   -1,057537124e-01   -6,302867830e-02
       75425000   -1,070329323e-01   -6,256663054e-02
       75500000   -1,064043492e-01   -6,137087569e-02
       75575000   -1,071010754e-01   -6,156146154e-02
       75650000   -1,081826016e-01   -5,994672328e-02
       75725000   -1,083826572e-01   -5,982112139e-02
       75800000   -1,069867834e-01   -5,916521698e-02
       75875000   -1,098965928e-01   -5,779556930e-02
       75950000   -1,098599359e-01   -5,701972172e-02
       76025000   -1,089580283e-01   -5,741561204e-02
       76100000   -1,110396460e-01   -5,550578609e-02
       76175000   -1,102657467e-01   -5,401126668e-02
       76250000   -1,106581762e-01   -5,426773056e-02
       76325000   -1,115232930e-01   -5,190483481e-02
       76400000   -1,122489199e-01   -5,090933666e-02
       76475000   -1,122938544e-01   -5,040891096e-02
       76550000   -1,125886515e-01   -4,809478670e-02
       76625000   -1,129234657e-01   -4,729881138e-02
       76700000   -1,136391088e-01   -4,646027461e-02
       76775000   -1,132272556e-01   -4,410229251e-02
       76850000   -1,132778823e-01   -4,364006221e-02
       76925000   -1,142182127e-01   -4,276586697e-02
       77000000   -1,132253334e-01   -4,011422396e-02
       77075000   -1,138138622e-01   -3,804072738e-02
       77150000   -1,136292741e-01   -3,768676519e-02
       77225000   -1,146015301e-01   -3,471118584e-02
       77300000   -1,144700721e-01   -3,263984993e-02
       77375000   -1,147025675e-01   -3,181009367e-02
       77450000   -1,142735034e-01   -2,875294723e-02
       77525000   -1,140499711e-01   -2,670568414e-02
       77600000   -1,136741042e-01   -2,608740702e-02
       77675000   -1,133567914e-01   -2,270642482e-02
       77750000   -1,121297628e-01   -2,109498344e-02
       77825000   -1,119834930e-01   -1,921355352e-02
       77900000   -1,116305143e-01   -1,581879891e-02
       77975000   -1,103596538e-01   -1,374238357e-02
       78050000   -1,102332994e-01   -1,222237106e-02
       78125000   -1,096835583e-01   -9,779149666e-03
       78200000   -1,070711389e-01   -7,049667183e-03
       78275000   -1,068737954e-01   -5,794805009e-03
       78350000   -1,063544750e-01   -3,052788787e-03
       78425000   -1,042102426e-01    1,165839240e-05
       78500000   -1,025608405e-01    2,053374425e-03
       78575000   -1,024211720e-01    4,497196991e-03
       78650000   -9,916718304e-02    7,469965611e-03
       78725000   -9,767202288e-02    9,661745280e-03
       78800000   -9,737087786e-02    1,151061710e-02
       78875000   -9,332789481e-02    1,420804486e-02
       78950000   -9,182512760e-02    1,655583456e-02
       79025000   -9,026498348e-02    1,958084852e-02
       79100000   -8,730252087e-02    2,082641236e-02
       79175000   -8,494400233e-02    2,373136021e-02
       79250000   -8,272699267e-02    2,547539212e-02
       79325000   -7,976254821e-02    2,716009878e-02
       79400000   -7,618373632e-02    2,937446535e-02
       79475000   -7,471159101e-02    3,164264560e-02
       79550000   -7,074078172e-02    3,321823850e-02
       79625000   -6,756990403e-02    3,381805122e-02
       79700000   -6,557351351e-02    3,610483930e-02
       79775000   -6,135519221e-02    3,825420886e-02
       79850000   -5,762576684e-02    3,911303729e-02
       79925000   -5,530835316e-02    4,091494530e-02
       80000000   -5,116464943e-02    4,142031074e-02
       80075000   -4,760174081e-02    4,283386096e-02
       80150000   -4,467694461e-02    4,453059286e-02
       80225000   -4,081644118e-02    4,455290735e-02
       80300000   -3,781186789e-02    4,526856914e-02
       80375000   -3,373240307e-02    4,560006782e-02
       80450000   -3,007364087e-02    4,529582337e-02
       80525000   -2,753145061e-02    4,636351019e-02
       80600000   -2,381470241e-02    4,627989605e-02
       80675000   -2,020021901e-02    4,587882385e-02
       80750000   -1,687070355e-02    4,671542346e-02
       80825000   -1,309064683e-02    4,558140039e-02
       80900000   -9,834886529e-03    4,571140930e-02
       80975000   -6,477292627e-03    4,526264593e-02
       81050000   -3,102482297e-03    4,425458610e-02
       81125000    1,930095605e-04    4,417153820e-02
       81200000    3,004095983e-03    4,266334325e-02
       81275000    5,334043410e-03    4,278229550e-02
       81350000    9,609886445e-03    4,093379155e-02
       81425000    1,150942594e-02    4,038862884e-02
       81500000    1,515302714e-02    3,921438754e-02
       81575000    1,686519384e-02    3,790447488e-02
       81650000    1,960853487e-02    3,769304231e-02
       81725000    2,161414362e-02    3,698461875e-02
       81800000    2,458948269e-02    3,472708538e-02
       81875000    2,677194960e-02    3,458070010e-02
       81950000    2,937057056e-02    3,264382854e-02
       82025000    3,083884530e-02    3,196642548e-02
       82100000    3,371102735e-02    3,085490875e-02
       82175000    3,534857929e-02    3,021323867e-02
       82250000    3,681101650e-02    2,820014581e-02
       82325000    3,845173493e-02    2,821671776e-02
       82400000    4,084433243e-02    2,722542919e-02
       82475000    4,162181541e-02    2,502688020e-02
       82550000    4,361608624e-02    2,552713268e-02
       82625000    4,574590921e-02    2,378349379e-02
       82700000    4,626503959e-02    2,351769060e-02
       82775000    4,872885346e-02    2,302431874e-02
       82850000    4,979611188e-02    2,220158838e-02
       82925000    5,125326663e-02    2,134690061e-02
       83000000    5,227575451e-02    2,123888396e-02
       83075000    5,487385020e-02    2,037884481e-02
       83150000    5,540490523e-02    2,057517320e-02
       83225000    5,688888580e-02    1,970107295e-02
       83300000    5,836123601e-02    1,938490570e-02
       83375000    6,055052578e-02    1,966857538e-02
       83450000    6,121761352e-02    1,913630217e-02
       83525000    6,363639235e-02    1,958549395e-02
       83600000    6,453486532e-02    1,909706928e-02
       83675000    6,633006036e-02    1,979605295e-02
       83750000    6,822001934e-02    1,911204122e-02
       83825000    6,887343526e-02    1,882142387e-02
       83900000    7,196357101e-02    1,976406947e-02
       83975000    7,357263565e-02    1,931281574e-02
       84050000    7,538944483e-02    2,020860650e-02
       84125000    7,732695341e-02    1,947706565e-02
       84200000    7,884484529e-02    2,025176957e-02
       84275000    8,187273890e-02    1,992788538e-02
       84350000    8,402360231e-02    2,001794428e-02
       84425000    8,596261591e-02    2,079305984e-02
       84500000    8,784016222e-02    2,043424919e-02
       84575000    9,023451805e-02    2,130630985e-02
       84650000    9,304249287e-02    2,042729035e-02
       84725000    9,434916824e-02    2,072508261e-02
       84800000    9,750963748e-02    2,206937410e-02
       84875000    9,951654077e-02    2,108703554e-02
       84950000    1,016203985e-01    2,135024406e-02
       85025000    1,054632366e-01    2,226371132e-02
       85100000    1,079215184e-01    2,199314535e-02
       85175000    1,104135662e-01    2,136146650e-02
       85250000    1,143010855e-01    2,261341922e-02
       85325000    1,168619171e-01    2,182957716e-02
       85400000    1,191417053e-01    2,253885753e-02
       85475000    1,230366901e-01    2,289501950e-02
       85550000    1,259924918e-01    2,183841728e-02
       85625000    1,287423521e-01    2,288708836e-02
       85700000    1,333718896e-01    2,282391489e-02
       85775000    1,361935139e-01    2,197121084e-02
       85850000    1,396796703e-01    2,192724124e-02
       85925000    1,438276321e-01    2,346252836e-02
       86000000    1,478909105e-01    2,129278705e-02
       86075000    1,510007381e-01    2,170043625e-02
       86150000    1,565885097e-01    2,043986879e-02
       86225000    1,598633081e-01    1,943355799e-02
       86300000    1,634141654e-01    1,868586987e-02
       86375000    1,680517793e-01    1,772650518e-02
       86450000    1,713806391e-01    1,710458286e-02
       86525000    1,761853695e-01    1,541130058e-02
       86600000    1,805369705e-01    1,324516255e-02
       86675000    1,839871407e-01    1,251409762e-02
       86750000    1,878345311e-01    1,100557018e-02
       86825000    1,925136149e-01    8,531609550e-03
       86900000    1,953326762e-01    6,642475724e-03
       86975000    1,995725781e-01    5,515923724e-03
       87050000    2,045012861e-01    2,934490331e-03
       87125000    2,083319575e-01    3,576365998e-04
       87200000    2,109032869e-01   -1,043756609e-03
       87275000    2,170891464e-01   -3,967121243e-03
       87350000    2,195791900e-01   -6,895385217e-03
       87425000    2,227766067e-01   -7,743082009e-03
       87500000    2,258471549e-01   -1,264946163e-02
       87575000    2,300605327e-01   -1,357976906e-02
       87650000    2,345808595e-01   -1,650348119e-02
       87725000    2,371095717e-01   -1,965639740e-02
       87800000    2,410959303e-01   -2,198476717e-02
       87875000    2,440324724e-01   -2,484999783e-02
       87950000    2,471092939e-01   -2,748767659e-02
       88025000    2,507541776e-01   -2,993640862e-02
       88100000    2,542837560e-01   -3,289766982e-02
       88175000    2,565434277e-01   -3,635386750e-02
       88250000    2,612334788e-01   -3,903757408e-02
       88325000    2,645123601e-01   -4,240152612e-02
       88400000    2,673393488e-01   -4,414796829e-02
       88475000    2,709828913e-01   -4,868241027e-02
       88550000    2,736324370e-01   -5,027591437e-02
       88625000    2,774101496e-01   -5,404742435e-02
       88700000    2,804801464e-01   -5,778137594e-02
       88775000    2,838089764e-01   -6,144531444e-02
       88850000    2,862284184e-01   -6,410656869e-02
       88925000    2,903167009e-01   -6,804173440e-02
       89000000    2,925550342e-01   -7,246640325e-02
       89075000    2,972852588e-01   -7,453551888e-02
       89150000    2,992108762e-01   -7,949108630e-02
       89225000    3,026557863e-01   -8,232380450e-02
       89300000    3,067509532e-01   -8,618147671e-02
       89375000    3,094992638e-01   -9,052614123e-02
       89450000    3,132521808e-01   -9,487591684e-02
       89525000    3,159106672e-01   -9,876197577e-02
       89600000    3,189941347e-01   -1,033782363e-01
       89675000    3,224069476e-01   -1,073487699e-01
       89750000    3,245263696e-01   -1,119927764e-01
       89825000    3,275237679e-01   -1,157252342e-01
       89900000    3,315572739e-01   -1,211024523e-01
       89975000    3,333793581e-01   -1,249176636e-01
       90050000    3,363104463e-01   -1,306393147e-01
       90125000    3,384125829e-01   -1,360211670e-01
       90200000    3,417134881e-01   -1,413355172e-01
       90275000    3,440320492e-01   -1,467127204e-01
       90350000    3,474732637e-01   -1,479879320e-01
       90425000    3,547206223e-01   -1,573287398e-01
       90500000    3,500386775e-01   -1,620398462e-01
       90575000    3,538279235e-01   -1,654865593e-01
       90650000    3,559312820e-01   -1,726556122e-01
       90725000    3,578619659e-01   -1,788708866e-01
       90800000    3,593578637e-01   -1,829408407e-01
       90875000    3,614250422e-01   -1,894979924e-01
       90950000    3,620746136e-01   -1,944727302e-01
       91025000    3,649817109e-01   -2,007534057e-01
       91100000    3,649893403e-01   -2,051740438e-01
       91175000    3,662580848e-01   -2,132959515e-01
       91250000    3,672476411e-01   -2,188101411e-01
       91325000    3,694601655e-01   -2,252883762e-01
       91400000    3,682609797e-01   -2,330187559e-01
       91475000    3,707386553e-01   -2,375191450e-01
       91550000    3,710174859e-01   -2,450527698e-01
       91625000    3,717605174e-01   -2,496506125e-01
       91700000    3,712630570e-01   -2,578803301e-01
       91775000    3,713276088e-01   -2,620552182e-01
       91850000    3,714818358e-01   -2,700353563e-01
       91925000    3,713769317e-01   -2,744702399e-01
