! NanoVNA-App
! Date: 2025-08-09 13:25:22
! Start: 65MHz Stop: 95MHz Points: 401
! S-Parameter data: F S11
# Hz S RI R 50
!     Frequency           S11_Real           S11_Imag
       65000000    2,179721147e-01    3,680720329e-01
       65075000    2,213991433e-01    3,619389832e-01
       65150000    2,225772887e-01    3,590925038e-01
       65225000    2,245249450e-01    3,527564406e-01
       65300000    2,288465500e-01    3,485391736e-01
       65375000    2,314146906e-01    3,453324735e-01
       65450000    2,337224185e-01    3,415090740e-01
       65525000    2,364882380e-01    3,372869492e-01
       65600000    2,396455109e-01    3,328334093e-01
       65675000    2,410209477e-01    3,288498521e-01
       65750000    2,439052165e-01    3,251342773e-01
       65825000    2,450988144e-01    3,195446730e-01
       65900000    2,469964772e-01    3,155791461e-01
       65975000    2,493493259e-01    3,108586371e-01
       66050000    2,517873645e-01    3,069452345e-01
       66125000    2,545988560e-01    3,047440350e-01
       66200000    2,558051646e-01    3,005740643e-01
       66275000    2,599469721e-01    2,964754701e-01
       66350000    2,610466480e-01    2,932334244e-01
       66425000    2,630577683e-01    2,878409028e-01
       66500000    2,647800744e-01    2,841668427e-01
       66575000    2,666482329e-01    2,801024914e-01
       66650000    2,683965862e-01    2,758316696e-01
       66725000    2,711048424e-01    2,735739648e-01
       66800000    2,736416757e-01    2,701840401e-01
       66875000    2,759431601e-01    2,669981122e-01
       66950000    2,777025998e-01    2,627940774e-01
       67025000    2,798372209e-01    2,599875927e-01
       67100000    2,813063264e-01    2,561361790e-01
       67175000    2,837266028e-01    2,512594461e-01
       67250000    2,866730392e-01    2,477254719e-01
       67325000    2,886442542e-01    2,435022295e-01
       67400000    2,900877595e-01    2,392276525e-01
       67475000    2,934153378e-01    2,371196151e-01
       67550000    2,940895855e-01    2,323317677e-01
       67625000    2,960121334e-01    2,284190059e-01
       67700000    2,982833683e-01    2,244731337e-01
       67775000    3,003367484e-01    2,224362493e-01
       67850000    3,018690944e-01    2,176138312e-01
       67925000    3,036840260e-01    2,141433805e-01
       68000000    3,056677878e-01    2,089974135e-01
       68075000    3,091191351e-01    2,060701698e-01
       68150000    3,105202615e-01    2,011476904e-01
       68225000    3,120859861e-01    1,970446557e-01
       68300000    3,141897619e-01    1,938248426e-01
       68375000    3,148292899e-01    1,890571713e-01
       68450000    3,155630529e-01    1,843635738e-01
       68525000    3,179802001e-01    1,790711880e-01
       68600000    3,185320795e-01    1,758032888e-01
       68675000    3,206414580e-01    1,717920899e-01
       68750000    3,227001429e-01    1,671219617e-01
       68825000    3,221884668e-01    1,632181853e-01
       68900000    3,234198391e-01    1,586689502e-01
       68975000    3,234806657e-01    1,540895700e-01
       69050000    3,251457512e-01    1,504069567e-01
       69125000    3,250540197e-01    1,452662796e-01
       69200000    3,247537017e-01    1,410956979e-01
       69275000    3,261761069e-01    1,366564929e-01
       69350000    3,262970448e-01    1,325641274e-01
       69425000    3,257533312e-01    1,286058128e-01
       69500000    3,263005018e-01    1,248379350e-01
       69575000    3,260319531e-01    1,199086010e-01
       69650000    3,254723549e-01    1,166941747e-01
       69725000    3,249363899e-01    1,124746203e-01
       69800000    3,248170614e-01    1,075381562e-01
       69875000    3,241917789e-01    1,053469181e-01
       69950000    3,243010938e-01    1,014872491e-01
       70025000    3,225174248e-01    9,626985341e-02
       70100000    3,223115802e-01    9,494849294e-02
       70175000    3,214591444e-01    9,127791226e-02
       70250000    3,209952712e-01    8,757630736e-02
       70325000    3,202864528e-01    8,433720469e-02
       70400000    3,189983368e-01    8,155333996e-02
       70475000    3,182129264e-01    7,873923331e-02
       70550000    3,174822628e-01    7,602864504e-02
       70625000    3,161769211e-01    7,268053293e-02
       70700000    3,160371482e-01    7,058983296e-02
       70775000    3,151585460e-01    6,849335134e-02
       70850000    3,130544126e-01    6,650432944e-02
       70925000    3,128703237e-01    6,449057907e-02
       71000000    3,127154410e-01    6,240932643e-02
       71075000    3,107097149e-01    6,048895046e-02
       71150000    3,109402061e-01    5,741083622e-02
       71225000    3,102808297e-01    5,644948408e-02
       71300000    3,089514077e-01    5,419703573e-02
       71375000    3,094612956e-01    5,199242011e-02
       71450000    3,091068268e-01    4,994983226e-02
       71525000    3,084364533e-01    4,830069467e-02
       71600000    3,073457479e-01    4,633576423e-02
       71675000    3,081941605e-01    4,469943047e-02
       71750000    3,076472878e-01    4,239945486e-02
       71825000    3,065442145e-01    4,097555578e-02
       71900000    3,070336878e-01    3,937565163e-02
       71975000    3,060809970e-01    3,755494207e-02
       72050000    3,051572442e-01    3,543941677e-02
       72125000    3,052943051e-01    3,425949439e-02
       72200000    3,049208820e-01    3,191891685e-02
       72275000    3,045272529e-01    3,136000410e-02
       72350000    3,051146567e-01    2,948859334e-02
       72425000    3,037544787e-01    2,812539600e-02
       72500000    3,031002581e-01    2,522836998e-02
       72575000    3,027392030e-01    2,518535964e-02
       72650000    3,030913770e-01    2,336619981e-02
       72725000    3,029517233e-01    2,167543024e-02
       72800000    3,027955294e-01    2,071203850e-02
       72875000    3,021891117e-01    1,881211251e-02
       72950000    3,008052707e-01    1,748704724e-02
       73025000    3,014739454e-01    1,554811280e-02
       73100000    3,009507954e-01    1,492555533e-02
       73175000    3,008233607e-01    1,385419630e-02
       73250000    3,005810380e-01    1,218742598e-02
       73325000    3,001164496e-01    1,135831233e-02
       73400000    3,002258241e-01    1,019713096e-02
       73475000    3,003669083e-01    8,627606556e-03
       73550000    3,002092540e-01    7,556920871e-03
       73625000    2,991582751e-01    6,019819994e-03
       73700000    3,006255031e-01    5,394686479e-03
       73775000    2,997524440e-01    3,378360299e-03
       73850000    2,997083068e-01    3,075703979e-03
       73925000    3,007439077e-01    1,573790098e-03
       74000000    3,002392352e-01    1,262137201e-03
       74075000    3,009184599e-01   -7,596227224e-04
       74150000    3,005044162e-01   -1,945403055e-03
       74225000    3,009307981e-01   -3,385433462e-03
       74300000    3,006874323e-01   -3,907104023e-03
       74375000    3,019680083e-01   -5,489215255e-03
       74450000    3,010862470e-01   -6,893798243e-03
       74525000    3,013343215e-01   -8,159597404e-03
       74600000    3,002722859e-01   -9,984827600e-03
       74675000    3,016779721e-01   -1,047689468e-02
       74750000    3,016030788e-01   -1,281881798e-02
       74825000    3,013177514e-01   -1,229018252e-02
       74900000    3,019450009e-01   -1,389060449e-02
       74975000    3,016102612e-01   -1,605036855e-02
       75050000    3,019432724e-01   -1,669312268e-02
       75125000    3,015163541e-01   -1,890532486e-02
       75200000    3,030090928e-01   -1,922361925e-02
       75275000    3,020578027e-01   -2,099795267e-02
       75350000    3,021920025e-01   -2,164046094e-02
       75425000    3,030480146e-01   -2,271954156e-02
       75500000    3,023732007e-01   -2,292715758e-02
       75575000    3,025890589e-01   -2,527870797e-02
       75650000    3,030014336e-01   -2,527985349e-02
       75725000    3,031186163e-01   -2,690652385e-02
       75800000    3,017491400e-01   -2,761701681e-02
       75875000    3,026623130e-01   -2,921819873e-02
       75950000    3,023857772e-01   -2,996439673e-02
       76025000    3,024012744e-01   -3,137100860e-02
       76100000    3,021734357e-01   -3,323943168e-02
       76175000    3,030454218e-01   -3,281588852e-02
       76250000    3,020200133e-01   -3,439611942e-02
       76325000    3,013023734e-01   -3,520287201e-02
       76400000    3,026531637e-01   -3,653540090e-02
       76475000    3,014131486e-01   -3,819239512e-02
       76550000    3,011464477e-01   -3,803921863e-02
       76625000    3,015091717e-01   -3,988644853e-02
       76700000    3,004761934e-01   -4,035151377e-02
       76775000    2,998304665e-01   -4,001343995e-02
       76850000    3,012186289e-01   -4,249374568e-02
       76925000    3,012887836e-01   -4,254641011e-02
       77000000    3,006234467e-01   -4,258919507e-02
       77075000    3,008011281e-01   -4,359865189e-02
       77150000    3,008396626e-01   -4,459904507e-02
       77225000    3,004141152e-01   -4,433183745e-02
       77300000    2,986650765e-01   -4,617198929e-02
       77375000    2,999365926e-01   -4,624031857e-02
       77450000    2,991980314e-01   -4,733237252e-02
       77525000    2,986369729e-01   -4,804556817e-02
       77600000    2,995163798e-01   -4,689307138e-02
       77675000    2,988795340e-01   -4,820670187e-02
       77750000    2,989636958e-01   -4,723855481e-02
       77825000    2,989394665e-01   -4,740397632e-02
       77900000    2,981695533e-01   -4,701475427e-02
       77975000    2,975412309e-01   -4,653122276e-02
       78050000    2,973930836e-01   -4,627364129e-02
       78125000    2,985928059e-01   -4,490293190e-02
       78200000    2,975964248e-01   -4,384644330e-02
       78275000    2,990586758e-01   -4,243117198e-02
       78350000    3,004302084e-01   -4,124481976e-02
       78425000    3,022106886e-01   -4,030347615e-02
       78500000    3,042720556e-01   -3,901833668e-02
       78575000    3,066645861e-01   -3,957894817e-02
       78650000    3,067612946e-01   -4,042652622e-02
       78725000    3,100354671e-01   -4,004020989e-02
       78800000    3,109315634e-01   -4,126027226e-02
       78875000    3,111431897e-01   -4,154291376e-02
       78950000    3,134603500e-01   -4,190204665e-02
       79025000    3,150416017e-01   -4,234101996e-02
       79100000    3,163771927e-01   -4,213092476e-02
       79175000    3,178952336e-01   -4,244904220e-02
       79250000    3,193180263e-01   -4,142050818e-02
       79325000    3,211736381e-01   -4,232561588e-02
       79400000    3,221278489e-01   -4,320322722e-02
       79475000    3,242623508e-01   -4,300996661e-02
       79550000    3,266368508e-01   -4,313968495e-02
       79625000    3,272476494e-01   -4,351278394e-02
       79700000    3,293494582e-01   -4,431466013e-02
       79775000    3,310038745e-01   -4,491898045e-02
       79850000    3,323158026e-01   -4,367184266e-02
       79925000    3,348357081e-01   -4,494511336e-02
       80000000    3,363348246e-01   -4,533738270e-02
       80075000    3,379566073e-01   -4,496281222e-02
       80150000    3,410906792e-01   -4,634686187e-02
       80225000    3,436739147e-01   -4,651749879e-02
       80300000    3,454608023e-01   -4,651826620e-02
       80375000    3,477440178e-01   -4,683240131e-02
       80450000    3,481077552e-01   -4,846261442e-02
       80525000    3,519294858e-01   -4,862049595e-02
       80600000    3,543378115e-01   -5,014161766e-02
       80675000    3,576694131e-01   -5,044293776e-02
       80750000    3,599295318e-01   -5,215805024e-02
       80825000    3,621907830e-01   -5,245645344e-02
       80900000    3,650990129e-01   -5,331098288e-02
       80975000    3,679257333e-01   -5,564209819e-02
       81050000    3,699317276e-01   -5,498266593e-02
       81125000    3,728308976e-01   -5,709604919e-02
       81200000    3,749579489e-01   -5,833251029e-02
       81275000    3,781519234e-01   -6,030823663e-02
       81350000    3,800152540e-01   -6,157287583e-02
       81425000    3,835557401e-01   -6,314279884e-02
       81500000    3,864673376e-01   -6,546503305e-02
       81575000    3,889728189e-01   -6,667004526e-02
       81650000    3,918671608e-01   -6,874569505e-02
       81725000    3,943319917e-01   -7,014392316e-02
       81800000    3,966138959e-01   -7,231558114e-02
       81875000    3,992967606e-01   -7,523153722e-02
       81950000    4,013724625e-01   -7,751992345e-02
       82025000    4,049131870e-01   -7,962439209e-02
       82100000    4,072673917e-01   -8,259841800e-02
       82175000    4,098661542e-01   -8,314596117e-02
       82250000    4,127308130e-01   -8,736392111e-02
       82325000    4,151827395e-01   -8,773156255e-02
       82400000    4,182678759e-01   -9,079944342e-02
       82475000    4,195457995e-01   -9,370033443e-02
       82550000    4,225277007e-01   -9,669830650e-02
       82625000    4,243423939e-01   -9,922643006e-02
       82700000    4,276182055e-01   -1,019593999e-01
       82775000    4,286826849e-01   -1,056134328e-01
       82850000    4,326594770e-01   -1,081292704e-01
       82925000    4,333299398e-01   -1,117180735e-01
       83000000    4,371334016e-01   -1,147284359e-01
       83075000    4,390328228e-01   -1,181088313e-01
       83150000    4,415053427e-01   -1,203043237e-01
       83225000    4,427420795e-01   -1,250604540e-01
       83300000    4,464220703e-01   -1,281124204e-01
       83375000    4,480807483e-01   -1,325150430e-01
       83450000    4,504390359e-01   -1,335454732e-01
       83525000    4,526190162e-01   -1,382917315e-01
       83600000    4,535660148e-01   -1,415982991e-01
       83675000    4,565862417e-01   -1,466405243e-01
       83750000    4,578553438e-01   -1,510030776e-01
       83825000    4,595620930e-01   -1,534320861e-01
       83900000    4,612728953e-01   -1,576876491e-01
       83975000    4,625375271e-01   -1,625000089e-01
       84050000    4,643613696e-01   -1,664920598e-01
       84125000    4,645682275e-01   -1,718104631e-01
       84200000    4,669873714e-01   -1,736147702e-01
       84275000    4,677789807e-01   -1,782209277e-01
       84350000    4,685570300e-01   -1,818248332e-01
       84425000    4,701720774e-01   -1,867747456e-01
       84500000    4,708086550e-01   -1,915992498e-01
       84575000    4,735833704e-01   -1,949503571e-01
       84650000    4,744683206e-01   -1,997617185e-01
       84725000    4,743119180e-01   -2,047201395e-01
       84800000    4,751343429e-01   -2,093155086e-01
       84875000    4,747818112e-01   -2,141149044e-01
       84950000    4,773043990e-01   -2,165824324e-01
       85025000    4,780381322e-01   -2,226870656e-01
       85100000    4,778298140e-01   -2,264174223e-01
       85175000    4,766516089e-01   -2,310617417e-01
       85250000    4,771278501e-01   -2,362707853e-01
       85325000    4,776999056e-01   -2,420972735e-01
       85400000    4,786834121e-01   -2,444336414e-01
       85475000    4,776224792e-01   -2,499932796e-01
       85550000    4,764801860e-01   -2,555560768e-01
       85625000    4,749144316e-01   -2,588165700e-01
       85700000    4,761277735e-01   -2,645676732e-01
       85775000    4,760770798e-01   -2,688900232e-01
       85850000    4,729861319e-01   -2,736932039e-01
       85925000    4,735926390e-01   -2,757290602e-01
       86000000    4,731496572e-01   -2,813546658e-01
       86075000    4,703938365e-01   -2,851805985e-01
       86150000    4,716175199e-01   -2,908943594e-01
       86225000    4,694398046e-01   -2,952210307e-01
       86300000    4,693015516e-01   -2,985613346e-01
       86375000    4,679645300e-01   -3,028839529e-01
       86450000    4,664855599e-01   -3,063026071e-01
       86525000    4,642593861e-01   -3,123267293e-01
       86600000    4,630861878e-01   -3,155621588e-01
       86675000    4,607487023e-01   -3,176755607e-01
       86750000    4,597509503e-01   -3,232796192e-01
       86825000    4,578414261e-01   -3,272447586e-01
       86900000    4,529848695e-01   -3,314716816e-01
       86975000    4,522981048e-01   -3,344681561e-01
       87050000    4,522066116e-01   -3,370307386e-01
       87125000    4,484562874e-01   -3,417964280e-01
       87200000    4,455879331e-01   -3,438829482e-01
       87275000    4,459205270e-01   -3,467794359e-01
       87350000    4,431852102e-01   -3,505841494e-01
       87425000    4,396484196e-01   -3,535983562e-01
       87500000    4,365321100e-01   -3,560691178e-01
       87575000    4,355646968e-01   -3,609909713e-01
       87650000    4,345289767e-01   -3,630034626e-01
       87725000    4,346154332e-01   -3,655923605e-01
       87800000    4,316948354e-01   -3,668667376e-01
       87875000    4,290502071e-01   -3,706990778e-01
       87950000    4,247330129e-01   -3,743007779e-01
       88025000    4,218998849e-01   -3,751890361e-01
       88100000    4,217329323e-01   -3,790833950e-01
       88175000    4,199333787e-01   -3,818720281e-01
       88250000    4,178128541e-01   -3,823731840e-01
       88325000    4,157879353e-01   -3,866180778e-01
       88400000    4,119849801e-01   -3,897383213e-01
       88475000    4,124218524e-01   -3,917025030e-01
       88550000    4,072023332e-01   -3,940114379e-01
       88625000    4,058479369e-01   -3,938880563e-01
       88700000    4,048497379e-01   -3,977238536e-01
       88775000    4,011107087e-01   -4,002152085e-01
       88850000    3,991165161e-01   -4,033270180e-01
       88925000    3,947064281e-01   -4,028137028e-01
       89000000    3,921490312e-01   -4,058192074e-01
       89075000    3,890039921e-01   -4,082427621e-01
       89150000    3,879652619e-01   -4,101680815e-01
       89225000    3,847086728e-01   -4,121199846e-01
       89300000    3,824663162e-01   -4,127775729e-01
       89375000    3,789406121e-01   -4,148541391e-01
       89450000    3,772502244e-01   -4,144923985e-01
       89525000    3,735927045e-01   -4,150857925e-01
       89600000    3,702342212e-01   -4,143102467e-01
       89675000    3,693300486e-01   -4,152339995e-01
       89750000    3,665522933e-01   -4,162710607e-01
       89825000    3,644837737e-01   -4,171578586e-01
       89900000    3,623884916e-01   -4,147340655e-01
       89975000    3,601780832e-01   -4,162296951e-01
       90050000    3,583377004e-01   -4,136537611e-01
       90125000    3,556374013e-01   -4,147300422e-01
       90200000    3,523907661e-01   -4,133704007e-01
       90275000    3,542700410e-01   -4,119306505e-01
       90350000    3,521698117e-01   -4,128485918e-01
       90425000    3,493282199e-01   -4,110899568e-01
       90500000    3,508148789e-01   -4,110343158e-01
       90575000    3,514991403e-01   -4,108279347e-01
       90650000    3,502557874e-01   -4,077764750e-01
       90725000    3,533945084e-01   -4,074037969e-01
       90800000    3,521262109e-01   -4,089380503e-01
       90875000    3,537551165e-01   -4,063063562e-01
       90950000    3,538914323e-01   -4,070293307e-01
       91025000    3,553597629e-01   -4,052346647e-01
       91100000    3,572213650e-01   -4,067691565e-01
       91175000    3,564111292e-01   -4,065050483e-01
       91250000    3,586286306e-01   -4,077085555e-01
       91325000    3,590096235e-01   -4,070689380e-01
       91400000    3,629882038e-01   -4,092443287e-01
       91475000    3,643336892e-01   -4,119137824e-01
       91550000    3,671398759e-01   -4,115192294e-01
       91625000    3,678534329e-01   -4,143837094e-01
       91700000    3,706924617e-01   -4,146049023e-01
       91775000    3,725294471e-01   -4,177036583e-01
       91850000    3,736639023e-01   -4,176815450e-01
       91925000    3,750658631e-01   -4,214140177e-01
