! NanoVNA-App
! Date: 2025-08-09 13:30:04
! Start: 65MHz Stop: 95MHz Points: 401
! S-Parameter data: F S11
# Hz S RI R 50
!     Frequency           S11_Real           S11_Imag
       65000000   -4,016977549e-01   -8,352499008e-01
       65075000   -3,974348903e-01   -8,318399787e-01
       65150000   -4,007084370e-01   -8,375214338e-01
       65225000   -4,009382129e-01   -8,360978961e-01
       65300000   -4,019455016e-01   -8,309583068e-01
       65375000   -4,050720036e-01   -8,243991733e-01
       65450000   -4,116647840e-01   -8,274522424e-01
       65525000   -4,122453034e-01   -8,251101971e-01
       65600000   -4,129458964e-01   -8,251791000e-01
       65675000   -4,184258580e-01   -8,252130151e-01
       65750000   -4,174594879e-01   -8,246008158e-01
       65825000   -4,165580571e-01   -8,244780302e-01
       65900000   -4,184539914e-01   -8,207256794e-01
       65975000   -4,207397699e-01   -8,208092451e-01
       66050000   -4,218751192e-01   -8,173084259e-01
       66125000   -4,274289012e-01   -8,174227476e-01
       66200000   -4,265972078e-01   -8,196865320e-01
       66275000   -4,337739944e-01   -8,126059771e-01
       66350000   -4,313175976e-01   -8,134813905e-01
       66425000   -4,327464402e-01   -8,125005364e-01
       66500000   -4,351214767e-01   -8,069569468e-01
       66575000   -4,360859990e-01   -8,083869815e-01
       66650000   -4,403100908e-01   -8,031244874e-01
       66725000   -4,433509409e-01   -8,069803119e-01
       66800000   -4,465303421e-01   -8,070896864e-01
       66875000   -4,466284811e-01   -8,037663698e-01
       66950000   -4,496119320e-01   -8,030045629e-01
       67025000   -4,510107636e-01   -8,022611737e-01
       67100000   -4,511030614e-01   -7,994372249e-01
       67175000   -4,541812241e-01   -7,952179313e-01
       67250000   -4,598006606e-01   -7,919266820e-01
       67325000   -4,592088461e-01   -7,899937034e-01
       67400000   -4,597571790e-01   -7,897499204e-01
       67475000   -4,644349813e-01   -7,917073369e-01
       67550000   -4,629142880e-01   -7,861162424e-01
       67625000   -4,658924639e-01   -7,850710154e-01
       67700000   -4,690829217e-01   -7,819765210e-01
       67775000   -4,672381580e-01   -7,844316363e-01
       67850000   -4,703156352e-01   -7,817479372e-01
       67925000   -4,712145925e-01   -7,794778347e-01
       68000000   -4,734486043e-01   -7,790576220e-01
       68075000   -4,801262915e-01   -7,756994367e-01
       68150000   -4,804908335e-01   -7,750025392e-01
       68225000   -4,814970195e-01   -7,759910226e-01
       68300000   -4,819332659e-01   -7,741758227e-01
       68375000   -4,844630659e-01   -7,733088732e-01
       68450000   -4,866353273e-01   -7,661809325e-01
       68525000   -4,869182706e-01   -7,653250694e-01
       68600000   -4,911183417e-01   -7,620739937e-01
       68675000   -4,934064746e-01   -7,631990910e-01
       68750000   -4,970460236e-01   -7,615523934e-01
       68825000   -4,957790375e-01   -7,623454928e-01
       68900000   -4,991206825e-01   -7,616758347e-01
       68975000   -4,985469580e-01   -7,593693137e-01
       69050000   -5,016936660e-01   -7,584229708e-01
       69125000   -5,018621683e-01   -7,558806539e-01
       69200000   -5,053462982e-01   -7,541185617e-01
       69275000   -5,054024458e-01   -7,522636056e-01
       69350000   -5,075615048e-01   -7,504745126e-01
       69425000   -5,079302788e-01   -7,488377094e-01
       69500000   -5,106862187e-01   -7,474129796e-01
       69575000   -5,114008188e-01   -7,420263886e-01
       69650000   -5,135514736e-01   -7,433751225e-01
       69725000   -5,152773261e-01   -7,377872467e-01
       69800000   -5,159454346e-01   -7,379463315e-01
       69875000   -5,186099410e-01   -7,344091535e-01
       69950000   -5,220932961e-01   -7,365694642e-01
       70025000   -5,226902962e-01   -7,317265868e-01
       70100000   -5,266300440e-01   -7,341439724e-01
       70175000   -5,243520737e-01   -7,296893001e-01
       70250000   -5,269612074e-01   -7,279847860e-01
       70325000   -5,320040584e-01   -7,226876616e-01
       70400000   -5,317257047e-01   -7,237713337e-01
       70475000   -5,359124541e-01   -7,249037623e-01
       70550000   -5,329672098e-01   -7,216912508e-01
       70625000   -5,344308615e-01   -7,194610238e-01
       70700000   -5,413451791e-01   -7,190901041e-01
       70775000   -5,400556326e-01   -7,181068063e-01
       70850000   -5,435293913e-01   -7,163233757e-01
       70925000   -5,432838202e-01   -7,099067569e-01
       71000000   -5,436055660e-01   -7,101222873e-01
       71075000   -5,485310555e-01   -7,097128630e-01
       71150000   -5,475229025e-01   -7,048997283e-01
       71225000   -5,472288132e-01   -7,073148489e-01
       71300000   -5,498564839e-01   -7,061120272e-01
       71375000   -5,506667495e-01   -7,019336820e-01
       71450000   -5,551098585e-01   -7,017690539e-01
       71525000   -5,560258031e-01   -7,022234201e-01
       71600000   -5,566301942e-01   -7,001863122e-01
       71675000   -5,612564087e-01   -6,941798329e-01
       71750000   -5,608940721e-01   -6,946910024e-01
       71825000   -5,643978119e-01   -6,909475327e-01
       71900000   -5,641861558e-01   -6,919182539e-01
       71975000   -5,642825961e-01   -6,888095737e-01
       72050000   -5,654326677e-01   -6,884660125e-01
       72125000   -5,672484636e-01   -6,823257208e-01
       72200000   -5,682936907e-01   -6,836557388e-01
       72275000   -5,728755593e-01   -6,804974079e-01
       72350000   -5,727721453e-01   -6,812609434e-01
       72425000   -5,769450068e-01   -6,778221130e-01
       72500000   -5,803906322e-01   -6,737831235e-01
       72575000   -5,806497931e-01   -6,753245592e-01
       72650000   -5,764367580e-01   -6,752519011e-01
       72725000   -5,813369751e-01   -6,740527153e-01
       72800000   -5,844540000e-01   -6,707208753e-01
       72875000   -5,838093758e-01   -6,694913507e-01
       72950000   -5,872399211e-01   -6,681785583e-01
       73025000   -5,894517303e-01   -6,655517817e-01
       73100000   -5,875667930e-01   -6,611024737e-01
       73175000   -5,892853737e-01   -6,641152501e-01
       73250000   -5,899440050e-01   -6,607622504e-01
       73325000   -5,924071670e-01   -6,613573432e-01
       73400000   -5,921919942e-01   -6,565364599e-01
       73475000   -5,952746272e-01   -6,577413082e-01
       73550000   -5,963692665e-01   -6,501421332e-01
       73625000   -5,973979831e-01   -6,501809955e-01
       73700000   -6,015147567e-01   -6,475616097e-01
       73775000   -6,010339260e-01   -6,458412409e-01
       73850000   -6,051440835e-01   -6,467331052e-01
       73925000   -6,028972268e-01   -6,451824903e-01
       74000000   -6,054049730e-01   -6,445672512e-01
       74075000   -6,053717136e-01   -6,382331252e-01
       74150000   -6,092479825e-01   -6,405338645e-01
       74225000   -6,105638146e-01   -6,385539770e-01
       74300000   -6,144858599e-01   -6,342842579e-01
       74375000   -6,128550172e-01   -6,352623105e-01
       74450000   -6,129210591e-01   -6,313704252e-01
       74525000   -6,152672768e-01   -6,272456050e-01
       74600000   -6,161553860e-01   -6,275988817e-01
       74675000   -6,209561229e-01   -6,248286366e-01
       74750000   -6,209258437e-01   -6,247221828e-01
       74825000   -6,228991747e-01   -6,254653335e-01
       74900000   -6,219393015e-01   -6,225576997e-01
       74975000   -6,238562465e-01   -6,191080213e-01
       75050000   -6,267543435e-01   -6,140183806e-01
       75125000   -6,270523071e-01   -6,141639948e-01
       75200000   -6,302479506e-01   -6,114445329e-01
       75275000   -6,305337548e-01   -6,108946800e-01
       75350000   -6,340763569e-01   -6,072347760e-01
       75425000   -6,328891516e-01   -6,096131206e-01
       75500000   -6,366086006e-01   -6,073677540e-01
       75575000   -6,355744600e-01   -6,064918041e-01
       75650000   -6,380962729e-01   -6,041883230e-01
       75725000   -6,379166842e-01   -6,031117439e-01
       75800000   -6,397290230e-01   -5,999489427e-01
       75875000   -6,401643157e-01   -5,980489254e-01
       75950000   -6,428468823e-01   -5,971977115e-01
       76025000   -6,464461684e-01   -5,945569277e-01
       76100000   -6,452686191e-01   -5,929854512e-01
       76175000   -6,482274532e-01   -5,919390321e-01
       76250000   -6,459890008e-01   -5,880914330e-01
       76325000   -6,496342421e-01   -5,872532129e-01
       76400000   -6,487172246e-01   -5,838222504e-01
       76475000   -6,519350410e-01   -5,824877620e-01
       76550000   -6,524397731e-01   -5,796899796e-01
       76625000   -6,543567777e-01   -5,753985643e-01
       76700000   -6,552886367e-01   -5,753519535e-01
       76775000   -6,562572122e-01   -5,756943822e-01
       76850000   -6,590043902e-01   -5,681469440e-01
       76925000   -6,590953469e-01   -5,730496645e-01
       77000000   -6,621459723e-01   -5,704341531e-01
       77075000   -6,646260023e-01   -5,669839382e-01
       77150000   -6,655495763e-01   -5,625302792e-01
       77225000   -6,626092196e-01   -5,630473495e-01
       77300000   -6,655148864e-01   -5,603819489e-01
       77375000   -6,675305963e-01   -5,571323037e-01
       77450000   -6,689091325e-01   -5,571861267e-01
       77525000   -6,700628996e-01   -5,551036596e-01
       77600000   -6,723312736e-01   -5,521038771e-01
       77675000   -6,726882458e-01   -5,526616573e-01
       77750000   -6,740928888e-01   -5,516499877e-01
       77825000   -6,759893894e-01   -5,468630791e-01
       77900000   -6,750913858e-01   -5,478785634e-01
       77975000   -6,764535308e-01   -5,454191566e-01
       78050000   -6,799538732e-01   -5,403732657e-01
       78125000   -6,787625551e-01   -5,431101322e-01
       78200000   -6,801352501e-01   -5,395850539e-01
       78275000   -6,840414405e-01   -5,386281013e-01
       78350000   -6,817899346e-01   -5,356031060e-01
       78425000   -6,838291883e-01   -5,355010033e-01
       78500000   -6,858704090e-01   -5,332090259e-01
       78575000   -6,876819730e-01   -5,270484090e-01
       78650000   -6,886434555e-01   -5,281981826e-01
       78725000   -6,910958886e-01   -5,269041657e-01
       78800000   -6,911615729e-01   -5,226274729e-01
       78875000   -6,928579211e-01   -5,220041275e-01
       78950000   -6,956574917e-01   -5,180282593e-01
       79025000   -6,959598064e-01   -5,187602639e-01
       79100000   -6,994917989e-01   -5,162885189e-01
       79175000   -6,964352131e-01   -5,144225359e-01
       79250000   -6,990327239e-01   -5,139980912e-01
       79325000   -7,011562586e-01   -5,075742006e-01
       79400000   -7,016899586e-01   -5,082167983e-01
       79475000   -7,052992582e-01   -5,063240528e-01
       79550000   -7,032692432e-01   -5,040771961e-01
       79625000   -7,055459619e-01   -5,033565760e-01
       79700000   -7,084905505e-01   -5,008428097e-01
       79775000   -7,088811398e-01   -4,992238581e-01
       79850000   -7,097342014e-01   -4,972101152e-01
       79925000   -7,127869725e-01   -4,928365350e-01
       80000000   -7,100892663e-01   -4,945926070e-01
       80075000   -7,127971649e-01   -4,903688729e-01
       80150000   -7,158816457e-01   -4,857090712e-01
       80225000   -7,152140737e-01   -4,874656796e-01
       80300000   -7,176873088e-01   -4,859997630e-01
       80375000   -7,187057137e-01   -4,806697965e-01
       80450000   -7,206624150e-01   -4,799634516e-01
       80525000   -7,227742076e-01   -4,764496088e-01
       80600000   -7,229312062e-01   -4,763529003e-01
       80675000   -7,264869809e-01   -4,739515483e-01
       80750000   -7,242594957e-01   -4,725783467e-01
       80825000   -7,273383737e-01   -4,695903063e-01
       80900000   -7,288641930e-01   -4,648172557e-01
       80975000   -7,286549807e-01   -4,660732150e-01
       81050000   -7,305635214e-01   -4,646524191e-01
       81125000   -7,321441770e-01   -4,587013423e-01
       81200000   -7,333218455e-01   -4,585182071e-01
       81275000   -7,355056405e-01   -4,545013607e-01
       81350000   -7,355080843e-01   -4,547204375e-01
       81425000   -7,380450964e-01   -4,534419775e-01
       81500000   -7,375414371e-01   -4,512833655e-01
       81575000   -7,401908636e-01   -4,479845166e-01
       81650000   -7,416444421e-01   -4,441705942e-01
       81725000   -7,418057323e-01   -4,414635301e-01
       81800000   -7,430748343e-01   -4,413737357e-01
       81875000   -7,462852597e-01   -4,378237724e-01
       81950000   -7,456332445e-01   -4,365876019e-01
       82025000   -7,488967776e-01   -4,340493977e-01
       82100000   -7,480575442e-01   -4,332829714e-01
       82175000   -7,508070469e-01   -4,302727580e-01
       82250000   -7,505970001e-01   -4,283688366e-01
       82325000   -7,515875101e-01   -4,241978228e-01
       82400000   -7,528519630e-01   -4,206133485e-01
       82475000   -7,548143268e-01   -4,202750921e-01
       82550000   -7,562153339e-01   -4,157029390e-01
       82625000   -7,569683790e-01   -4,149720669e-01
       82700000   -7,593947053e-01   -4,115179777e-01
       82775000   -7,602397799e-01   -4,115507603e-01
       82850000   -7,618327737e-01   -4,063425064e-01
       82925000   -7,618268728e-01   -4,059170485e-01
       83000000   -7,634522319e-01   -4,012745619e-01
       83075000   -7,635761499e-01   -4,013390839e-01
       83150000   -7,663453221e-01   -3,978011310e-01
       83225000   -7,654675841e-01   -3,967548907e-01
       83300000   -7,677431107e-01   -3,920802176e-01
       83375000   -7,669479847e-01   -3,903765380e-01
       83450000   -7,692069411e-01   -3,889086246e-01
       83525000   -7,708109617e-01   -3,847814202e-01
       83600000   -7,714443207e-01   -3,824617565e-01
       83675000   -7,725741267e-01   -3,800641298e-01
       83750000   -7,720778584e-01   -3,768878877e-01
       83825000   -7,739481330e-01   -3,749983907e-01
       83900000   -7,765506506e-01   -3,695372641e-01
       83975000   -7,762570977e-01   -3,702171147e-01
       84050000   -7,781987786e-01   -3,656393290e-01
       84125000   -7,779944539e-01   -3,647858202e-01
       84200000   -7,792856693e-01   -3,612600565e-01
       84275000   -7,805718184e-01   -3,582224846e-01
       84350000   -7,802860737e-01   -3,574675918e-01
       84425000   -7,835409045e-01   -3,539452255e-01
       84500000   -7,828204036e-01   -3,519932628e-01
       84575000   -7,839841843e-01   -3,475732505e-01
       84650000   -7,845612168e-01   -3,440286815e-01
       84725000   -7,848008275e-01   -3,431858420e-01
       84800000   -7,868748903e-01   -3,392057717e-01
       84875000   -7,858637571e-01   -3,378575742e-01
       84950000   -7,876185179e-01   -3,348256052e-01
       85025000   -7,883588076e-01   -3,318228424e-01
       85100000   -7,892694473e-01   -3,268579543e-01
       85175000   -7,897577286e-01   -3,258581161e-01
       85250000   -7,921414971e-01   -3,223366439e-01
       85325000   -7,904584408e-01   -3,208081424e-01
       85400000   -7,921133637e-01   -3,169709742e-01
       85475000   -7,919272780e-01   -3,121944368e-01
       85550000   -7,916975021e-01   -3,105675578e-01
       85625000   -7,931603789e-01   -3,102347255e-01
       85700000   -7,946053147e-01   -3,051817715e-01
       85775000   -7,937902808e-01   -3,006184995e-01
       85850000   -7,945879102e-01   -3,009240925e-01
       85925000   -7,947108746e-01   -2,975647449e-01
       86000000   -7,960458398e-01   -2,925179005e-01
       86075000   -7,950340509e-01   -2,909187376e-01
       86150000   -7,965688705e-01   -2,890528738e-01
       86225000   -7,969656587e-01   -2,865757644e-01
       86300000   -7,971438766e-01   -2,818811238e-01
       86375000   -7,976631522e-01   -2,787457108e-01
       86450000   -7,974227667e-01   -2,774281204e-01
       86525000   -7,981878519e-01   -2,750906050e-01
       86600000   -7,984519601e-01   -2,703071833e-01
       86675000   -7,972803712e-01   -2,688369751e-01
       86750000   -7,985438704e-01   -2,652136087e-01
       86825000   -7,983254790e-01   -2,623393238e-01
       86900000   -7,969937921e-01   -2,605409026e-01
       86975000   -7,975773215e-01   -2,580069900e-01
       87050000   -7,990697622e-01   -2,555422485e-01
       87125000   -7,990884781e-01   -2,533177137e-01
       87200000   -7,983504534e-01   -2,510724962e-01
       87275000   -7,993881702e-01   -2,484630793e-01
       87350000   -7,993279099e-01   -2,445515692e-01
       87425000   -7,977709174e-01   -2,427803874e-01
       87500000   -7,990962863e-01   -2,351493686e-01
       87575000   -7,975713015e-01   -2,372933328e-01
       87650000   -7,991886139e-01   -2,338406295e-01
       87725000   -7,986283898e-01   -2,313436270e-01
       87800000   -7,984276414e-01   -2,299745828e-01
       87875000   -7,992439270e-01   -2,252045572e-01
       87950000   -7,976192832e-01   -2,220949233e-01
       88025000   -7,971796393e-01   -2,213192433e-01
       88100000   -7,982796431e-01   -2,186509520e-01
       88175000   -7,977502942e-01   -2,152984738e-01
       88250000   -7,972242832e-01   -2,146165222e-01
       88325000   -7,981199026e-01   -2,114847600e-01
       88400000   -7,969461083e-01   -2,084260136e-01
       88475000   -7,980315685e-01   -2,065529376e-01
       88550000   -7,967609167e-01   -2,019335330e-01
       88625000   -7,967070341e-01   -2,012183070e-01
       88700000   -7,968829274e-01   -1,995380819e-01
       88775000   -7,968422771e-01   -1,966222078e-01
       88850000   -7,960677147e-01   -1,923945099e-01
       88925000   -7,952933311e-01   -1,922972649e-01
       89000000   -7,960618138e-01   -1,889857054e-01
       89075000   -7,934914827e-01   -1,869919449e-01
       89150000   -7,950756550e-01   -1,849384457e-01
       89225000   -7,931080461e-01   -1,820361763e-01
       89300000   -7,939386368e-01   -1,810686439e-01
       89375000   -7,926974893e-01   -1,780591160e-01
       89450000   -7,929860353e-01   -1,774430275e-01
       89525000   -7,926256657e-01   -1,744560599e-01
       89600000   -7,902437449e-01   -1,735478193e-01
       89675000   -7,910292745e-01   -1,719932109e-01
       89750000   -7,906166911e-01   -1,689936966e-01
       89825000   -7,898776531e-01   -1,676321775e-01
       89900000   -7,893620729e-01   -1,664039940e-01
       89975000   -7,894335985e-01   -1,633923799e-01
       90050000   -7,890291810e-01   -1,645647734e-01
       90125000   -7,895662189e-01   -1,615209281e-01
       90200000   -7,888464332e-01   -1,618373394e-01
       90275000   -7,884504795e-01   -1,605308205e-01
       90350000   -7,901023030e-01   -1,581872404e-01
       90425000   -7,890381217e-01   -1,569761038e-01
       90500000   -7,906015515e-01   -1,561394334e-01
       90575000   -7,904351950e-01   -1,543286443e-01
       90650000   -7,902272344e-01   -1,526337862e-01
       90725000   -7,911043763e-01   -1,524888575e-01
       90800000   -7,922520041e-01   -1,500696391e-01
       90875000   -7,933884263e-01   -1,503294408e-01
       90950000   -7,950525880e-01   -1,488974690e-01
       91025000   -7,945259809e-01   -1,467091590e-01
       91100000   -7,967716455e-01   -1,451633573e-01
       91175000   -7,964794040e-01   -1,428031325e-01
       91250000   -7,986726761e-01   -1,404030025e-01
       91325000   -7,992449403e-01   -1,387578696e-01
       91400000   -8,000824451e-01   -1,379603148e-01
       91475000   -8,016065955e-01   -1,337867826e-01
       91550000   -8,028402328e-01   -1,334986687e-01
       91625000   -8,040494919e-01   -1,303205341e-01
       91700000   -8,057940006e-01   -1,303325295e-01
       91775000   -8,063986301e-01   -1,260005236e-01
       91850000   -8,067461848e-01   -1,246607155e-01
       91925000   -8,086718917e-01   -1,209022105e-01
