! NanoVNA-App
! Date: 2025-08-09 16:20:02
! Start: 65MHz Stop: 95MHz Points: 401
! S-Parameter data: F S11
# Hz S RI R 50
!     Frequency           S11_Real           S11_Imag
       65000000    6,688586473e-01    2,376268804e-01
       65075000    6,754448414e-01    2,412173599e-01
       65150000    6,754063964e-01    2,359735668e-01
       65225000    6,764019728e-01    2,342223972e-01
       65300000    6,759460568e-01    2,298315912e-01
       65375000    6,759892106e-01    2,250480801e-01
       65450000    6,755155921e-01    2,207459211e-01
       65525000    6,758680344e-01    2,175103575e-01
       65600000    6,760838628e-01    2,130302489e-01
       65675000    6,753961444e-01    2,083966136e-01
       65750000    6,754868627e-01    2,044520229e-01
       65825000    6,745395064e-01    1,993339360e-01
       65900000    6,748272181e-01    1,963084936e-01
       65975000    6,742782593e-01    1,921070218e-01
       66050000    6,738234758e-01    1,883402616e-01
       66125000    6,747018099e-01    1,857891828e-01
       66200000    6,737691760e-01    1,813632399e-01
       66275000    6,738194823e-01    1,776372194e-01
       66350000    6,741893291e-01    1,748288721e-01
       66425000    6,733980179e-01    1,716646701e-01
       66500000    6,731591225e-01    1,678256243e-01
       66575000    6,729235053e-01    1,642037034e-01
       66650000    6,727120876e-01    1,607308537e-01
       66725000    6,724008918e-01    1,571205556e-01
       66800000    6,719201207e-01    1,534757763e-01
       66875000    6,719058156e-01    1,498562992e-01
       66950000    6,724002957e-01    1,477528661e-01
       67025000    6,725226045e-01    1,451372802e-01
       67100000    6,720786691e-01    1,410177350e-01
       67175000    6,728985310e-01    1,383535713e-01
       67250000    6,726928949e-01    1,352195591e-01
       67325000    6,734122634e-01    1,309124976e-01
       67400000    6,737749577e-01    1,275181025e-01
       67475000    6,738624573e-01    1,246218085e-01
       67550000    6,733023524e-01    1,195322052e-01
       67625000    6,738885641e-01    1,167494282e-01
       67700000    6,742434502e-01    1,126337796e-01
       67775000    6,739242077e-01    1,106512621e-01
       67850000    6,739592552e-01    1,060501561e-01
       67925000    6,738553047e-01    1,031407565e-01
       68000000    6,734927297e-01    9,824557602e-02
       68075000    6,730815768e-01    9,426629543e-02
       68150000    6,732500196e-01    9,124331176e-02
       68225000    6,730411649e-01    8,810573816e-02
       68300000    6,727311611e-01    8,448954672e-02
       68375000    6,723378301e-01    7,948743552e-02
       68450000    6,723263860e-01    7,833194733e-02
       68525000    6,715319753e-01    7,456135750e-02
       68600000    6,711433530e-01    7,061250508e-02
       68675000    6,711658239e-01    6,777897477e-02
       68750000    6,703990698e-01    6,517671794e-02
       68825000    6,695008278e-01    5,991992727e-02
       68900000    6,688670516e-01    5,582993850e-02
       68975000    6,689618230e-01    5,311450362e-02
       69050000    6,671549678e-01    5,003770441e-02
       69125000    6,678283215e-01    4,625291005e-02
       69200000    6,661382914e-01    4,335738346e-02
       69275000    6,658661366e-01    3,983323649e-02
       69350000    6,647376418e-01    3,698733822e-02
       69425000    6,649606824e-01    3,341852501e-02
       69500000    6,638340354e-01    3,109823354e-02
       69575000    6,621276736e-01    2,689357661e-02
       69650000    6,618403196e-01    2,412134595e-02
       69725000    6,610127091e-01    2,135683969e-02
       69800000    6,593402624e-01    1,828753948e-02
       69875000    6,585891247e-01    1,540781558e-02
       69950000    6,573031545e-01    1,033137273e-02
       70025000    6,562410593e-01    9,621796198e-03
       70100000    6,551482081e-01    5,243832711e-03
       70175000    6,544244885e-01    2,446407685e-03
       70250000    6,531333923e-01    6,342596025e-04
       70325000    6,520330906e-01   -1,980390167e-03
       70400000    6,507627368e-01   -4,100879654e-03
       70475000    6,493805051e-01   -6,135164760e-03
       70550000    6,474989653e-01   -1,059320010e-02
       70625000    6,479065418e-01   -1,151262689e-02
       70700000    6,459640861e-01   -1,298790332e-02
       70775000    6,450520158e-01   -1,521872729e-02
       70850000    6,442115903e-01   -1,748130657e-02
       70925000    6,425959468e-01   -2,083284035e-02
       71000000    6,430270076e-01   -2,232798561e-02
       71075000    6,415017247e-01   -2,344049886e-02
       71150000    6,396029592e-01   -2,632733434e-02
       71225000    6,392763853e-01   -2,708625980e-02
       71300000    6,393790841e-01   -2,915853076e-02
       71375000    6,384029984e-01   -2,967178263e-02
       71450000    6,383408904e-01   -3,382911161e-02
       71525000    6,382485032e-01   -3,548324481e-02
       71600000    6,374937892e-01   -3,710902482e-02
       71675000    6,355303526e-01   -3,938906640e-02
       71750000    6,357857585e-01   -4,050149396e-02
       71825000    6,346324086e-01   -4,214709252e-02
       71900000    6,344478130e-01   -4,488193989e-02
       71975000    6,346816421e-01   -4,639998451e-02
       72050000    6,349827647e-01   -4,984476045e-02
       72125000    6,349188685e-01   -5,099175498e-02
       72200000    6,351163387e-01   -5,304688588e-02
       72275000    6,339671016e-01   -5,460043997e-02
       72350000    6,336951852e-01   -5,647329986e-02
       72425000    6,332334876e-01   -5,877961963e-02
       72500000    6,345660090e-01   -6,055305526e-02
       72575000    6,336827278e-01   -6,183029711e-02
       72650000    6,325802803e-01   -6,220780313e-02
       72725000    6,316627264e-01   -6,635167450e-02
       72800000    6,324473619e-01   -6,928323209e-02
       72875000    6,298989654e-01   -7,174824178e-02
       72950000    6,317949295e-01   -7,201447338e-02
       73025000    6,299039721e-01   -7,704911381e-02
       73100000    6,297706366e-01   -7,677694410e-02
       73175000    6,297243237e-01   -8,166231960e-02
       73250000    6,309149861e-01   -8,255904913e-02
       73325000    6,303763390e-01   -8,250699937e-02
       73400000    6,304007769e-01   -8,723159134e-02
       73475000    6,281547546e-01   -8,703470975e-02
       73550000    6,305281520e-01   -8,786761016e-02
       73625000    6,299373507e-01   -9,363055229e-02
       73700000    6,293786764e-01   -9,494413435e-02
       73775000    6,298686862e-01   -9,480050206e-02
       73850000    6,306447983e-01   -9,930969775e-02
       73925000    6,278321147e-01   -1,012629792e-01
       74000000    6,274126172e-01   -1,015921682e-01
       74075000    6,257438064e-01   -1,041248739e-01
       74150000    6,268219352e-01   -1,053308472e-01
       74225000    6,278327107e-01   -1,126201600e-01
       74300000    6,268502474e-01   -1,127955988e-01
       74375000    6,291741133e-01   -1,142186001e-01
       74450000    6,257923841e-01   -1,141225621e-01
       74525000    6,253103614e-01   -1,196279153e-01
       74600000    6,242220402e-01   -1,206266135e-01
       74675000    6,221444607e-01   -1,247109696e-01
       74750000    6,227592230e-01   -1,233446598e-01
       74825000    6,235367656e-01   -1,281647831e-01
       74900000    6,229542494e-01   -1,313545555e-01
       74975000    6,228027344e-01   -1,327679008e-01
       75050000    6,220821738e-01   -1,339848638e-01
       75125000    6,214765310e-01   -1,370989531e-01
       75200000    6,211664677e-01   -1,389052719e-01
       75275000    6,200357676e-01   -1,414547265e-01
       75350000    6,194850802e-01   -1,435330063e-01
       75425000    6,178486943e-01   -1,462416500e-01
       75500000    6,164236069e-01   -1,476592422e-01
       75575000    6,156445146e-01   -1,497347802e-01
       75650000    6,141974926e-01   -1,511190981e-01
       75725000    6,144602895e-01   -1,534103900e-01
       75800000    6,135952473e-01   -1,557097286e-01
       75875000    6,123170257e-01   -1,582365334e-01
       75950000    6,129441261e-01   -1,591002792e-01
       76025000    6,119640470e-01   -1,624258757e-01
       76100000    6,110977530e-01   -1,655434072e-01
       76175000    6,106396317e-01   -1,654234678e-01
       76250000    6,089537144e-01   -1,682537496e-01
       76325000    6,084396839e-01   -1,688155085e-01
       76400000    6,068873405e-01   -1,719638556e-01
       76475000    6,028749943e-01   -1,736679971e-01
       76550000    6,040440798e-01   -1,730121076e-01
       76625000    6,031461954e-01   -1,752746850e-01
       76700000    6,018435359e-01   -1,758210510e-01
       76775000    6,012778878e-01   -1,793911606e-01
       76850000    6,010484695e-01   -1,788446754e-01
       76925000    5,968573093e-01   -1,802822649e-01
       77000000    5,969954133e-01   -1,802638173e-01
       77075000    5,981374979e-01   -1,802041382e-01
       77150000    5,986590981e-01   -1,814979911e-01
       77225000    5,983088017e-01   -1,836132109e-01
       77300000    5,994767547e-01   -1,841588467e-01
       77375000    6,000367999e-01   -1,866402179e-01
       77450000    6,006649137e-01   -1,858414561e-01
       77525000    6,003476977e-01   -1,889526099e-01
       77600000    5,999928713e-01   -1,918077469e-01
       77675000    6,002352238e-01   -1,917431802e-01
       77750000    5,985814929e-01   -1,930750608e-01
       77825000    5,976636410e-01   -1,971950084e-01
       77900000    5,988520384e-01   -1,956305206e-01
       77975000    5,975418091e-01   -1,973455995e-01
       78050000    5,957267284e-01   -2,000234425e-01
       78125000    5,983104706e-01   -2,020785064e-01
       78200000    5,979939103e-01   -2,023090720e-01
       78275000    5,952519178e-01   -2,060545236e-01
       78350000    5,977683663e-01   -2,058398575e-01
       78425000    5,973525643e-01   -2,076710761e-01
       78500000    5,949475169e-01   -2,104541063e-01
       78575000    5,963458419e-01   -2,086172253e-01
       78650000    5,971857309e-01   -2,110895067e-01
       78725000    5,942978859e-01   -2,120552957e-01
       78800000    5,978832245e-01   -2,136528790e-01
       78875000    5,978780985e-01   -2,158876508e-01
       78950000    5,973554850e-01   -2,167351991e-01
       79025000    5,972890854e-01   -2,168281376e-01
       79100000    5,978392363e-01   -2,174898237e-01
       79175000    5,958803296e-01   -2,186890393e-01
       79250000    5,963064432e-01   -2,196519226e-01
       79325000    5,979739428e-01   -2,236579061e-01
       79400000    5,968865156e-01   -2,251241505e-01
       79475000    5,997925401e-01   -2,258956879e-01
       79550000    5,998342633e-01   -2,263194770e-01
       79625000    5,995193720e-01   -2,268540263e-01
       79700000    5,992254019e-01   -2,304364592e-01
       79775000    5,992814302e-01   -2,332349271e-01
       79850000    6,016656756e-01   -2,333358377e-01
       79925000    6,008990407e-01   -2,355608642e-01
       80000000    5,987848639e-01   -2,379474491e-01
       80075000    6,036904454e-01   -2,416576743e-01
       80150000    6,031720042e-01   -2,419734001e-01
       80225000    6,016297936e-01   -2,439327687e-01
       80300000    6,049337387e-01   -2,427892387e-01
       80375000    6,034709215e-01   -2,490362376e-01
       80450000    6,049517989e-01   -2,490527481e-01
       80525000    6,078969240e-01   -2,533454895e-01
       80600000    6,055744290e-01   -2,559781671e-01
       80675000    6,086053848e-01   -2,547541261e-01
       80750000    6,080142260e-01   -2,539387345e-01
       80825000    6,073936820e-01   -2,620675564e-01
       80900000    6,073409319e-01   -2,669103444e-01
       80975000    6,132192612e-01   -2,659110427e-01
       81050000    6,110527515e-01   -2,685592771e-01
       81125000    6,081585884e-01   -2,681130469e-01
       81200000    6,114629507e-01   -2,719555795e-01
       81275000    6,078355908e-01   -2,748014629e-01
       81350000    6,085951924e-01   -2,749747932e-01
       81425000    6,096274257e-01   -2,822586000e-01
       81500000    6,131287217e-01   -2,860280871e-01
       81575000    6,062325835e-01   -2,885471582e-01
       81650000    6,108785868e-01   -2,877468765e-01
       81725000    6,131385565e-01   -2,917335927e-01
       81800000    6,096733809e-01   -2,971046865e-01
       81875000    6,101394892e-01   -2,926686704e-01
       81950000    6,150252223e-01   -2,965324223e-01
       82025000    6,140034795e-01   -2,992263734e-01
       82100000    6,102756858e-01   -2,990617752e-01
       82175000    6,163138747e-01   -3,030751944e-01
       82250000    6,111637354e-01   -3,096062839e-01
       82325000    6,102755070e-01   -3,085836768e-01
       82400000    6,144264340e-01   -3,125598431e-01
       82475000    6,121993065e-01   -3,186740279e-01
       82550000    6,077423692e-01   -3,186129630e-01
       82625000    6,104878187e-01   -3,209948540e-01
       82700000    6,104696989e-01   -3,281166255e-01
       82775000    6,090093851e-01   -3,228825033e-01
       82850000    6,141435504e-01   -3,298657835e-01
       82925000    6,104445457e-01   -3,313218951e-01
       83000000    6,123923063e-01   -3,326021433e-01
       83075000    6,104613543e-01   -3,408177495e-01
       83150000    6,089740396e-01   -3,390101790e-01
       83225000    6,112514138e-01   -3,430020213e-01
       83300000    6,082163453e-01   -3,464794457e-01
       83375000    6,109324098e-01   -3,449206650e-01
       83450000    6,116520166e-01   -3,530485332e-01
       83525000    6,124503613e-01   -3,596617281e-01
       83600000    6,089987755e-01   -3,627066016e-01
       83675000    6,087163687e-01   -3,663650453e-01
       83750000    6,065788269e-01   -3,616281152e-01
       83825000    6,090944409e-01   -3,703708351e-01
       83900000    6,087785363e-01   -3,782346845e-01
       83975000    6,093276143e-01   -3,820825815e-01
       84050000    6,069054008e-01   -3,799523115e-01
       84125000    6,104286313e-01   -3,832624853e-01
       84200000    6,085780263e-01   -3,838917315e-01
       84275000    6,072473526e-01   -3,916870654e-01
       84350000    6,021291614e-01   -3,971635699e-01
       84425000    6,025429964e-01   -3,984331489e-01
       84500000    6,063971519e-01   -4,036210179e-01
       84575000    6,076841354e-01   -4,061891139e-01
       84650000    6,013348103e-01   -4,016667902e-01
       84725000    5,993488431e-01   -4,103932977e-01
       84800000    5,959356427e-01   -4,172628224e-01
       84875000    5,936438441e-01   -4,129401147e-01
       84950000    5,952249169e-01   -4,209440947e-01
       85025000    5,921471119e-01   -4,249953032e-01
       85100000    5,961743593e-01   -4,274040759e-01
       85175000    5,940488577e-01   -4,274222553e-01
       85250000    5,922519565e-01   -4,297034740e-01
       85325000    5,878126621e-01   -4,361845255e-01
       85400000    5,850775242e-01   -4,394036531e-01
       85475000    5,846722126e-01   -4,435154200e-01
       85550000    5,833755732e-01   -4,430571198e-01
       85625000    5,833413005e-01   -4,511676431e-01
       85700000    5,800768733e-01   -4,482834339e-01
       85775000    5,762061477e-01   -4,536539614e-01
       85850000    5,778494477e-01   -4,607800245e-01
       85925000    5,709696412e-01   -4,608968198e-01
       86000000    5,696570873e-01   -4,638631940e-01
       86075000    5,670008063e-01   -4,683289826e-01
       86150000    5,703610182e-01   -4,703015983e-01
       86225000    5,651735663e-01   -4,738118052e-01
       86300000    5,645644665e-01   -4,724417925e-01
       86375000    5,644226074e-01   -4,781241119e-01
       86450000    5,614939928e-01   -4,825018346e-01
       86525000    5,554217100e-01   -4,850391746e-01
       86600000    5,568639636e-01   -4,858541489e-01
       86675000    5,530822873e-01   -4,848028123e-01
       86750000    5,503798723e-01   -4,887529016e-01
       86825000    5,482087135e-01   -4,941902757e-01
       86900000    5,402830839e-01   -4,919199347e-01
       86975000    5,388169885e-01   -4,933578074e-01
       87050000    5,409395099e-01   -5,003942847e-01
       87125000    5,375784039e-01   -4,979918897e-01
       87200000    5,385392308e-01   -4,997503161e-01
       87275000    5,295470953e-01   -5,030741096e-01
       87350000    5,305942297e-01   -5,039516687e-01
       87425000    5,289382339e-01   -5,041227937e-01
       87500000    5,268321633e-01   -5,104150176e-01
       87575000    5,237556696e-01   -5,082654357e-01
       87650000    5,209425092e-01   -5,107881427e-01
       87725000    5,147193670e-01   -5,117672682e-01
       87800000    5,141884089e-01   -5,127989650e-01
       87875000    5,096974969e-01   -5,144364834e-01
       87950000    5,131794810e-01   -5,149305463e-01
       88025000    5,098525882e-01   -5,192521811e-01
       88100000    5,078895092e-01   -5,204605460e-01
       88175000    5,056685805e-01   -5,178058743e-01
       88250000    5,040932298e-01   -5,200877190e-01
       88325000    5,007834435e-01   -5,254338980e-01
       88400000    5,004830360e-01   -5,254151225e-01
       88475000    4,955500066e-01   -5,272141099e-01
       88550000    4,972284734e-01   -5,269570947e-01
       88625000    4,934726059e-01   -5,253969431e-01
       88700000    4,928751290e-01   -5,318289399e-01
       88775000    4,873930216e-01   -5,275088549e-01
       88850000    4,891957641e-01   -5,327597857e-01
       88925000    4,870648086e-01   -5,323044658e-01
       89000000    4,864156842e-01   -5,315971971e-01
       89075000    4,840322733e-01   -5,335822701e-01
       89150000    4,807621539e-01   -5,330942273e-01
       89225000    4,773340821e-01   -5,357428193e-01
       89300000    4,749930203e-01   -5,352909565e-01
       89375000    4,735404849e-01   -5,370019078e-01
       89450000    4,709002078e-01   -5,362489820e-01
       89525000    4,715217650e-01   -5,413842201e-01
       89600000    4,677965641e-01   -5,431671143e-01
       89675000    4,640974700e-01   -5,409278274e-01
       89750000    4,628793597e-01   -5,420060158e-01
       89825000    4,623098969e-01   -5,393521786e-01
       89900000    4,611888230e-01   -5,380502939e-01
       89975000    4,592647254e-01   -5,396764874e-01
       90050000    4,582829177e-01   -5,388091803e-01
       90125000    4,558478892e-01   -5,418179035e-01
       90200000    4,531303942e-01   -5,425415635e-01
       90275000    4,566146135e-01   -5,381767154e-01
       90350000    4,562771022e-01   -5,401760936e-01
       90425000    4,515489936e-01   -5,402694941e-01
       90500000    4,533073306e-01   -5,411966443e-01
       90575000    4,558620155e-01   -5,438589454e-01
       90650000    4,542308748e-01   -5,387914777e-01
       90725000    4,554918706e-01   -5,435162783e-01
       90800000    4,527872801e-01   -5,451467633e-01
       90875000    4,564124644e-01   -5,448168516e-01
       90950000    4,556397200e-01   -5,476658344e-01
       91025000    4,580692649e-01   -5,470141768e-01
       91100000    4,569598436e-01   -5,492466092e-01
       91175000    4,592317939e-01   -5,471487045e-01
       91250000    4,584152102e-01   -5,515466332e-01
       91325000    4,611528218e-01   -5,507405400e-01
       91400000    4,603687525e-01   -5,518472195e-01
       91475000    4,602619708e-01   -5,526444912e-01
       91550000    4,599502385e-01   -5,563343763e-01
       91625000    4,599740803e-01   -5,562785268e-01
       91700000    4,603564143e-01   -5,607715249e-01
       91775000    4,584901631e-01   -5,624398589e-01
       91850000    4,596886635e-01   -5,657855272e-01
       91925000    4,573816955e-01   -5,684837103e-01
