! NanoVNA-App
! Date: 2025-08-09 13:33:13
! Start: 65MHz Stop: 95MHz Points: 401
! S-Parameter data: F S11
# Hz S RI R 50
!     Frequency           S11_Real           S11_Imag
       65000000    6,835321784e-01   -2,094015032e-01
       65075000    6,888193488e-01   -2,125156224e-01
       65150000    6,860972047e-01   -2,132224739e-01
       65225000    6,834551692e-01   -2,171308398e-01
       65300000    6,826859713e-01   -2,201522142e-01
       65375000    6,792637706e-01   -2,230434120e-01
       65450000    6,788743138e-01   -2,240958512e-01
       65525000    6,765274405e-01   -2,264411747e-01
       65600000    6,758306623e-01   -2,296463400e-01
       65675000    6,736552119e-01   -2,307518125e-01
       65750000    6,715840101e-01   -2,342474908e-01
       65825000    6,682859063e-01   -2,360670418e-01
       65900000    6,665730476e-01   -2,391622066e-01
       65975000    6,638340354e-01   -2,416251302e-01
       66050000    6,638123989e-01   -2,438030541e-01
       66125000    6,619291306e-01   -2,455575764e-01
       66200000    6,599277258e-01   -2,475713342e-01
       66275000    6,588261127e-01   -2,500402033e-01
       66350000    6,562517881e-01   -2,529408336e-01
       66425000    6,529991627e-01   -2,551481128e-01
       66500000    6,531364322e-01   -2,582472563e-01
       66575000    6,509283185e-01   -2,597502470e-01
       66650000    6,490261555e-01   -2,628906071e-01
       66725000    6,482058764e-01   -2,641702294e-01
       66800000    6,467509270e-01   -2,654456198e-01
       66875000    6,449487805e-01   -2,687539756e-01
       66950000    6,437855959e-01   -2,703598142e-01
       67025000    6,426591873e-01   -2,722459733e-01
       67100000    6,406389475e-01   -2,758715749e-01
       67175000    6,386737823e-01   -2,788622081e-01
       67250000    6,376174688e-01   -2,817219496e-01
       67325000    6,355462670e-01   -2,841473222e-01
       67400000    6,332289577e-01   -2,867307365e-01
       67475000    6,326836944e-01   -2,875152528e-01
       67550000    6,303779483e-01   -2,913079560e-01
       67625000    6,277456880e-01   -2,949688137e-01
       67700000    6,266070604e-01   -2,964054048e-01
       67775000    6,250356436e-01   -2,978346646e-01
       67850000    6,215422153e-01   -3,012623787e-01
       67925000    6,216259599e-01   -3,037653565e-01
       68000000    6,197502017e-01   -3,065908253e-01
       68075000    6,179863214e-01   -3,095301092e-01
       68150000    6,155329347e-01   -3,124109507e-01
       68225000    6,148309708e-01   -3,124430478e-01
       68300000    6,129167080e-01   -3,160085380e-01
       68375000    6,099286079e-01   -3,167353272e-01
       68450000    6,067425609e-01   -3,219127953e-01
       68525000    6,053236723e-01   -3,245320618e-01
       68600000    6,044619083e-01   -3,262037933e-01
       68675000    6,016417146e-01   -3,294950426e-01
       68750000    6,007104516e-01   -3,304009438e-01
       68825000    5,969786048e-01   -3,332413137e-01
       68900000    5,934002399e-01   -3,341236413e-01
       68975000    5,928973556e-01   -3,376812935e-01
       69050000    5,903612375e-01   -3,380769491e-01
       69125000    5,895488262e-01   -3,409573734e-01
       69200000    5,851095915e-01   -3,430971503e-01
       69275000    5,830093622e-01   -3,464905024e-01
       69350000    5,796335340e-01   -3,469050527e-01
       69425000    5,783759356e-01   -3,496917784e-01
       69500000    5,751225948e-01   -3,507475257e-01
       69575000    5,729331374e-01   -3,535422087e-01
       69650000    5,695600510e-01   -3,547576964e-01
       69725000    5,677518845e-01   -3,573348522e-01
       69800000    5,643755794e-01   -3,586273789e-01
       69875000    5,640654564e-01   -3,597671986e-01
       69950000    5,609409213e-01   -3,609731495e-01
       70025000    5,580708385e-01   -3,638390005e-01
       70100000    5,562961102e-01   -3,630012274e-01
       70175000    5,523223281e-01   -3,661051989e-01
       70250000    5,496436357e-01   -3,670744300e-01
       70325000    5,482566953e-01   -3,677984476e-01
       70400000    5,455011129e-01   -3,692268133e-01
       70475000    5,447396636e-01   -3,683820665e-01
       70550000    5,420820117e-01   -3,699497581e-01
       70625000    5,395340323e-01   -3,716561198e-01
       70700000    5,379840732e-01   -3,721701205e-01
       70775000    5,349640250e-01   -3,735488057e-01
       70850000    5,336169004e-01   -3,735635877e-01
       70925000    5,319432616e-01   -3,758622110e-01
       71000000    5,294809341e-01   -3,763033152e-01
       71075000    5,295323730e-01   -3,758323789e-01
       71150000    5,250589252e-01   -3,777922392e-01
       71225000    5,226313472e-01   -3,781425953e-01
       71300000    5,206549168e-01   -3,777911663e-01
       71375000    5,229642987e-01   -3,790878654e-01
       71450000    5,190646648e-01   -3,812070489e-01
       71525000    5,166565180e-01   -3,827076554e-01
       71600000    5,162667036e-01   -3,812245429e-01
       71675000    5,147284269e-01   -3,834496737e-01
       71750000    5,116404295e-01   -3,857078254e-01
       71825000    5,110840201e-01   -3,843168914e-01
       71900000    5,088177919e-01   -3,870999515e-01
       71975000    5,078703761e-01   -3,878022730e-01
       72050000    5,051038265e-01   -3,859780431e-01
       72125000    5,038874745e-01   -3,882398307e-01
       72200000    5,019776225e-01   -3,897081316e-01
       72275000    5,019219518e-01   -3,896978199e-01
       72350000    5,012506247e-01   -3,916106224e-01
       72425000    4,988193810e-01   -3,914932907e-01
       72500000    4,978420734e-01   -3,938598037e-01
       72575000    4,960760474e-01   -3,923923075e-01
       72650000    4,952536225e-01   -3,941995800e-01
       72725000    4,927442372e-01   -3,951615691e-01
       72800000    4,917090833e-01   -3,945188820e-01
       72875000    4,903841913e-01   -3,968673944e-01
       72950000    4,890581071e-01   -3,955160677e-01
       73025000    4,884130657e-01   -3,970402777e-01
       73100000    4,868895113e-01   -3,978018165e-01
       73175000    4,853197038e-01   -3,975816071e-01
       73250000    4,838393629e-01   -3,982428014e-01
       73325000    4,841601551e-01   -3,990043402e-01
       73400000    4,813846648e-01   -4,012373686e-01
       73475000    4,800471663e-01   -4,001418948e-01
       73550000    4,791615605e-01   -4,028884470e-01
       73625000    4,767157137e-01   -4,029733241e-01
       73700000    4,777027369e-01   -4,046376348e-01
       73775000    4,751312435e-01   -4,064455330e-01
       73850000    4,753780067e-01   -4,056135714e-01
       73925000    4,726755023e-01   -4,074068069e-01
       74000000    4,730945230e-01   -4,066065550e-01
       74075000    4,711951911e-01   -4,086431861e-01
       74150000    4,699565172e-01   -4,106024504e-01
       74225000    4,676106572e-01   -4,116975665e-01
       74300000    4,679388404e-01   -4,110125601e-01
       74375000    4,684956670e-01   -4,139022231e-01
       74450000    4,625272751e-01   -4,127346575e-01
       74525000    4,644159377e-01   -4,133593738e-01
       74600000    4,623010159e-01   -4,143437147e-01
       74675000    4,631314576e-01   -4,156290889e-01
       74750000    4,610174298e-01   -4,172334075e-01
       74825000    4,598822296e-01   -4,170117080e-01
       74900000    4,590170681e-01   -4,186262488e-01
       74975000    4,567933679e-01   -4,179393351e-01
       75050000    4,566766620e-01   -4,190390706e-01
       75125000    4,536374211e-01   -4,208859205e-01
       75200000    4,549710155e-01   -4,213590920e-01
       75275000    4,509072304e-01   -4,218714237e-01
       75350000    4,506515265e-01   -4,223113954e-01
       75425000    4,500783980e-01   -4,243568480e-01
       75500000    4,489813149e-01   -4,236277342e-01
       75575000    4,509831667e-01   -4,256918132e-01
       75650000    4,489314556e-01   -4,254297614e-01
       75725000    4,469876289e-01   -4,274018407e-01
       75800000    4,466270506e-01   -4,265971780e-01
       75875000    4,433553815e-01   -4,285436571e-01
       75950000    4,431262016e-01   -4,278292656e-01
       76025000    4,429284334e-01   -4,294126332e-01
       76100000    4,408646226e-01   -4,310555160e-01
       76175000    4,409100711e-01   -4,299766719e-01
       76250000    4,383967221e-01   -4,314056039e-01
       76325000    4,387136400e-01   -4,307413399e-01
       76400000    4,371357858e-01   -4,318982065e-01
       76475000    4,344588518e-01   -4,347921908e-01
       76550000    4,343776703e-01   -4,332341254e-01
       76625000    4,342760742e-01   -4,332711697e-01
       76700000    4,323183298e-01   -4,344758987e-01
       76775000    4,328135848e-01   -4,341202676e-01
       76850000    4,309511483e-01   -4,359072447e-01
       76925000    4,304768741e-01   -4,378214777e-01
       77000000    4,308662713e-01   -4,365166426e-01
       77075000    4,290060103e-01   -4,375104010e-01
       77150000    4,287134409e-01   -4,379423261e-01
       77225000    4,273024797e-01   -4,377977848e-01
       77300000    4,229787886e-01   -4,371306002e-01
       77375000    4,244994521e-01   -4,382286966e-01
       77450000    4,230910838e-01   -4,396907687e-01
       77525000    4,216991663e-01   -4,392148852e-01
       77600000    4,229252934e-01   -4,391044378e-01
       77675000    4,204558730e-01   -4,409206808e-01
       77750000    4,214290082e-01   -4,398673773e-01
       77825000    4,207980335e-01   -4,395850301e-01
       77900000    4,192023873e-01   -4,413125217e-01
       77975000    4,196788669e-01   -4,389008582e-01
       78050000    4,186348319e-01   -4,391848743e-01
       78125000    4,196394682e-01   -4,417541623e-01
       78200000    4,180264771e-01   -4,380440712e-01
       78275000    4,188325405e-01   -4,397800267e-01
       78350000    4,202184677e-01   -4,406326115e-01
       78425000    4,208634496e-01   -4,420935512e-01
       78500000    4,217290580e-01   -4,407847226e-01
       78575000    4,208837748e-01   -4,422563612e-01
       78650000    4,204708338e-01   -4,423988760e-01
       78725000    4,218810201e-01   -4,437737763e-01
       78800000    4,217218459e-01   -4,462853670e-01
       78875000    4,207110107e-01   -4,448488951e-01
       78950000    4,209539294e-01   -4,461100996e-01
       79025000    4,203011394e-01   -4,486258924e-01
       79100000    4,226643443e-01   -4,491883814e-01
       79175000    4,224970341e-01   -4,510758817e-01
       79250000    4,207406938e-01   -4,504398704e-01
       79325000    4,215141237e-01   -4,509295821e-01
       79400000    4,213232696e-01   -4,518689215e-01
       79475000    4,231244624e-01   -4,543710649e-01
       79550000    4,218342006e-01   -4,555325806e-01
       79625000    4,235436618e-01   -4,552963078e-01
       79700000    4,227818847e-01   -4,565612078e-01
       79775000    4,206703305e-01   -4,579697549e-01
       79850000    4,232712984e-01   -4,586850703e-01
       79925000    4,232871532e-01   -4,598738551e-01
       80000000    4,190975130e-01   -4,596512616e-01
       80075000    4,253774583e-01   -4,621567130e-01
       80150000    4,244029224e-01   -4,635423720e-01
       80225000    4,241670966e-01   -4,672378898e-01
       80300000    4,236370027e-01   -4,664371908e-01
       80375000    4,258463979e-01   -4,695000350e-01
       80450000    4,235971272e-01   -4,693015218e-01
       80525000    4,255570769e-01   -4,709793627e-01
       80600000    4,229520857e-01   -4,721745551e-01
       80675000    4,237988889e-01   -4,745073915e-01
       80750000    4,259201884e-01   -4,784609079e-01
       80825000    4,258218110e-01   -4,759197831e-01
       80900000    4,270632267e-01   -4,795870185e-01
       80975000    4,267351329e-01   -4,832936227e-01
       81050000    4,259885252e-01   -4,827424586e-01
       81125000    4,279171228e-01   -4,854843318e-01
       81200000    4,255886376e-01   -4,857980907e-01
       81275000    4,275072515e-01   -4,890804589e-01
       81350000    4,251338542e-01   -4,899387956e-01
       81425000    4,277231395e-01   -4,937863946e-01
       81500000    4,265497029e-01   -4,974071980e-01
       81575000    4,288863838e-01   -4,969626367e-01
       81650000    4,272088110e-01   -4,985937774e-01
       81725000    4,279757440e-01   -5,017886758e-01
       81800000    4,269114733e-01   -5,025759935e-01
       81875000    4,265717566e-01   -5,064868331e-01
       81950000    4,241088033e-01   -5,084083080e-01
       82025000    4,253940284e-01   -5,100992918e-01
       82100000    4,233932197e-01   -5,148319602e-01
       82175000    4,267305136e-01   -5,154868960e-01
       82250000    4,244950712e-01   -5,200301409e-01
       82325000    4,263058007e-01   -5,193375349e-01
       82400000    4,269120097e-01   -5,235369205e-01
       82475000    4,227090478e-01   -5,236894488e-01
       82550000    4,242832065e-01   -5,258211493e-01
       82625000    4,215504825e-01   -5,273470879e-01
       82700000    4,224477410e-01   -5,310587287e-01
       82775000    4,200619161e-01   -5,331879854e-01
       82850000    4,216659963e-01   -5,357747078e-01
       82925000    4,195891321e-01   -5,393295288e-01
       83000000    4,195327759e-01   -5,413630605e-01
       83075000    4,175187945e-01   -5,437345505e-01
       83150000    4,183378220e-01   -5,469999313e-01
       83225000    4,153059125e-01   -5,494775772e-01
       83300000    4,172875881e-01   -5,524549484e-01
       83375000    4,131981730e-01   -5,557764769e-01
       83450000    4,165819585e-01   -5,558266640e-01
       83525000    4,159805477e-01   -5,601782799e-01
       83600000    4,141661227e-01   -5,618266463e-01
       83675000    4,127233624e-01   -5,658973455e-01
       83750000    4,086828232e-01   -5,706234574e-01
       83825000    4,119974375e-01   -5,710833669e-01
       83900000    4,097920358e-01   -5,734687448e-01
       83975000    4,058580101e-01   -5,748386383e-01
       84050000    4,058946669e-01   -5,780955553e-01
       84125000    4,017206132e-01   -5,817728639e-01
       84200000    4,058337808e-01   -5,832354426e-01
       84275000    4,033399224e-01   -5,853611231e-01
       84350000    3,999618888e-01   -5,872553587e-01
       84425000    3,995232582e-01   -5,902097225e-01
       84500000    3,951920569e-01   -5,932246447e-01
       84575000    3,973463774e-01   -5,967819691e-01
       84650000    3,959223628e-01   -5,988779664e-01
       84725000    3,906061649e-01   -6,010553837e-01
       84800000    3,915500343e-01   -6,040043831e-01
       84875000    3,871279061e-01   -6,065852046e-01
       84950000    3,887575865e-01   -6,092391014e-01
       85025000    3,848768175e-01   -6,124165654e-01
       85100000    3,850537539e-01   -6,161843538e-01
       85175000    3,808274567e-01   -6,150451303e-01
       85250000    3,811999559e-01   -6,188394427e-01
       85325000    3,755261004e-01   -6,236211658e-01
       85400000    3,761009574e-01   -6,236548424e-01
       85475000    3,719603121e-01   -6,291151047e-01
       85550000    3,682294488e-01   -6,307252049e-01
       85625000    3,684630990e-01   -6,283972859e-01
       85700000    3,660897613e-01   -6,323933005e-01
       85775000    3,638707697e-01   -6,378539205e-01
       85850000    3,587313294e-01   -6,360375285e-01
       85925000    3,597932756e-01   -6,375699043e-01
       86000000    3,581314981e-01   -6,418101192e-01
       86075000    3,539584279e-01   -6,401908994e-01
       86150000    3,520254493e-01   -6,459695697e-01
       86225000    3,508294225e-01   -6,458119154e-01
       86300000    3,482245207e-01   -6,509781480e-01
       86375000    3,441663980e-01   -6,535891891e-01
       86450000    3,417004943e-01   -6,530249119e-01
       86525000    3,382769227e-01   -6,531169415e-01
       86600000    3,366136849e-01   -6,587643623e-01
       86675000    3,354375362e-01   -6,572239995e-01
       86750000    3,328392506e-01   -6,610292792e-01
       86825000    3,283235729e-01   -6,632422805e-01
       86900000    3,234864473e-01   -6,609717011e-01
       86975000    3,207692802e-01   -6,609057188e-01
       87050000    3,215869963e-01   -6,649503112e-01
       87125000    3,201985061e-01   -6,653791070e-01
       87200000    3,159029484e-01   -6,649125814e-01
       87275000    3,144890070e-01   -6,688255668e-01
       87350000    3,116602600e-01   -6,680396795e-01
       87425000    3,069226742e-01   -6,674926877e-01
       87500000    3,096150160e-01   -6,681559682e-01
       87575000    3,016065657e-01   -6,694066525e-01
       87650000    3,053901196e-01   -6,738058329e-01
       87725000    2,966899276e-01   -6,771690845e-01
       87800000    2,959856391e-01   -6,758368015e-01
       87875000    2,941159904e-01   -6,785404086e-01
       87950000    2,858943641e-01   -6,755353808e-01
       88025000    2,892454863e-01   -6,758318543e-01
       88100000    2,861858308e-01   -6,770196557e-01
       88175000    2,827183008e-01   -6,834754944e-01
       88250000    2,820448875e-01   -6,813620925e-01
       88325000    2,781450748e-01   -6,803032160e-01
       88400000    2,730221450e-01   -6,812541485e-01
       88475000    2,735491693e-01   -6,822221875e-01
       88550000    2,667601407e-01   -6,836253405e-01
       88625000    2,713612914e-01   -6,841077805e-01
       88700000    2,665036321e-01   -6,859863400e-01
       88775000    2,647311687e-01   -6,845391989e-01
       88850000    2,582499683e-01   -6,886442900e-01
       88925000    2,595652342e-01   -6,851368546e-01
       89000000    2,579978704e-01   -6,869594455e-01
       89075000    2,515973747e-01   -6,847373843e-01
       89150000    2,517116070e-01   -6,862261295e-01
       89225000    2,460415363e-01   -6,881724596e-01
       89300000    2,452769428e-01   -6,871852875e-01
       89375000    2,394665182e-01   -6,881790161e-01
       89450000    2,412167341e-01   -6,873236895e-01
       89525000    2,404382974e-01   -6,861752868e-01
       89600000    2,390492707e-01   -6,852943301e-01
       89675000    2,369782925e-01   -6,871006489e-01
       89750000    2,341845334e-01   -6,880129576e-01
       89825000    2,296132445e-01   -6,887544394e-01
       89900000    2,311748266e-01   -6,857529283e-01
       89975000    2,279435396e-01   -6,872820258e-01
       90050000    2,282043099e-01   -6,838487983e-01
       90125000    2,277105898e-01   -6,824184656e-01
       90200000    2,217476666e-01   -6,807119250e-01
       90275000    2,255126685e-01   -6,821815372e-01
       90350000    2,229948491e-01   -6,844267845e-01
       90425000    2,201066315e-01   -6,786273718e-01
       90500000    2,214852870e-01   -6,794764400e-01
       90575000    2,200688720e-01   -6,848133206e-01
       90650000    2,190378755e-01   -6,771252155e-01
       90725000    2,205629200e-01   -6,811649203e-01
       90800000    2,182189375e-01   -6,847447753e-01
       90875000    2,214723378e-01   -6,816122532e-01
       90950000    2,216535062e-01   -6,839087009e-01
       91025000    2,212073952e-01   -6,808245778e-01
       91100000    2,231254131e-01   -6,839270592e-01
       91175000    2,196656168e-01   -6,811170578e-01
       91250000    2,225123346e-01   -6,827837825e-01
       91325000    2,196383327e-01   -6,823371649e-01
       91400000    2,189400494e-01   -6,868240833e-01
       91475000    2,180667520e-01   -6,914137602e-01
       91550000    2,195124775e-01   -6,905383468e-01
       91625000    2,183368653e-01   -6,944231987e-01
       91700000    2,197339088e-01   -6,933690310e-01
       91775000    2,195407450e-01   -6,975541711e-01
       91850000    2,196910381e-01   -6,971053481e-01
       91925000    2,200828642e-01   -6,987379193e-01
