! NanoVNA-App
! Date: 2025-08-09 16:37:18
! Start: 65MHz Stop: 95MHz Points: 401
! S-Parameter data: F S11
# Hz S RI R 50
!     Frequency           S11_Real           S11_Imag
       65000000   -3,923115432e-01   -3,174394742e-02
       65075000   -3,897042871e-01   -3,105475008e-02
       65150000   -3,852660656e-01   -3,100617975e-02
       65225000   -3,823451996e-01   -3,099700063e-02
       65300000   -3,789883554e-01   -3,084824979e-02
       65375000   -3,746002614e-01   -3,105537407e-02
       65450000   -3,709871769e-01   -3,068474680e-02
       65525000   -3,677465320e-01   -3,048027121e-02
       65600000   -3,630471528e-01   -3,107144311e-02
       65675000   -3,606819808e-01   -3,150098771e-02
       65750000   -3,566110730e-01   -3,210152686e-02
       65825000   -3,532177508e-01   -3,280433640e-02
       65900000   -3,502816558e-01   -3,294397146e-02
       65975000   -3,470425010e-01   -3,367899358e-02
       66050000   -3,448111117e-01   -3,421460837e-02
       66125000   -3,415859640e-01   -3,383399546e-02
       66200000   -3,397844732e-01   -3,530017659e-02
       66275000   -3,371470571e-01   -3,450259939e-02
       66350000   -3,339034915e-01   -3,534055501e-02
       66425000   -3,320101500e-01   -3,571451455e-02
       66500000   -3,286260962e-01   -3,660976887e-02
       66575000   -3,267870843e-01   -3,745961189e-02
       66650000   -3,244557679e-01   -3,751094267e-02
       66725000   -3,231870532e-01   -3,808129951e-02
       66800000   -3,207221925e-01   -3,716444597e-02
       66875000   -3,194285631e-01   -3,838646039e-02
       66950000   -3,173777163e-01   -3,750038147e-02
       67025000   -3,162242770e-01   -3,731981665e-02
       67100000   -3,134065866e-01   -3,750804439e-02
       67175000   -3,123638928e-01   -3,705550730e-02
       67250000   -3,091525435e-01   -3,620355576e-02
       67325000   -3,064864278e-01   -3,551026434e-02
       67400000   -3,059436679e-01   -3,466400132e-02
       67475000   -3,015060723e-01   -3,472137451e-02
       67550000   -2,988311946e-01   -3,421112522e-02
       67625000   -2,972773612e-01   -3,336571902e-02
       67700000   -2,934909165e-01   -3,401869535e-02
       67775000   -2,911834121e-01   -3,497220948e-02
       67850000   -2,889224887e-01   -3,372309729e-02
       67925000   -2,862304449e-01   -3,463525698e-02
       68000000   -2,840663791e-01   -3,455970436e-02
       68075000   -2,805114388e-01   -3,424169496e-02
       68150000   -2,792873383e-01   -3,454333544e-02
       68225000   -2,759055793e-01   -3,642240539e-02
       68300000   -2,737068236e-01   -3,597728536e-02
       68375000   -2,713029087e-01   -3,695783392e-02
       68450000   -2,697768509e-01   -3,701429814e-02
       68525000   -2,662548423e-01   -3,628762811e-02
       68600000   -2,649046183e-01   -3,790382296e-02
       68675000   -2,630140483e-01   -3,741823509e-02
       68750000   -2,596952915e-01   -3,854043782e-02
       68825000   -2,582489252e-01   -3,833005205e-02
       68900000   -2,553181946e-01   -3,917383403e-02
       68975000   -2,536055446e-01   -4,026578739e-02
       69050000   -2,511520386e-01   -4,065404832e-02
       69125000   -2,496431768e-01   -4,126058146e-02
       69200000   -2,469427586e-01   -4,319512472e-02
       69275000   -2,453806996e-01   -4,301501065e-02
       69350000   -2,431961000e-01   -4,421509057e-02
       69425000   -2,423616946e-01   -4,524235427e-02
       69500000   -2,398710251e-01   -4,702553526e-02
       69575000   -2,384950519e-01   -4,713295773e-02
       69650000   -2,370384485e-01   -4,867583886e-02
       69725000   -2,362592667e-01   -4,921383783e-02
       69800000   -2,336006761e-01   -5,081183836e-02
       69875000   -2,336268872e-01   -5,131402984e-02
       69950000   -2,315309197e-01   -5,377953500e-02
       70025000   -2,311919034e-01   -5,434900150e-02
       70100000   -2,308066785e-01   -5,494443327e-02
       70175000   -2,288236320e-01   -5,576273054e-02
       70250000   -2,287322581e-01   -5,712228268e-02
       70325000   -2,292742729e-01   -5,660576001e-02
       70400000   -2,286066115e-01   -5,846003070e-02
       70475000   -2,283419669e-01   -5,816370994e-02
       70550000   -2,274022996e-01   -5,895268545e-02
       70625000   -2,273928076e-01   -5,930581316e-02
       70700000   -2,265492529e-01   -5,815477669e-02
       70775000   -2,254710197e-01   -5,795345455e-02
       70850000   -2,261608988e-01   -5,765556917e-02
       70925000   -2,241048366e-01   -5,751110986e-02
       71000000   -2,235279381e-01   -5,768767372e-02
       71075000   -2,233738601e-01   -5,670608580e-02
       71150000   -2,209564000e-01   -5,688716471e-02
       71225000   -2,194640934e-01   -5,569887161e-02
       71300000   -2,196529508e-01   -5,513597280e-02
       71375000   -2,162970006e-01   -5,583070591e-02
       71450000   -2,147442251e-01   -5,551424250e-02
       71525000   -2,134272754e-01   -5,628272146e-02
       71600000   -2,114604115e-01   -5,563398078e-02
       71675000   -2,086612880e-01   -5,671078339e-02
       71750000   -2,082308978e-01   -5,827720463e-02
       71825000   -2,055427432e-01   -5,857409164e-02
       71900000   -2,048796266e-01   -6,043965742e-02
       71975000   -2,044472098e-01   -6,101913750e-02
       72050000   -2,028016448e-01   -6,250637770e-02
       72125000   -2,008507699e-01   -6,361536682e-02
       72200000   -2,012397051e-01   -6,505446881e-02
       72275000   -2,002381682e-01   -6,656572968e-02
       72350000   -2,009665072e-01   -6,771031767e-02
       72425000   -2,004796118e-01   -6,866100430e-02
       72500000   -2,011381388e-01   -6,913148612e-02
       72575000   -2,009937912e-01   -7,028859109e-02
       72650000   -2,021649182e-01   -7,248774171e-02
       72725000   -2,023408413e-01   -7,161260396e-02
       72800000   -2,016655952e-01   -7,262179255e-02
       72875000   -2,032460123e-01   -7,182703167e-02
       72950000   -2,033715695e-01   -7,272214442e-02
       73025000   -2,041362971e-01   -7,260823995e-02
       73100000   -2,049334794e-01   -7,244484127e-02
       73175000   -2,056075484e-01   -7,122717798e-02
       73250000   -2,052177191e-01   -7,098031044e-02
       73325000   -2,050929070e-01   -7,030527294e-02
       73400000   -2,057892978e-01   -6,865842640e-02
       73475000   -2,054985762e-01   -6,895970553e-02
       73550000   -2,064958513e-01   -6,780032814e-02
       73625000   -2,055121511e-01   -6,733407080e-02
       73700000   -2,060772032e-01   -6,691698730e-02
       73775000   -2,052376419e-01   -6,610672176e-02
       73850000   -2,053148001e-01   -6,595612317e-02
       73925000   -2,042804360e-01   -6,399696320e-02
       74000000   -2,047697008e-01   -6,389489770e-02
       74075000   -2,033433616e-01   -6,197693944e-02
       74150000   -2,023728341e-01   -6,251502782e-02
       74225000   -2,031221241e-01   -6,111900881e-02
       74300000   -2,021901757e-01   -6,054607034e-02
       74375000   -2,003897578e-01   -6,046445668e-02
       74450000   -2,007143199e-01   -5,910481885e-02
       74525000   -1,994677037e-01   -5,821397528e-02
       74600000   -1,989152133e-01   -5,810052902e-02
       74675000   -1,988184899e-01   -5,686025321e-02
       74750000   -1,967662126e-01   -5,658156425e-02
       74825000   -1,969683468e-01   -5,695526674e-02
       74900000   -1,959641427e-01   -5,596901104e-02
       74975000   -1,953740865e-01   -5,596213415e-02
       75050000   -1,944345385e-01   -5,505382270e-02
       75125000   -1,938274205e-01   -5,441470072e-02
       75200000   -1,930789798e-01   -5,432991311e-02
       75275000   -1,924176365e-01   -5,475513265e-02
       75350000   -1,917831451e-01   -5,363821611e-02
       75425000   -1,912686527e-01   -5,312240124e-02
       75500000   -1,906301677e-01   -5,208871886e-02
       75575000   -1,896194816e-01   -5,236254632e-02
       75650000   -1,894415170e-01   -5,158402771e-02
       75725000   -1,885695010e-01   -5,280239135e-02
       75800000   -1,883580983e-01   -5,155014619e-02
       75875000   -1,880611926e-01   -5,174800009e-02
       75950000   -1,877411008e-01   -5,074318126e-02
       76025000   -1,863648891e-01   -5,071769655e-02
       76100000   -1,875327677e-01   -5,110927671e-02
       76175000   -1,864922941e-01   -5,053270608e-02
       76250000   -1,862591058e-01   -5,068481714e-02
       76325000   -1,864755899e-01   -4,988517985e-02
       76400000   -1,858845651e-01   -5,043253303e-02
       76475000   -1,858400255e-01   -4,976902902e-02
       76550000   -1,854554415e-01   -4,867903516e-02
       76625000   -1,853999346e-01   -4,871177673e-02
       76700000   -1,861267090e-01   -4,822659492e-02
       76775000   -1,855090111e-01   -4,803723469e-02
       76850000   -1,869796216e-01   -4,821600392e-02
       76925000   -1,883907467e-01   -4,759579897e-02
       77000000   -1,884430945e-01   -4,674195126e-02
       77075000   -1,900891364e-01   -4,465298727e-02
       77150000   -1,907635927e-01   -4,271826148e-02
       77225000   -1,911501139e-01   -4,026271403e-02
       77300000   -1,903854162e-01   -3,704800829e-02
       77375000   -1,903646886e-01   -3,499928489e-02
       77450000   -1,885273457e-01   -3,318891674e-02
       77525000   -1,873835474e-01   -3,118530847e-02
       77600000   -1,871732324e-01   -3,079052828e-02
       77675000   -1,859446019e-01   -2,907588705e-02
       77750000   -1,844882667e-01   -2,831261978e-02
       77825000   -1,842498332e-01   -2,716037259e-02
       77900000   -1,836123616e-01   -2,517889440e-02
       77975000   -1,822650880e-01   -2,490334027e-02
       78050000   -1,827755421e-01   -2,375167795e-02
       78125000   -1,822446287e-01   -2,173063718e-02
       78200000   -1,809502989e-01   -2,066741697e-02
       78275000   -1,810197234e-01   -1,894567534e-02
       78350000   -1,809963137e-01   -1,731082983e-02
       78425000   -1,798692048e-01   -1,583041437e-02
       78500000   -1,793027371e-01   -1,421807706e-02
       78575000   -1,793169826e-01   -1,346533839e-02
       78650000   -1,774730533e-01   -1,235070266e-02
       78725000   -1,779011786e-01   -1,043593697e-02
       78800000   -1,778021604e-01   -8,413450792e-03
       78875000   -1,762965173e-01   -6,880220491e-03
       78950000   -1,762001812e-01   -4,591169767e-03
       79025000   -1,745892912e-01   -3,361144802e-03
       79100000   -1,749030352e-01   -1,298377407e-03
       79175000   -1,739263982e-01    1,698215259e-03
       79250000   -1,735754162e-01    2,859668573e-03
       79325000   -1,726211905e-01    5,563913379e-03
       79400000   -1,710588634e-01    7,081560325e-03
       79475000   -1,705527604e-01    9,818799794e-03
       79550000   -1,681517661e-01    1,202135533e-02
       79625000   -1,676270068e-01    1,404137351e-02
       79700000   -1,666846573e-01    1,710755005e-02
       79775000   -1,650361270e-01    1,814539172e-02
       79850000   -1,633832902e-01    2,108152211e-02
       79925000   -1,619525701e-01    2,401497588e-02
       80000000   -1,597983092e-01    2,639018372e-02
       80075000   -1,580267400e-01    2,856029011e-02
       80150000   -1,563231945e-01    3,154537827e-02
       80225000   -1,540886909e-01    3,287950158e-02
       80300000   -1,528866887e-01    3,589484468e-02
       80375000   -1,491380036e-01    3,751846403e-02
       80450000   -1,484003812e-01    4,004161805e-02
       80525000   -1,452657282e-01    4,278185591e-02
       80600000   -1,431709528e-01    4,435395822e-02
       80675000   -1,409768313e-01    4,723479599e-02
       80750000   -1,380188167e-01    4,846107960e-02
       80825000   -1,350464523e-01    5,030554533e-02
       80900000   -1,323846579e-01    5,252900720e-02
       80975000   -1,302265227e-01    5,448922887e-02
       81050000   -1,276971251e-01    5,582397804e-02
       81125000   -1,242092922e-01    5,794006586e-02
       81200000   -1,216388941e-01    5,950192362e-02
       81275000   -1,178273037e-01    6,074089557e-02
       81350000   -1,165098250e-01    6,257916242e-02
       81425000   -1,129719615e-01    6,512209028e-02
       81500000   -1,100955456e-01    6,648780406e-02
       81575000   -1,074716896e-01    6,804000586e-02
       81650000   -1,040021107e-01    6,915686280e-02
       81725000   -1,011691615e-01    7,062514126e-02
       81800000   -9,818825871e-02    7,333432138e-02
       81875000   -9,414276481e-02    7,384023815e-02
       81950000   -9,180142730e-02    7,531505078e-02
       82025000   -8,827446401e-02    7,701208442e-02
       82100000   -8,496757597e-02    7,850673795e-02
       82175000   -8,092665672e-02    7,991797477e-02
       82250000   -7,829513401e-02    8,158397675e-02
       82325000   -7,522444427e-02    8,287686855e-02
       82400000   -7,216516137e-02    8,440400660e-02
       82475000   -6,856304407e-02    8,604457229e-02
       82550000   -6,493905187e-02    8,737922460e-02
       82625000   -6,110515073e-02    8,850397170e-02
       82700000   -5,730120465e-02    8,972653747e-02
       82775000   -5,335235596e-02    9,184964746e-02
       82850000   -4,959727079e-02    9,200704098e-02
       82925000   -4,542804137e-02    9,367209673e-02
       83000000   -4,119797051e-02    9,479526430e-02
       83075000   -3,686303645e-02    9,577818960e-02
       83150000   -3,189636767e-02    9,671033919e-02
       83225000   -2,794036828e-02    9,747298062e-02
       83300000   -2,338335104e-02    9,726177901e-02
       83375000   -1,923495717e-02    9,877636284e-02
       83450000   -1,347244158e-02    9,982885420e-02
       83525000   -9,172555991e-03    9,877751768e-02
       83600000   -3,839061130e-03    9,981478751e-02
       83675000    4,776538408e-04    9,950032085e-02
       83750000    4,898791201e-03    1,000652388e-01
       83825000    1,094375830e-02    9,918475896e-02
       83900000    1,580074988e-02    9,927158058e-02
       83975000    2,094837278e-02    9,957900643e-02
       84050000    2,542206086e-02    9,849549085e-02
       84125000    3,094906919e-02    9,861277044e-02
       84200000    3,625846654e-02    9,631740302e-02
       84275000    4,133463278e-02    9,592893720e-02
       84350000    4,739850014e-02    9,509986639e-02
       84425000    5,174731463e-02    9,382334352e-02
       84500000    5,740302801e-02    9,265111387e-02
       84575000    6,163844094e-02    9,034642577e-02
       84650000    6,665744632e-02    8,854362369e-02
       84725000    7,284443080e-02    8,668996394e-02
       84800000    7,731177658e-02    8,465909958e-02
       84875000    8,317679167e-02    8,175561577e-02
       84950000    8,672662079e-02    7,996409386e-02
       85025000    9,195502847e-02    7,748986036e-02
       85100000    9,691352397e-02    7,473757863e-02
       85175000    1,015573218e-01    7,115323097e-02
       85250000    1,064312980e-01    6,858965009e-02
       85325000    1,116859913e-01    6,538219750e-02
       85400000    1,148507968e-01    6,211053953e-02
       85475000    1,195891201e-01    5,875013396e-02
       85550000    1,244320273e-01    5,500084907e-02
       85625000    1,272393465e-01    5,066949129e-02
       85700000    1,310713738e-01    4,801692441e-02
       85775000    1,360922903e-01    4,326750711e-02
       85850000    1,391650885e-01    3,932783008e-02
       85925000    1,422243267e-01    3,491410986e-02
       86000000    1,461510211e-01    3,064161353e-02
       86075000    1,487094015e-01    2,670054697e-02
       86150000    1,523430943e-01    2,277770452e-02
       86225000    1,551899612e-01    1,738133281e-02
       86300000    1,577395052e-01    1,408137660e-02
       86375000    1,600234061e-01    8,718978614e-03
       86450000    1,618669629e-01    4,586629570e-03
       86525000    1,641626656e-01    4,525120021e-04
       86600000    1,665811837e-01   -5,099534988e-03
       86675000    1,679439992e-01   -9,879107587e-03
       86750000    1,697592884e-01   -1,430803910e-02
       86825000    1,711435318e-01   -1,897945069e-02
       86900000    1,708581746e-01   -2,462509833e-02
       86975000    1,713263988e-01   -2,871360816e-02
       87050000    1,731801778e-01   -3,213706240e-02
       87125000    1,733687669e-01   -3,681237996e-02
       87200000    1,727653295e-01   -4,108832777e-02
       87275000    1,740506142e-01   -4,492947087e-02
       87350000    1,739697009e-01   -4,886068031e-02
       87425000    1,734429151e-01   -5,284021795e-02
       87500000    1,753185391e-01   -5,633709207e-02
       87575000    1,726329029e-01   -5,963613838e-02
       87650000    1,738004088e-01   -6,277140230e-02
       87725000    1,732979268e-01   -6,683542579e-02
       87800000    1,723813117e-01   -6,912764907e-02
       87875000    1,729640514e-01   -7,268651575e-02
       87950000    1,719384938e-01   -7,402403653e-02
       88025000    1,718838364e-01   -7,647616416e-02
       88100000    1,722763181e-01   -7,957811654e-02
       88175000    1,709482074e-01   -8,263871074e-02
       88250000    1,713441461e-01   -8,487252891e-02
       88325000    1,718518436e-01   -8,695376664e-02
       88400000    1,714357734e-01   -8,867137879e-02
       88475000    1,720314771e-01   -9,143763781e-02
       88550000    1,708959937e-01   -9,411434829e-02
       88625000    1,719078720e-01   -9,720143676e-02
       88700000    1,712275445e-01   -9,902485460e-02
       88775000    1,718008071e-01   -1,017672345e-01
       88850000    1,701402813e-01   -1,037331447e-01
       88925000    1,709054559e-01   -1,070443168e-01
       89000000    1,701568365e-01   -1,103651747e-01
       89075000    1,706179231e-01   -1,114767343e-01
       89150000    1,695923358e-01   -1,153505221e-01
       89225000    1,688817292e-01   -1,155135110e-01
       89300000    1,677084863e-01   -1,187124625e-01
       89375000    1,664769650e-01   -1,196966246e-01
       89450000    1,651758999e-01   -1,225280464e-01
       89525000    1,625563949e-01   -1,257043034e-01
       89600000    1,617508829e-01   -1,265704930e-01
       89675000    1,605739444e-01   -1,270299703e-01
       89750000    1,571154892e-01   -1,282300949e-01
       89825000    1,575599313e-01   -1,281327158e-01
       89900000    1,564429551e-01   -1,291157603e-01
       89975000    1,539982706e-01   -1,282523870e-01
       90050000    1,526771486e-01   -1,289676726e-01
       90125000    1,502812654e-01   -1,289621592e-01
       90200000    1,508546621e-01   -1,286779940e-01
       90275000    1,501267105e-01   -1,271343976e-01
       90350000    1,489145309e-01   -1,240232587e-01
       90425000    1,476793289e-01   -1,245691180e-01
       90500000    1,470628679e-01   -1,232966930e-01
       90575000    1,497883201e-01   -1,207039580e-01
       90650000    1,497361958e-01   -1,189256683e-01
       90725000    1,508424580e-01   -1,185130775e-01
       90800000    1,529576927e-01   -1,157340482e-01
       90875000    1,546122581e-01   -1,145943478e-01
       90950000    1,565360278e-01   -1,111115366e-01
       91025000    1,593591273e-01   -1,102605984e-01
       91100000    1,616770178e-01   -1,080620661e-01
       91175000    1,653223187e-01   -1,067245752e-01
       91250000    1,677602530e-01   -1,056446880e-01
       91325000    1,721464992e-01   -1,050233394e-01
       91400000    1,741849333e-01   -1,046750024e-01
       91475000    1,794210076e-01   -1,041689515e-01
       91550000    1,821369678e-01   -1,044704989e-01
       91625000    1,877386719e-01   -1,039906368e-01
       91700000    1,911489964e-01   -1,052536815e-01
       91775000    1,971600205e-01   -1,052790955e-01
       91850000    2,009602338e-01   -1,069813967e-01
       91925000    2,071952969e-01   -1,073478237e-01
