! NanoVNA-App
! Date: 2025-08-09 16:25:23
! Start: 65MHz Stop: 95MHz Points: 401
! S-Parameter data: F S11
# Hz S RI R 50
!     Frequency           S11_Real           S11_Imag
       65000000    2,134758793e-02    6,295995712e-01
       65075000    2,957994677e-02    6,342721581e-01
       65150000    2,676068805e-02    6,284543872e-01
       65225000    3,434932232e-02    6,253290772e-01
       65300000    4,227197915e-02    6,252500415e-01
       65375000    4,574352875e-02    6,250515580e-01
       65450000    4,949995130e-02    6,220821738e-01
       65525000    5,596584082e-02    6,198910475e-01
       65600000    6,051658839e-02    6,167474389e-01
       65675000    6,377989799e-02    6,138621569e-01
       65750000    6,804884970e-02    6,107782722e-01
       65825000    7,330960035e-02    6,010007262e-01
       65900000    7,741946727e-02    6,007100344e-01
       65975000    8,218726516e-02    5,973930955e-01
       66050000    8,682311326e-02    5,952227116e-01
       66125000    8,924611658e-02    5,971232653e-01
       66200000    9,211505949e-02    5,904461145e-01
       66275000    1,003915295e-01    5,914055109e-01
       66350000    9,930501133e-02    5,884806514e-01
       66425000    1,045398414e-01    5,831782222e-01
       66500000    1,094329655e-01    5,796449184e-01
       66575000    1,125872433e-01    5,770466924e-01
       66650000    1,189345047e-01    5,751771331e-01
       66725000    1,234673038e-01    5,759632587e-01
       66800000    1,277409047e-01    5,742381215e-01
       66875000    1,310035288e-01    5,719680190e-01
       66950000    1,340932846e-01    5,702251196e-01
       67025000    1,371029466e-01    5,686457753e-01
       67100000    1,409895569e-01    5,671470165e-01
       67175000    1,443214715e-01    5,596124530e-01
       67250000    1,499957144e-01    5,590709448e-01
       67325000    1,525597721e-01    5,555787683e-01
       67400000    1,568801105e-01    5,530174971e-01
       67475000    1,638698131e-01    5,549114347e-01
       67550000    1,641415209e-01    5,514749289e-01
       67625000    1,692007184e-01    5,465828180e-01
       67700000    1,739262640e-01    5,445424914e-01
       67775000    1,790048033e-01    5,447084904e-01
       67850000    1,802552491e-01    5,416807532e-01
       67925000    1,850917190e-01    5,387893915e-01
       68000000    1,878866255e-01    5,346595645e-01
       68075000    1,943329275e-01    5,302784443e-01
       68150000    1,990007162e-01    5,267664194e-01
       68225000    2,032504678e-01    5,284793973e-01
       68300000    2,064336389e-01    5,254723430e-01
       68375000    2,113856971e-01    5,226262212e-01
       68450000    2,108018696e-01    5,173658133e-01
       68525000    2,145010382e-01    5,150143504e-01
       68600000    2,183823586e-01    5,107018948e-01
       68675000    2,239714116e-01    5,068968534e-01
       68750000    2,267442197e-01    5,076310635e-01
       68825000    2,320625484e-01    5,031182170e-01
       68900000    2,363399267e-01    4,998728335e-01
       68975000    2,384386063e-01    4,974610209e-01
       69050000    2,419510782e-01    4,942600429e-01
       69125000    2,454678565e-01    4,913303852e-01
       69200000    2,487895787e-01    4,883059561e-01
       69275000    2,504135072e-01    4,852660000e-01
       69350000    2,542570233e-01    4,819880128e-01
       69425000    2,571157813e-01    4,790621400e-01
       69500000    2,597682178e-01    4,746180475e-01
       69575000    2,619321942e-01    4,719516039e-01
       69650000    2,650592923e-01    4,705283046e-01
       69725000    2,657345831e-01    4,672904015e-01
       69800000    2,687406838e-01    4,644095898e-01
       69875000    2,705737948e-01    4,610294700e-01
       69950000    2,733741999e-01    4,538128972e-01
       70025000    2,747291028e-01    4,549076259e-01
       70100000    2,783702314e-01    4,488058984e-01
       70175000    2,813271880e-01    4,477534890e-01
       70250000    2,797380090e-01    4,492020011e-01
       70325000    2,827804387e-01    4,425227940e-01
       70400000    2,843255997e-01    4,402748048e-01
       70475000    2,869304121e-01    4,350930750e-01
       70550000    2,917763591e-01    4,342772663e-01
       70625000    2,923560441e-01    4,338068664e-01
       70700000    2,931449711e-01    4,285108149e-01
       70775000    2,948773801e-01    4,259093404e-01
       70850000    2,978868186e-01    4,244442284e-01
       70925000    3,009243011e-01    4,241394997e-01
       71000000    3,027322292e-01    4,230689406e-01
       71075000    3,048218787e-01    4,183598459e-01
       71150000    3,086353242e-01    4,178395867e-01
       71225000    3,125841618e-01    4,131104946e-01
       71300000    3,160437644e-01    4,110035598e-01
       71375000    3,175937533e-01    4,092344344e-01
       71450000    3,183234930e-01    4,063644111e-01
       71525000    3,212743104e-01    4,056402445e-01
       71600000    3,248330951e-01    3,995836675e-01
       71675000    3,266989589e-01    3,988018036e-01
       71750000    3,294213414e-01    3,954312801e-01
       71825000    3,317683935e-01    3,917884231e-01
       71900000    3,335166574e-01    3,884511888e-01
       71975000    3,366397321e-01    3,853032291e-01
       72050000    3,384561539e-01    3,798240423e-01
       72125000    3,406849802e-01    3,766343594e-01
       72200000    3,423058987e-01    3,740578592e-01
       72275000    3,432145417e-01    3,715679049e-01
       72350000    3,437730968e-01    3,690213263e-01
       72425000    3,447181880e-01    3,657248020e-01
       72500000    3,442378044e-01    3,606058955e-01
       72575000    3,456825018e-01    3,595187962e-01
       72650000    3,464976847e-01    3,556918800e-01
       72725000    3,475878835e-01    3,557832539e-01
       72800000    3,485743999e-01    3,523772657e-01
       72875000    3,497593701e-01    3,502107561e-01
       72950000    3,498932719e-01    3,474480808e-01
       73025000    3,516080678e-01    3,462277949e-01
       73100000    3,528293669e-01    3,430652916e-01
       73175000    3,528127074e-01    3,428764045e-01
       73250000    3,539472222e-01    3,391000628e-01
       73325000    3,552669883e-01    3,386406600e-01
       73400000    3,564302921e-01    3,367161751e-01
       73475000    3,584794998e-01    3,347691000e-01
       73550000    3,602041602e-01    3,328396082e-01
       73625000    3,618626297e-01    3,318589628e-01
       73700000    3,641829789e-01    3,300917447e-01
       73775000    3,660749197e-01    3,282828927e-01
       73850000    3,674629629e-01    3,274095654e-01
       73925000    3,682515919e-01    3,248976469e-01
       74000000    3,698654473e-01    3,234858811e-01
       74075000    3,717788756e-01    3,202049136e-01
       74150000    3,745526671e-01    3,198440373e-01
       74225000    3,761252165e-01    3,172495663e-01
       74300000    3,776184916e-01    3,156196177e-01
       74375000    3,795411587e-01    3,140100241e-01
       74450000    3,806850314e-01    3,112472296e-01
       74525000    3,819787800e-01    3,090619147e-01
       74600000    3,840216696e-01    3,072541654e-01
       74675000    3,864819407e-01    3,052290380e-01
       74750000    3,885723650e-01    3,032973707e-01
       74825000    3,894155622e-01    3,018746078e-01
       74900000    3,909545243e-01    2,998856306e-01
       74975000    3,923000991e-01    2,969160974e-01
       75050000    3,937317133e-01    2,943633795e-01
       75125000    3,957760930e-01    2,923354805e-01
       75200000    3,970471919e-01    2,898380160e-01
       75275000    3,988940120e-01    2,883574665e-01
       75350000    3,998606205e-01    2,856472135e-01
       75425000    4,023874700e-01    2,849677205e-01
       75500000    4,038552344e-01    2,818917334e-01
       75575000    4,049713612e-01    2,803268433e-01
       75650000    4,073277116e-01    2,776592076e-01
       75725000    4,080991447e-01    2,761635184e-01
       75800000    4,094181359e-01    2,737979591e-01
       75875000    4,105423689e-01    2,712082863e-01
       75950000    4,117214680e-01    2,694979608e-01
       76025000    4,126830399e-01    2,663936615e-01
       76100000    4,144022167e-01    2,647627294e-01
       76175000    4,161579609e-01    2,627966404e-01
       76250000    4,166490734e-01    2,606264949e-01
       76325000    4,173801243e-01    2,593361437e-01
       76400000    4,190731347e-01    2,568828762e-01
       76475000    4,194324017e-01    2,534702420e-01
       76550000    4,200823009e-01    2,527485490e-01
       76625000    4,207844734e-01    2,505843937e-01
       76700000    4,216512144e-01    2,490215451e-01
       76775000    4,222457409e-01    2,466350794e-01
       76850000    4,223232567e-01    2,451701909e-01
       76925000    4,227873385e-01    2,434184402e-01
       77000000    4,240565896e-01    2,420781702e-01
       77075000    4,243620634e-01    2,412274629e-01
       77150000    4,254882336e-01    2,416084260e-01
       77225000    4,270561039e-01    2,416403294e-01
       77300000    4,289707839e-01    2,407195717e-01
       77375000    4,312359691e-01    2,391124368e-01
       77450000    4,330915809e-01    2,376369387e-01
       77525000    4,351630509e-01    2,352399379e-01
       77600000    4,367643595e-01    2,337037474e-01
       77675000    4,383748174e-01    2,321347147e-01
       77750000    4,412975311e-01    2,298501134e-01
       77825000    4,412500858e-01    2,287479341e-01
       77900000    4,441849291e-01    2,272736281e-01
       77975000    4,448724687e-01    2,250115424e-01
       78050000    4,452378452e-01    2,230675370e-01
       78125000    4,477431476e-01    2,223055065e-01
       78200000    4,491886795e-01    2,208054662e-01
       78275000    4,497589171e-01    2,178729922e-01
       78350000    4,518855810e-01    2,177278399e-01
       78425000    4,528621137e-01    2,154315859e-01
       78500000    4,541518390e-01    2,140856385e-01
       78575000    4,553217590e-01    2,131933272e-01
       78650000    4,568884075e-01    2,112116963e-01
       78725000    4,583475590e-01    2,094035596e-01
       78800000    4,598306119e-01    2,091379017e-01
       78875000    4,619607031e-01    2,082649916e-01
       78950000    4,626413584e-01    2,061160803e-01
       79025000    4,642761052e-01    2,050296515e-01
       79100000    4,661088884e-01    2,036055475e-01
       79175000    4,677076340e-01    2,021926045e-01
       79250000    4,699197412e-01    2,005013525e-01
       79325000    4,713345766e-01    2,001148313e-01
       79400000    4,730287790e-01    1,990738213e-01
       79475000    4,743975699e-01    1,967179924e-01
       79550000    4,775013626e-01    1,960484833e-01
       79625000    4,788153470e-01    1,940710396e-01
       79700000    4,808359444e-01    1,946831644e-01
       79775000    4,826849103e-01    1,921083778e-01
       79850000    4,853862226e-01    1,897931397e-01
       79925000    4,873694777e-01    1,893935651e-01
       80000000    4,894289672e-01    1,881545484e-01
       80075000    4,925143123e-01    1,871572435e-01
       80150000    4,951087832e-01    1,861975193e-01
       80225000    4,970640838e-01    1,838815808e-01
       80300000    4,998819828e-01    1,809452325e-01
       80375000    5,012957454e-01    1,792694628e-01
       80450000    5,044239759e-01    1,780266464e-01
       80525000    5,067805648e-01    1,774578691e-01
       80600000    5,096863508e-01    1,754793674e-01
       80675000    5,110362172e-01    1,718809903e-01
       80750000    5,140263438e-01    1,700225025e-01
       80825000    5,167067051e-01    1,678951234e-01
       80900000    5,199541450e-01    1,666834354e-01
       80975000    5,212341547e-01    1,639194787e-01
       81050000    5,237034559e-01    1,618170291e-01
       81125000    5,269395113e-01    1,598171145e-01
       81200000    5,287709236e-01    1,572033167e-01
       81275000    5,314829350e-01    1,548184901e-01
       81350000    5,332668424e-01    1,519851685e-01
       81425000    5,343860388e-01    1,496822238e-01
       81500000    5,376768708e-01    1,468493342e-01
       81575000    5,402317047e-01    1,442590952e-01
       81650000    5,428488851e-01    1,429834366e-01
       81725000    5,456761718e-01    1,409441084e-01
       81800000    5,477397442e-01    1,373413801e-01
       81875000    5,495565534e-01    1,360031962e-01
       81950000    5,516803265e-01    1,331591904e-01
       82025000    5,543434024e-01    1,307549924e-01
       82100000    5,560466051e-01    1,276905388e-01
       82175000    5,582394004e-01    1,248603761e-01
       82250000    5,606532097e-01    1,223314703e-01
       82325000    5,630637407e-01    1,187311932e-01
       82400000    5,653598309e-01    1,165029928e-01
       82475000    5,678321719e-01    1,148604751e-01
       82550000    5,702180266e-01    1,120768636e-01
       82625000    5,725786686e-01    1,087298691e-01
       82700000    5,748707652e-01    1,058688685e-01
       82775000    5,774829984e-01    1,024667248e-01
       82850000    5,799964070e-01    1,003662199e-01
       82925000    5,821341872e-01    9,694442898e-02
       83000000    5,842025280e-01    9,361214191e-02
       83075000    5,864538550e-01    9,063737839e-02
       83150000    5,890858173e-01    8,909081668e-02
       83225000    5,905750990e-01    8,336967230e-02
       83300000    5,938189030e-01    8,093868196e-02
       83375000    5,964058042e-01    7,698278129e-02
       83450000    5,983041525e-01    7,320836931e-02
       83525000    6,015307903e-01    7,000815868e-02
       83600000    6,032487750e-01    6,590431184e-02
       83675000    6,036291718e-01    6,251998991e-02
       83750000    6,068555713e-01    5,882448703e-02
       83825000    6,091830730e-01    5,413597450e-02
       83900000    6,115537286e-01    5,087975413e-02
       83975000    6,136122346e-01    4,701806605e-02
       84050000    6,152929068e-01    4,398217052e-02
       84125000    6,167234778e-01    3,928178176e-02
       84200000    6,185192466e-01    3,493302315e-02
       84275000    6,217805743e-01    3,027237393e-02
       84350000    6,230822802e-01    2,608582005e-02
       84425000    6,244285703e-01    2,263043076e-02
       84500000    6,262220144e-01    1,808998920e-02
       84575000    6,259244680e-01    1,307867840e-02
       84650000    6,292108297e-01    8,025858551e-03
       84725000    6,304630637e-01    4,224116914e-03
       84800000    6,322827935e-01   -4,325185146e-04
       84875000    6,323186755e-01   -5,199999083e-03
       84950000    6,321385503e-01   -1,042848267e-02
       85025000    6,340352297e-01   -1,311653852e-02
       85100000    6,347649693e-01   -1,992907003e-02
       85175000    6,364645958e-01   -2,428380586e-02
       85250000    6,371592879e-01   -2,797963843e-02
       85325000    6,370525956e-01   -3,310672939e-02
       85400000    6,372169852e-01   -3,664704785e-02
       85475000    6,378928423e-01   -4,314862937e-02
       85550000    6,387500763e-01   -4,734577984e-02
       85625000    6,394602656e-01   -5,271353945e-02
       85700000    6,394533515e-01   -5,710364133e-02
       85775000    6,379984617e-01   -6,181170419e-02
       85850000    6,393549442e-01   -6,681425124e-02
       85925000    6,387723684e-01   -7,176189870e-02
       86000000    6,378655434e-01   -7,692128420e-02
       86075000    6,372260451e-01   -7,989441603e-02
       86150000    6,376317739e-01   -8,427826315e-02
       86225000    6,375325918e-01   -8,918376267e-02
       86300000    6,349414587e-01   -9,463093430e-02
       86375000    6,347547770e-01   -9,936537594e-02
       86450000    6,331250072e-01   -1,026529148e-01
       86525000    6,335266829e-01   -1,071993262e-01
       86600000    6,312500834e-01   -1,131039485e-01
       86675000    6,297575235e-01   -1,175680161e-01
       86750000    6,294658780e-01   -1,221373007e-01
       86825000    6,273877621e-01   -1,238802597e-01
       86900000    6,269893050e-01   -1,296894252e-01
       86975000    6,258375049e-01   -1,334807128e-01
       87050000    6,223044395e-01   -1,359261274e-01
       87125000    6,224531531e-01   -1,400271207e-01
       87200000    6,194698215e-01   -1,445139050e-01
       87275000    6,174327731e-01   -1,459144950e-01
       87350000    6,172991991e-01   -1,508717537e-01
       87425000    6,141927242e-01   -1,547473222e-01
       87500000    6,138890982e-01   -1,576511711e-01
       87575000    6,107517481e-01   -1,603351086e-01
       87650000    6,096118689e-01   -1,617560685e-01
       87725000    6,071302295e-01   -1,644325107e-01
       87800000    6,054208875e-01   -1,663342267e-01
       87875000    6,036317348e-01   -1,701464057e-01
       87950000    6,025198698e-01   -1,728603989e-01
       88025000    6,001065969e-01   -1,758998483e-01
       88100000    5,998392701e-01   -1,771841794e-01
       88175000    5,974519849e-01   -1,796337068e-01
       88250000    5,962944031e-01   -1,811981499e-01
       88325000    5,959724784e-01   -1,843528003e-01
       88400000    5,939934254e-01   -1,879677325e-01
       88475000    5,938135386e-01   -1,884075850e-01
       88550000    5,926917791e-01   -1,909011006e-01
       88625000    5,893493295e-01   -1,936360002e-01
       88700000    5,894522071e-01   -1,948845536e-01
       88775000    5,883397460e-01   -1,985222101e-01
       88850000    5,862733126e-01   -2,003042698e-01
       88925000    5,844383240e-01   -2,033599615e-01
       89000000    5,834864974e-01   -2,051395476e-01
       89075000    5,811322927e-01   -2,084671706e-01
       89150000    5,805989504e-01   -2,091288865e-01
       89225000    5,787815452e-01   -2,115061432e-01
       89300000    5,776731968e-01   -2,118730396e-01
       89375000    5,752488375e-01   -2,153496891e-01
       89450000    5,740135908e-01   -2,157336771e-01
       89525000    5,715174079e-01   -2,177257836e-01
       89600000    5,689915419e-01   -2,195232958e-01
       89675000    5,680702925e-01   -2,183551937e-01
       89750000    5,667913556e-01   -2,208773196e-01
       89825000    5,653197765e-01   -2,214666605e-01
       89900000    5,639352202e-01   -2,211071104e-01
       89975000    5,621201992e-01   -2,223237902e-01
       90050000    5,601662397e-01   -2,222300321e-01
       90125000    5,605836511e-01   -2,231832296e-01
       90200000    5,584130883e-01   -2,242118120e-01
       90275000    5,590317249e-01   -2,212374657e-01
       90350000    5,583501458e-01   -2,225589305e-01
       90425000    5,579003096e-01   -2,233193815e-01
       90500000    5,591245890e-01   -2,221666574e-01
       90575000    5,602322221e-01   -2,220569104e-01
       90650000    5,593615174e-01   -2,220525444e-01
       90725000    5,620230436e-01   -2,214721143e-01
       90800000    5,632972121e-01   -2,228464782e-01
       90875000    5,634615421e-01   -2,207451761e-01
       90950000    5,656349063e-01   -2,227956951e-01
       91025000    5,664163232e-01   -2,220904231e-01
       91100000    5,692074895e-01   -2,234684676e-01
       91175000    5,707914233e-01   -2,258616090e-01
       91250000    5,731644034e-01   -2,271787971e-01
       91325000    5,746896267e-01   -2,278708965e-01
       91400000    5,791923404e-01   -2,289474159e-01
       91475000    5,808429122e-01   -2,313204855e-01
       91550000    5,838733315e-01   -2,325477600e-01
       91625000    5,858197212e-01   -2,355282605e-01
       91700000    5,880665779e-01   -2,371980399e-01
       91775000    5,892873406e-01   -2,401720583e-01
       91850000    5,912923813e-01   -2,421281040e-01
       91925000    5,943359137e-01   -2,466773093e-01
