! NanoVNA-App
! Date: 2025-08-09 13:08:03
! Start: 65MHz Stop: 95MHz Points: 401
! S-Parameter data: F S11
# Hz S RI R 50
!     Frequency           S11_Real           S11_Imag
       65000000    6,112085581e-01   -3,754695654e-01
       65075000    6,102413535e-01   -3,749071360e-01
       65150000    6,070660353e-01   -3,767417073e-01
       65225000    6,047419906e-01   -3,773084283e-01
       65300000    6,019498706e-01   -3,799023926e-01
       65375000    6,008544564e-01   -3,811100721e-01
       65450000    5,972229838e-01   -3,833091855e-01
       65525000    5,951429009e-01   -3,857819736e-01
       65600000    5,927733183e-01   -3,857260644e-01
       65675000    5,898281932e-01   -3,884489536e-01
       65750000    5,876209736e-01   -3,907191753e-01
       65825000    5,858082175e-01   -3,909984529e-01
       65900000    5,843964219e-01   -3,929592073e-01
       65975000    5,818932652e-01   -3,950018585e-01
       66050000    5,781138539e-01   -3,961328268e-01
       66125000    5,767850876e-01   -3,980883062e-01
       66200000    5,756616592e-01   -4,000146389e-01
       66275000    5,737521648e-01   -4,017113745e-01
       66350000    5,710849762e-01   -4,030076861e-01
       66425000    5,671577454e-01   -4,037792385e-01
       66500000    5,649859905e-01   -4,055539966e-01
       66575000    5,632519126e-01   -4,064326882e-01
       66650000    5,604528189e-01   -4,089955091e-01
       66725000    5,599117279e-01   -4,101671278e-01
       66800000    5,575427413e-01   -4,126416445e-01
       66875000    5,559257269e-01   -4,131877720e-01
       66950000    5,544795990e-01   -4,147954285e-01
       67025000    5,522183776e-01   -4,161651134e-01
       67100000    5,509625673e-01   -4,179800153e-01
       67175000    5,480793715e-01   -4,203063548e-01
       67250000    5,467572808e-01   -4,224534929e-01
       67325000    5,457886457e-01   -4,242206514e-01
       67400000    5,425365567e-01   -4,264421463e-01
       67475000    5,397477150e-01   -4,265184104e-01
       67550000    5,381222963e-01   -4,288132489e-01
       67625000    5,371243954e-01   -4,309861362e-01
       67700000    5,349147916e-01   -4,321318567e-01
       67775000    5,329971910e-01   -4,353525937e-01
       67850000    5,304499269e-01   -4,364679754e-01
       67925000    5,294979811e-01   -4,385365844e-01
       68000000    5,266175270e-01   -4,397630692e-01
       68075000    5,228384137e-01   -4,410421848e-01
       68150000    5,219363570e-01   -4,431692064e-01
       68225000    5,200700760e-01   -4,463728964e-01
       68300000    5,163734555e-01   -4,476866424e-01
       68375000    5,152696967e-01   -4,501912892e-01
       68450000    5,135385394e-01   -4,502119422e-01
       68525000    5,113582015e-01   -4,520426393e-01
       68600000    5,073947906e-01   -4,540815353e-01
       68675000    5,049424767e-01   -4,572921395e-01
       68750000    5,028948784e-01   -4,572370052e-01
       68825000    5,016704202e-01   -4,601462185e-01
       68900000    4,987378120e-01   -4,613420069e-01
       68975000    4,969123006e-01   -4,628165960e-01
       69050000    4,929916859e-01   -4,640218616e-01
       69125000    4,909462929e-01   -4,651420712e-01
       69200000    4,871532619e-01   -4,667616487e-01
       69275000    4,850367308e-01   -4,681530595e-01
       69350000    4,826608598e-01   -4,684005976e-01
       69425000    4,788862169e-01   -4,696688056e-01
       69500000    4,767242670e-01   -4,711336493e-01
       69575000    4,726811647e-01   -4,716086388e-01
       69650000    4,706025124e-01   -4,732081890e-01
       69725000    4,680680335e-01   -4,738441110e-01
       69800000    4,647246599e-01   -4,756760597e-01
       69875000    4,628131986e-01   -4,755684435e-01
       69950000    4,598614573e-01   -4,771110117e-01
       70025000    4,587127566e-01   -4,770190418e-01
       70100000    4,563300312e-01   -4,795705974e-01
       70175000    4,537474513e-01   -4,785459340e-01
       70250000    4,501089454e-01   -4,796413183e-01
       70325000    4,478097260e-01   -4,801909924e-01
       70400000    4,443679750e-01   -4,816691279e-01
       70475000    4,442524314e-01   -4,812698364e-01
       70550000    4,395358562e-01   -4,803828597e-01
       70625000    4,394438863e-01   -4,816894233e-01
       70700000    4,382446110e-01   -4,818764329e-01
       70775000    4,339302778e-01   -4,813984931e-01
       70850000    4,334695935e-01   -4,822259545e-01
       70925000    4,304289818e-01   -4,839915633e-01
       71000000    4,284549057e-01   -4,836227894e-01
       71075000    4,265952110e-01   -4,827887416e-01
       71150000    4,250998199e-01   -4,832776487e-01
       71225000    4,228793085e-01   -4,836063087e-01
       71300000    4,192806780e-01   -4,843544662e-01
       71375000    4,198389351e-01   -4,854614735e-01
       71450000    4,169593751e-01   -4,836929739e-01
       71525000    4,167489409e-01   -4,838341475e-01
       71600000    4,141458571e-01   -4,854967296e-01
       71675000    4,122917354e-01   -4,841627777e-01
       71750000    4,111349583e-01   -4,850857258e-01
       71825000    4,080046713e-01   -4,848855436e-01
       71900000    4,076632857e-01   -4,851339459e-01
       71975000    4,050976336e-01   -4,860046208e-01
       72050000    4,049819410e-01   -4,868659079e-01
       72125000    4,028463364e-01   -4,861893654e-01
       72200000    4,014618099e-01   -4,868891835e-01
       72275000    3,980734348e-01   -4,881543219e-01
       72350000    3,978178203e-01   -4,872246385e-01
       72425000    3,945983052e-01   -4,885502458e-01
       72500000    3,935210109e-01   -4,883928895e-01
       72575000    3,918794096e-01   -4,883970320e-01
       72650000    3,937867582e-01   -4,892110527e-01
       72725000    3,903919458e-01   -4,902161062e-01
       72800000    3,889371157e-01   -4,896886349e-01
       72875000    3,872298598e-01   -4,911516905e-01
       72950000    3,861178756e-01   -4,905484915e-01
       73025000    3,837777078e-01   -4,903589487e-01
       73100000    3,834478557e-01   -4,897325635e-01
       73175000    3,816926479e-01   -4,920372665e-01
       73250000    3,822607398e-01   -4,898908734e-01
       73325000    3,812147081e-01   -4,908684194e-01
       73400000    3,783891201e-01   -4,901163876e-01
       73475000    3,784030378e-01   -4,915240109e-01
       73550000    3,754914403e-01   -4,916467071e-01
       73625000    3,747055233e-01   -4,920189381e-01
       73700000    3,734361827e-01   -4,945972264e-01
       73775000    3,724368513e-01   -4,938175976e-01
       73850000    3,727775216e-01   -4,939524233e-01
       73925000    3,707688153e-01   -4,929457307e-01
       74000000    3,687342107e-01   -4,937563539e-01
       74075000    3,675670326e-01   -4,947017729e-01
       74150000    3,681209981e-01   -4,942172468e-01
       74225000    3,665288091e-01   -4,955020547e-01
       74300000    3,662164807e-01   -4,968613088e-01
       74375000    3,643167913e-01   -4,952609837e-01
       74450000    3,626876473e-01   -4,990085959e-01
       74525000    3,621516526e-01   -4,983423948e-01
       74600000    3,619147539e-01   -4,987376034e-01
       74675000    3,599430621e-01   -4,974444211e-01
       74750000    3,589026332e-01   -4,978196025e-01
       74825000    3,557750285e-01   -4,996211231e-01
       74900000    3,551139235e-01   -4,999558032e-01
       74975000    3,554579020e-01   -5,015872121e-01
       75050000    3,545226753e-01   -5,010589361e-01
       75125000    3,530550003e-01   -5,016261935e-01
       75200000    3,518732786e-01   -5,011942387e-01
       75275000    3,516456783e-01   -5,019624233e-01
       75350000    3,501294255e-01   -5,017032027e-01
       75425000    3,470813036e-01   -5,023536682e-01
       75500000    3,445688784e-01   -5,032039881e-01
       75575000    3,448677659e-01   -5,031192899e-01
       75650000    3,425332010e-01   -5,045227408e-01
       75725000    3,427173197e-01   -5,043776035e-01
       75800000    3,415276408e-01   -5,053570867e-01
       75875000    3,400306404e-01   -5,053132176e-01
       75950000    3,393180072e-01   -5,063377023e-01
       76025000    3,373699188e-01   -5,049182177e-01
       76100000    3,364029825e-01   -5,038089752e-01
       76175000    3,352857530e-01   -5,070831776e-01
       76250000    3,348692060e-01   -5,065598488e-01
       76325000    3,350674510e-01   -5,080173016e-01
       76400000    3,342468441e-01   -5,072600245e-01
       76475000    3,313939273e-01   -5,052217245e-01
       76550000    3,326470852e-01   -5,062243342e-01
       76625000    3,319823742e-01   -5,063450336e-01
       76700000    3,292372525e-01   -5,059897900e-01
       76775000    3,293823004e-01   -5,078647137e-01
       76850000    3,257114291e-01   -5,066455603e-01
       76925000    3,273417354e-01   -5,089842081e-01
       77000000    3,265464902e-01   -5,094327927e-01
       77075000    3,230319321e-01   -5,094139576e-01
       77150000    3,229008615e-01   -5,086387992e-01
       77225000    3,224070072e-01   -5,073453784e-01
       77300000    3,196886778e-01   -5,080902576e-01
       77375000    3,199275136e-01   -5,085945725e-01
       77450000    3,197345436e-01   -5,098497868e-01
       77525000    3,175964653e-01   -5,094663501e-01
       77600000    3,177283704e-01   -5,089097619e-01
       77675000    3,182597160e-01   -5,099214911e-01
       77750000    3,167471290e-01   -5,061723590e-01
       77825000    3,156350553e-01   -5,085303783e-01
       77900000    3,172239363e-01   -5,062391162e-01
       77975000    3,138531148e-01   -5,053435564e-01
       78050000    3,147583604e-01   -5,065443516e-01
       78125000    3,163869083e-01   -5,047568083e-01
       78200000    3,138236701e-01   -5,036642551e-01
       78275000    3,163141310e-01   -5,041310787e-01
       78350000    3,161627352e-01   -5,031558275e-01
       78425000    3,193018436e-01   -5,032728910e-01
       78500000    3,177075982e-01   -5,034983158e-01
       78575000    3,175020516e-01   -5,060727596e-01
       78650000    3,174638152e-01   -5,076072216e-01
       78725000    3,177157044e-01   -5,058873892e-01
       78800000    3,177744746e-01   -5,085510015e-01
       78875000    3,175263703e-01   -5,098484159e-01
       78950000    3,178282380e-01   -5,099572539e-01
       79025000    3,193495870e-01   -5,112935901e-01
       79100000    3,187048733e-01   -5,106465220e-01
       79175000    3,178375065e-01   -5,093802810e-01
       79250000    3,178369701e-01   -5,101764798e-01
       79325000    3,186787069e-01   -5,134428144e-01
       79400000    3,185636103e-01   -5,143165588e-01
       79475000    3,206245899e-01   -5,131946206e-01
       79550000    3,184350133e-01   -5,127847791e-01
       79625000    3,185158372e-01   -5,133539438e-01
       79700000    3,205577731e-01   -5,168070793e-01
       79775000    3,213757277e-01   -5,174043179e-01
       79850000    3,188587129e-01   -5,152024627e-01
       79925000    3,222466111e-01   -5,187200904e-01
       80000000    3,198843896e-01   -5,184652209e-01
       80075000    3,220972717e-01   -5,165697932e-01
       80150000    3,203010559e-01   -5,210718513e-01
       80225000    3,233331740e-01   -5,213122964e-01
       80300000    3,227898479e-01   -5,220465064e-01
       80375000    3,220837116e-01   -5,226269960e-01
       80450000    3,224794269e-01   -5,281530619e-01
       80525000    3,224540055e-01   -5,279409885e-01
       80600000    3,246254623e-01   -5,312457085e-01
       80675000    3,257924914e-01   -5,300390720e-01
       80750000    3,244603574e-01   -5,296597481e-01
       80825000    3,241762817e-01   -5,352107882e-01
       80900000    3,249450326e-01   -5,361295938e-01
       80975000    3,267484307e-01   -5,351095796e-01
       81050000    3,236954212e-01   -5,391925573e-01
       81125000    3,237338364e-01   -5,398409963e-01
       81200000    3,253090978e-01   -5,435807705e-01
       81275000    3,258250356e-01   -5,449886918e-01
       81350000    3,259578049e-01   -5,472503304e-01
       81425000    3,259752095e-01   -5,455372334e-01
       81500000    3,263402879e-01   -5,476836562e-01
       81575000    3,277912736e-01   -5,499255657e-01
       81650000    3,272274435e-01   -5,543951392e-01
       81725000    3,254556954e-01   -5,556700230e-01
       81800000    3,234583735e-01   -5,584598780e-01
       81875000    3,265214860e-01   -5,600691438e-01
       81950000    3,279696703e-01   -5,629369020e-01
       82025000    3,268075585e-01   -5,627912879e-01
       82100000    3,271493614e-01   -5,642346740e-01
       82175000    3,253621757e-01   -5,654813051e-01
       82250000    3,242883086e-01   -5,686810017e-01
       82325000    3,225409389e-01   -5,723867416e-01
       82400000    3,222158551e-01   -5,743129849e-01
       82475000    3,237211406e-01   -5,788517594e-01
       82550000    3,245760500e-01   -5,797260404e-01
       82625000    3,237985075e-01   -5,833054185e-01
       82700000    3,217694461e-01   -5,838678479e-01
       82775000    3,227420151e-01   -5,869192481e-01
       82850000    3,217985630e-01   -5,876124501e-01
       82925000    3,221019804e-01   -5,922387242e-01
       83000000    3,215758801e-01   -5,940154195e-01
       83075000    3,207002282e-01   -5,957975984e-01
       83150000    3,197092712e-01   -5,964300632e-01
       83225000    3,194077313e-01   -5,996050239e-01
       83300000    3,176868856e-01   -6,006930470e-01
       83375000    3,161686361e-01   -6,033357382e-01
       83450000    3,131455779e-01   -6,094774604e-01
       83525000    3,128215671e-01   -6,116921902e-01
       83600000    3,115873635e-01   -6,149482727e-01
       83675000    3,103461266e-01   -6,125651598e-01
       83750000    3,092858791e-01   -6,149407625e-01
       83825000    3,060796559e-01   -6,210419536e-01
       83900000    3,071791530e-01   -6,238797307e-01
       83975000    3,078306019e-01   -6,266021729e-01
       84050000    3,065781593e-01   -6,261417270e-01
       84125000    3,041755557e-01   -6,280619502e-01
       84200000    2,970949113e-01   -6,309922934e-01
       84275000    3,017109036e-01   -6,349259019e-01
       84350000    3,000527620e-01   -6,386099458e-01
       84425000    2,988835871e-01   -6,385666728e-01
       84500000    2,978292406e-01   -6,414737105e-01
       84575000    2,901713252e-01   -6,434539557e-01
       84650000    2,944310606e-01   -6,481765509e-01
       84725000    2,922260165e-01   -6,477205753e-01
       84800000    2,901144326e-01   -6,490827203e-01
       84875000    2,881419957e-01   -6,519616246e-01
       84950000    2,823953927e-01   -6,576417685e-01
       85025000    2,818062305e-01   -6,572822332e-01
       85100000    2,808240056e-01   -6,619400382e-01
       85175000    2,811405957e-01   -6,637869477e-01
       85250000    2,776526511e-01   -6,649828553e-01
       85325000    2,756451666e-01   -6,658958197e-01
       85400000    2,685816884e-01   -6,681072116e-01
       85475000    2,683613300e-01   -6,723392606e-01
       85550000    2,670603991e-01   -6,721407771e-01
       85625000    2,671506107e-01   -6,763249040e-01
       85700000    2,634206116e-01   -6,751170754e-01
       85775000    2,601684630e-01   -6,809555292e-01
       85850000    2,605606616e-01   -6,803250313e-01
       85925000    2,552815974e-01   -6,854779124e-01
       86000000    2,542759478e-01   -6,872733235e-01
       86075000    2,518297434e-01   -6,881691217e-01
       86150000    2,456783652e-01   -6,860160828e-01
       86225000    2,474457622e-01   -6,875550151e-01
       86300000    2,420643717e-01   -6,920902133e-01
       86375000    2,386814952e-01   -6,944496036e-01
       86450000    2,346215844e-01   -6,952855587e-01
       86525000    2,336741537e-01   -6,922562718e-01
       86600000    2,312889546e-01   -6,985452175e-01
       86675000    2,288017124e-01   -7,013435364e-01
       86750000    2,271968126e-01   -7,012880445e-01
       86825000    2,216109335e-01   -7,014113069e-01
       86900000    2,217759788e-01   -6,995136738e-01
       86975000    2,205004245e-01   -7,021940947e-01
       87050000    2,144958228e-01   -7,067482471e-01
       87125000    2,155964822e-01   -7,049396038e-01
       87200000    2,121848017e-01   -7,046276927e-01
       87275000    2,043213397e-01   -7,066646218e-01
       87350000    2,066470385e-01   -7,068781853e-01
       87425000    2,048743516e-01   -7,087238431e-01
       87500000    1,997987926e-01   -7,090504169e-01
       87575000    1,995935291e-01   -7,089800835e-01
       87650000    1,956629604e-01   -7,089452147e-01
       87725000    1,911695302e-01   -7,139418721e-01
       87800000    1,859335750e-01   -7,145823836e-01
       87875000    1,878668219e-01   -7,166974545e-01
       87950000    1,841974705e-01   -7,123731971e-01
       88025000    1,851581931e-01   -7,153572440e-01
       88100000    1,827731878e-01   -7,100012302e-01
       88175000    1,763527095e-01   -7,183784842e-01
       88250000    1,737659723e-01   -7,195826173e-01
       88325000    1,711551696e-01   -7,155615091e-01
       88400000    1,688652188e-01   -7,164600492e-01
       88475000    1,654619575e-01   -7,164695859e-01
       88550000    1,639710963e-01   -7,195529938e-01
       88625000    1,643572003e-01   -7,212157845e-01
       88700000    1,567470282e-01   -7,214892507e-01
       88775000    1,561879516e-01   -7,177708149e-01
       88850000    1,537322998e-01   -7,226082087e-01
       88925000    1,538867801e-01   -7,199187279e-01
       89000000    1,507956386e-01   -7,187733054e-01
       89075000    1,460444182e-01   -7,198092341e-01
       89150000    1,418485045e-01   -7,187650204e-01
       89225000    1,398015767e-01   -7,221354246e-01
       89300000    1,358186156e-01   -7,214519382e-01
       89375000    1,355237365e-01   -7,212991118e-01
       89450000    1,317807138e-01   -7,208333611e-01
       89525000    1,329539865e-01   -7,173212767e-01
       89600000    1,307947934e-01   -7,166821361e-01
       89675000    1,303392798e-01   -7,199206948e-01
       89750000    1,268295199e-01   -7,164440155e-01
       89825000    1,232398748e-01   -7,186221480e-01
       89900000    1,220285445e-01   -7,193324566e-01
       89975000    1,214001551e-01   -7,169885039e-01
       90050000    1,203060821e-01   -7,161321044e-01
       90125000    1,177944019e-01   -7,116455436e-01
       90200000    1,145275384e-01   -7,109776139e-01
       90275000    1,163476780e-01   -7,148643732e-01
       90350000    1,158210263e-01   -7,127891779e-01
       90425000    1,132544279e-01   -7,097870708e-01
       90500000    1,117347479e-01   -7,079619765e-01
       90575000    1,130095720e-01   -7,126222253e-01
       90650000    1,129395142e-01   -7,088347673e-01
       90725000    1,091385260e-01   -7,115952373e-01
       90800000    1,111075580e-01   -7,112990618e-01
       90875000    1,113206670e-01   -7,113764882e-01
       90950000    1,118108332e-01   -7,092102170e-01
       91025000    1,127029285e-01   -7,108286023e-01
       91100000    1,132681146e-01   -7,095977664e-01
       91175000    1,110904962e-01   -7,093197703e-01
       91250000    1,096873060e-01   -7,083908319e-01
       91325000    1,098761931e-01   -7,106176019e-01
       91400000    1,067080647e-01   -7,151309848e-01
       91475000    1,097882390e-01   -7,170224190e-01
       91550000    1,085917354e-01   -7,186672091e-01
       91625000    1,107397974e-01   -7,194166183e-01
       91700000    1,085522175e-01   -7,212326527e-01
       91775000    1,113300100e-01   -7,197397947e-01
       91850000    1,095599160e-01   -7,219063640e-01
       91925000    1,076139361e-01   -7,214540839e-01
