! NanoVNA-App
! Date: 2025-08-02 16:10:44
! Start: 65MHz Stop: 95MHz Points: 401
! S-Parameter data: F S11
# Hz S RI R 50
!     Frequency           S11_Real           S11_Imag
       65000000   -5,813487172e-01   -8,920781314e-02
       65075000   -5,784684420e-01   -8,431531489e-02
       65150000   -5,734426379e-01   -7,896799594e-02
       65225000   -5,680522323e-01   -7,544517517e-02
       65300000   -5,645343065e-01   -6,956406683e-02
       65375000   -5,592985749e-01   -6,617889553e-02
       65450000   -5,544572473e-01   -6,156529486e-02
       65525000   -5,502687097e-01   -5,810026079e-02
       65600000   -5,440709591e-01   -5,326923355e-02
       65675000   -5,395253301e-01   -5,034093559e-02
       65750000   -5,341599584e-01   -4,645911604e-02
       65825000   -5,301536918e-01   -4,320763424e-02
       65900000   -5,255718231e-01   -4,027523473e-02
       65975000   -5,194789767e-01   -3,749092296e-02
       66050000   -5,150758028e-01   -3,429197520e-02
       66125000   -5,097895861e-01   -3,145878762e-02
       66200000   -5,060842633e-01   -3,012093343e-02
       66275000   -5,008345842e-01   -2,711110190e-02
       66350000   -4,957251549e-01   -2,438053489e-02
       66425000   -4,924551845e-01   -2,333889902e-02
       66500000   -4,875788689e-01   -1,989416964e-02
       66575000   -4,828858674e-01   -1,908916794e-02
       66650000   -4,789479375e-01   -1,663389616e-02
       66725000   -4,734164476e-01   -1,459440030e-02
       66800000   -4,696434736e-01   -1,312822010e-02
       66875000   -4,646977484e-01   -1,117763203e-02
       66950000   -4,607578218e-01   -8,779886179e-03
       67025000   -4,564562142e-01   -7,124515716e-03
       67100000   -4,515357018e-01   -4,961770494e-03
       67175000   -4,471206665e-01   -3,237474011e-03
       67250000   -4,421853423e-01   -7,570306188e-04
       67325000   -4,377530217e-01    8,366373368e-04
       67400000   -4,317216277e-01    1,934175729e-03
       67475000   -4,272173643e-01    3,448194591e-03
       67550000   -4,224351346e-01    5,695948377e-03
       67625000   -4,170079231e-01    5,169847980e-03
       67700000   -4,122998416e-01    6,025733892e-03
       67775000   -4,069386125e-01    7,065400016e-03
       67850000   -4,030689001e-01    6,414568983e-03
       67925000   -3,976656497e-01    7,411671802e-03
       68000000   -3,939100802e-01    6,808837876e-03
       68075000   -3,888113797e-01    6,915814709e-03
       68150000   -3,838669658e-01    6,316589192e-03
       68225000   -3,803108335e-01    6,844242569e-03
       68300000   -3,750133216e-01    6,677852012e-03
       68375000   -3,712053895e-01    5,961195566e-03
       68450000   -3,679415584e-01    6,905775052e-03
       68525000   -3,635230064e-01    4,826027434e-03
       68600000   -3,597066402e-01    5,162058864e-03
       68675000   -3,556065559e-01    3,384532873e-03
       68750000   -3,514552712e-01    3,060026327e-03
       68825000   -3,471325636e-01    2,212086925e-03
       68900000   -3,443403840e-01    9,022812010e-04
       68975000   -3,397503793e-01   -6,982948398e-04
       69050000   -3,375148177e-01   -1,788935857e-03
       69125000   -3,336179256e-01   -2,934038406e-03
       69200000   -3,313655853e-01   -3,965850919e-03
       69275000   -3,274828196e-01   -5,633343942e-03
       69350000   -3,255898058e-01   -7,470499724e-03
       69425000   -3,223791718e-01   -8,490471169e-03
       69500000   -3,200829029e-01   -1,006340329e-02
       69575000   -3,175621629e-01   -1,107828971e-02
       69650000   -3,162290454e-01   -1,324017439e-02
       69725000   -3,131510913e-01   -1,349350344e-02
       69800000   -3,118271828e-01   -1,486785337e-02
       69875000   -3,098863959e-01   -1,657642052e-02
       69950000   -3,071080148e-01   -1,865881309e-02
       70025000   -3,071060181e-01   -1,951212063e-02
       70100000   -3,053057194e-01   -2,033044398e-02
       70175000   -3,023433089e-01   -2,115687914e-02
       70250000   -3,019390702e-01   -2,268809639e-02
       70325000   -3,007056117e-01   -2,232243121e-02
       70400000   -2,994668186e-01   -2,430069260e-02
       70475000   -2,981274128e-01   -2,451646701e-02
       70550000   -2,957939506e-01   -2,499740571e-02
       70625000   -2,951398194e-01   -2,661234327e-02
       70700000   -2,938052416e-01   -2,684537135e-02
       70775000   -2,919482291e-01   -2,719110250e-02
       70850000   -2,915426195e-01   -2,805278823e-02
       70925000   -2,901947796e-01   -2,792190947e-02
       71000000   -2,890524864e-01   -2,831725776e-02
       71075000   -2,876260579e-01   -2,911905944e-02
       71150000   -2,856879830e-01   -3,020056337e-02
       71225000   -2,842452824e-01   -2,996428683e-02
       71300000   -2,834599614e-01   -3,084249981e-02
       71375000   -2,821060717e-01   -3,199779615e-02
       71450000   -2,801195681e-01   -3,178399429e-02
       71525000   -2,791437209e-01   -3,298917413e-02
       71600000   -2,786219120e-01   -3,417063132e-02
       71675000   -2,765091658e-01   -3,247769549e-02
       71750000   -2,751633227e-01   -3,441859409e-02
       71825000   -2,746328712e-01   -3,492959216e-02
       71900000   -2,723412514e-01   -3,534883261e-02
       71975000   -2,723080516e-01   -3,627665341e-02
       72050000   -2,718296349e-01   -3,757852316e-02
       72125000   -2,695271075e-01   -3,715753928e-02
       72200000   -2,687537372e-01   -3,831658512e-02
       72275000   -2,687453926e-01   -3,812974691e-02
       72350000   -2,665702105e-01   -4,016678408e-02
       72425000   -2,663850486e-01   -4,041321203e-02
       72500000   -2,649236917e-01   -4,138357565e-02
       72575000   -2,648927569e-01   -4,116362706e-02
       72650000   -2,643919885e-01   -4,291677475e-02
       72725000   -2,630438805e-01   -4,428886622e-02
       72800000   -2,631629407e-01   -4,427545518e-02
       72875000   -2,637778819e-01   -4,524236917e-02
       72950000   -2,625624537e-01   -4,602677375e-02
       73025000   -2,632724047e-01   -4,637265950e-02
       73100000   -2,629367709e-01   -4,663302377e-02
       73175000   -2,623033524e-01   -4,770421609e-02
       73250000   -2,626597285e-01   -4,858425632e-02
       73325000   -2,638100386e-01   -4,736807942e-02
       73400000   -2,620140016e-01   -4,868400842e-02
       73475000   -2,627917826e-01   -4,865919799e-02
       73550000   -2,629196048e-01   -4,818019271e-02
       73625000   -2,627679408e-01   -4,951772839e-02
       73700000   -2,623580396e-01   -4,975172132e-02
       73775000   -2,636239529e-01   -4,921069369e-02
       73850000   -2,632066309e-01   -4,911240935e-02
       73925000   -2,628101707e-01   -5,036700144e-02
       74000000   -2,638895810e-01   -4,844939709e-02
       74075000   -2,631021440e-01   -4,874280840e-02
       74150000   -2,639099956e-01   -4,998139292e-02
       74225000   -2,642278969e-01   -4,888268560e-02
       74300000   -2,644228637e-01   -4,686730728e-02
       74375000   -2,647279799e-01   -4,900437221e-02
       74450000   -2,646145523e-01   -4,795560986e-02
       74525000   -2,634819746e-01   -4,543647915e-02
       74600000   -2,654512525e-01   -4,701541364e-02
       74675000   -2,651281059e-01   -4,630017653e-02
       74750000   -2,642938793e-01   -4,486073181e-02
       74825000   -2,663876116e-01   -4,548628256e-02
       74900000   -2,653454244e-01   -4,489944130e-02
       74975000   -2,649207115e-01   -4,331343994e-02
       75050000   -2,652001679e-01   -4,392057285e-02
       75125000   -2,664264441e-01   -4,269334674e-02
       75200000   -2,647872269e-01   -4,150474444e-02
       75275000   -2,663260996e-01   -4,132605717e-02
       75350000   -2,659054399e-01   -4,065960273e-02
       75425000   -2,647289634e-01   -4,050971195e-02
       75500000   -2,662509680e-01   -3,849079832e-02
       75575000   -2,670210004e-01   -3,919227794e-02
       75650000   -2,659227848e-01   -3,726419806e-02
       75725000   -2,664406002e-01   -3,720976785e-02
       75800000   -2,671014667e-01   -3,613330051e-02
       75875000   -2,661910951e-01   -3,529467806e-02
       75950000   -2,680087984e-01   -3,377631307e-02
       76025000   -2,681813240e-01   -3,303413838e-02
       76100000   -2,672767937e-01   -3,287707269e-02
       76175000   -2,679065764e-01   -3,103859909e-02
       76250000   -2,681222856e-01   -3,034897149e-02
       76325000   -2,687393725e-01   -2,967734076e-02
       76400000   -2,681189179e-01   -2,893869765e-02
       76475000   -2,695638239e-01   -2,765968069e-02
       76550000   -2,696771026e-01   -2,638356574e-02
       76625000   -2,689929605e-01   -2,495482564e-02
       76700000   -2,705862224e-01   -2,326917090e-02
       76775000   -2,703239322e-01   -2,195366286e-02
       76850000   -2,699893117e-01   -2,079949528e-02
       76925000   -2,715686262e-01   -2,023782954e-02
       77000000   -2,716000378e-01   -1,724843308e-02
       77075000   -2,712806761e-01   -1,574513316e-02
       77150000   -2,723397613e-01   -1,409741305e-02
       77225000   -2,718743086e-01   -1,331987884e-02
       77300000   -2,730108500e-01   -1,192267239e-02
       77375000   -2,730228901e-01   -8,600038476e-03
       77450000   -2,738179564e-01   -6,878140382e-03
       77525000   -2,736599147e-01   -5,597368814e-03
       77600000   -2,738961875e-01   -1,603912562e-03
       77675000   -2,737406790e-01    2,059479011e-04
       77750000   -2,739129364e-01    2,112582792e-03
       77825000   -2,730580866e-01    5,485467147e-03
       77900000   -2,734476030e-01    7,461384870e-03
       77975000   -2,737800777e-01    9,788718075e-03
       78050000   -2,726102471e-01    1,290527545e-02
       78125000   -2,725817859e-01    1,485915016e-02
       78200000   -2,732298374e-01    1,749983244e-02
       78275000   -2,718722224e-01    2,082683891e-02
       78350000   -2,711805701e-01    2,302085049e-02
       78425000   -2,713890970e-01    2,542380430e-02
       78500000   -2,701102197e-01    2,980316617e-02
       78575000   -2,686019838e-01    3,228472546e-02
       78650000   -2,691105604e-01    3,432703763e-02
       78725000   -2,671419680e-01    3,858265653e-02
       78800000   -2,654969990e-01    4,066145420e-02
       78875000   -2,650105357e-01    4,440439492e-02
       78950000   -2,626544833e-01    4,744965956e-02
       79025000   -2,615276277e-01    5,082657561e-02
       79100000   -2,593983412e-01    5,362341553e-02
       79175000   -2,579536140e-01    5,630907789e-02
       79250000   -2,560624480e-01    5,975558609e-02
       79325000   -2,531912625e-01    6,193068996e-02
       79400000   -2,519315481e-01    6,516998261e-02
       79475000   -2,493781745e-01    6,837260723e-02
       79550000   -2,471964657e-01    7,079164684e-02
       79625000   -2,452139407e-01    7,378205657e-02
       79700000   -2,421206981e-01    7,579760998e-02
       79775000   -2,404262275e-01    7,838656008e-02
       79850000   -2,380799055e-01    8,159086108e-02
       79925000   -2,344370484e-01    8,390467614e-02
       80000000   -2,324479520e-01    8,597299457e-02
       80075000   -2,305815518e-01    8,879955858e-02
       80150000   -2,269934267e-01    9,057090431e-02
       80225000   -2,246225476e-01    9,311465174e-02
       80300000   -2,213302702e-01    9,536723793e-02
       80375000   -2,183858454e-01    9,790702164e-02
       80450000   -2,152200490e-01    9,963911027e-02
       80525000   -2,118112594e-01    1,013541892e-01
       80600000   -2,093464583e-01    1,038421839e-01
       80675000   -2,054245472e-01    1,054089144e-01
       80750000   -2,025883943e-01    1,071431562e-01
       80825000   -1,994031519e-01    1,091286168e-01
       80900000   -1,956059337e-01    1,102286801e-01
       80975000   -1,924729347e-01    1,115269884e-01
       81050000   -1,893572658e-01    1,136542931e-01
       81125000   -1,852903813e-01    1,140954271e-01
       81200000   -1,826792508e-01    1,158129200e-01
       81275000   -1,787895262e-01    1,164153814e-01
       81350000   -1,754564941e-01    1,175088882e-01
       81425000   -1,719183773e-01    1,184079349e-01
       81500000   -1,686084419e-01    1,189472079e-01
       81575000   -1,648616493e-01    1,200383678e-01
       81650000   -1,620969921e-01    1,195944101e-01
       81725000   -1,588919610e-01    1,199412569e-01
       81800000   -1,557310969e-01    1,212391928e-01
       81875000   -1,524061114e-01    1,202531978e-01
       81950000   -1,499747187e-01    1,205978170e-01
       82025000   -1,465252191e-01    1,213631555e-01
       82100000   -1,445427239e-01    1,210729182e-01
       82175000   -1,413146853e-01    1,210090518e-01
       82250000   -1,387220472e-01    1,214524806e-01
       82325000   -1,370748132e-01    1,215570867e-01
       82400000   -1,349413693e-01    1,212878451e-01
       82475000   -1,318117529e-01    1,215572953e-01
       82550000   -1,298211962e-01    1,214955971e-01
       82625000   -1,279902905e-01    1,222134829e-01
       82700000   -1,244410649e-01    1,213186681e-01
       82775000   -1,232140064e-01    1,223316714e-01
       82850000   -1,202626675e-01    1,226522177e-01
       82925000   -1,190523207e-01    1,229411140e-01
       83000000   -1,162464619e-01    1,230720431e-01
       83075000   -1,145504713e-01    1,243486106e-01
       83150000   -1,122848913e-01    1,244156808e-01
       83225000   -1,111706123e-01    1,253394186e-01
       83300000   -1,089395657e-01    1,261800528e-01
       83375000   -1,068218201e-01    1,259913594e-01
       83450000   -1,054115966e-01    1,276898086e-01
       83525000   -1,030687392e-01    1,278781444e-01
       83600000   -1,015940160e-01    1,288776696e-01
       83675000   -9,882021695e-02    1,293677688e-01
       83750000   -9,632880241e-02    1,309003681e-01
       83825000   -9,497962147e-02    1,315509975e-01
       83900000   -9,301195294e-02    1,326962560e-01
       83975000   -9,068925679e-02    1,334095746e-01
       84050000   -8,818458021e-02    1,346368194e-01
       84125000   -8,616477996e-02    1,355397552e-01
       84200000   -8,314017951e-02    1,370038688e-01
       84275000   -7,973191887e-02    1,365886480e-01
       84350000   -7,777377963e-02    1,377779990e-01
       84425000   -7,471174747e-02    1,388980597e-01
       84500000   -7,273777574e-02    1,396069080e-01
       84575000   -6,959196180e-02    1,414792389e-01
       84650000   -6,755362451e-02    1,425185949e-01
       84725000   -6,434260309e-02    1,428211033e-01
       84800000   -6,116047129e-02    1,437716782e-01
       84875000   -5,864171311e-02    1,453777105e-01
       84950000   -5,575338379e-02    1,463034749e-01
       85025000   -5,291642994e-02    1,469564736e-01
       85100000   -5,020163953e-02    1,484163105e-01
       85175000   -4,765699804e-02    1,498031616e-01
       85250000   -4,399903119e-02    1,503358483e-01
       85325000   -4,100928828e-02    1,521560401e-01
       85400000   -3,732855991e-02    1,538278013e-01
       85475000   -3,524220735e-02    1,544380188e-01
       85550000   -3,072450496e-02    1,557807326e-01
       85625000   -2,790583484e-02    1,572205126e-01
       85700000   -2,420850471e-02    1,576333493e-01
       85775000   -2,064003795e-02    1,592371017e-01
       85850000   -1,680985652e-02    1,601286680e-01
       85925000   -1,326390076e-02    1,611924171e-01
       86000000   -9,214233607e-03    1,623638272e-01
       86075000   -5,280901678e-03    1,636372358e-01
       86150000   -6,244862452e-04    1,640606523e-01
       86225000    3,551674075e-03    1,642317921e-01
       86300000    7,301632315e-03    1,653958112e-01
       86375000    1,136148255e-02    1,658721268e-01
       86450000    1,629282348e-02    1,675526202e-01
       86525000    2,073330991e-02    1,666673571e-01
       86600000    2,483594976e-02    1,676464677e-01
       86675000    3,041153774e-02    1,685495824e-01
       86750000    3,411986306e-02    1,679921299e-01
       86825000    3,861454129e-02    1,677129865e-01
       86900000    4,406872019e-02    1,679504812e-01
       86975000    4,839151725e-02    1,675172150e-01
       87050000    5,325019360e-02    1,682814956e-01
       87125000    5,817487836e-02    1,667075157e-01
       87200000    6,217287853e-02    1,663695723e-01
       87275000    6,753867120e-02    1,666674167e-01
       87350000    7,198882848e-02    1,653126478e-01
       87425000    7,662122697e-02    1,644870192e-01
       87500000    8,215016872e-02    1,637375206e-01
       87575000    8,534970134e-02    1,633045077e-01
       87650000    9,051971883e-02    1,609891206e-01
       87725000    9,501310438e-02    1,612225771e-01
       87800000    1,003253534e-01    1,607171744e-01
       87875000    1,046086028e-01    1,588134021e-01
       87950000    1,092863083e-01    1,578198969e-01
       88025000    1,136355251e-01    1,567753553e-01
       88100000    1,193355396e-01    1,540888846e-01
       88175000    1,234337166e-01    1,540213376e-01
       88250000    1,286508590e-01    1,529351175e-01
       88325000    1,332421154e-01    1,503052413e-01
       88400000    1,365119666e-01    1,495695263e-01
       88475000    1,423347890e-01    1,482974887e-01
       88550000    1,467269063e-01    1,452758461e-01
       88625000    1,518082023e-01    1,443970203e-01
       88700000    1,572007835e-01    1,422456205e-01
       88775000    1,612643301e-01    1,397482306e-01
       88850000    1,658658087e-01    1,387445033e-01
       88925000    1,704039723e-01    1,376231760e-01
       89000000    1,754922122e-01    1,343605220e-01
       89075000    1,806402057e-01    1,321845800e-01
       89150000    1,860012561e-01    1,296351999e-01
       89225000    1,898595691e-01    1,277297288e-01
       89300000    1,953029335e-01    1,257290542e-01
       89375000    2,002343684e-01    1,229421049e-01
       89450000    2,054840028e-01    1,205161661e-01
       89525000    2,101841122e-01    1,170491278e-01
       89600000    2,154462487e-01    1,144439653e-01
       89675000    2,203097045e-01    1,121832654e-01
       89750000    2,248168141e-01    1,082292050e-01
       89825000    2,303882837e-01    1,046293452e-01
       89900000    2,355528027e-01    1,018651500e-01
       89975000    2,399451137e-01    9,776397049e-02
       90050000    2,447331995e-01    9,600843489e-02
       90125000    2,501685917e-01    9,182854742e-02
       90200000    2,546312809e-01    8,884970844e-02
       90275000    2,588838339e-01    8,514324576e-02
       90350000    2,646885812e-01    8,135206252e-02
       90425000    2,678145766e-01    7,711976022e-02
       90500000    2,736957371e-01    7,253699750e-02
       90575000    2,776874304e-01    6,816547364e-02
       90650000    2,824026048e-01    6,453353167e-02
       90725000    2,873695493e-01    5,976111069e-02
       90800000    2,911449969e-01    5,502085015e-02
       90875000    2,956762910e-01    5,034721270e-02
       90950000    3,004650772e-01    4,413411021e-02
       91025000    3,044077754e-01    3,990602493e-02
       91100000    3,085831404e-01    3,410418704e-02
       91175000    3,121342659e-01    2,849912643e-02
       91250000    3,176653981e-01    2,271884866e-02
       91325000    3,197875619e-01    1,832978614e-02
       91400000    3,239368796e-01    1,145018823e-02
       91475000    3,267991543e-01    5,313371308e-03
       91550000    3,309999704e-01    3,335769288e-04
       91625000    3,332913816e-01   -6,685397588e-03
       91700000    3,374204636e-01   -1,252293400e-02
       91775000    3,393426538e-01   -1,924218424e-02
       91850000    3,420129716e-01   -2,485868521e-02
       91925000    3,454579115e-01   -3,278951719e-02
