! NanoVNA-App
! Date: 2025-08-09 16:23:40
! Start: 65MHz Stop: 95MHz Points: 401
! S-Parameter data: F S11
# Hz S RI R 50
!     Frequency           S11_Real           S11_Imag
       65000000    3,706558049e-01    5,305829644e-01
       65075000    3,764679730e-01    5,320487022e-01
       65150000    3,779305518e-01    5,241399407e-01
       65225000    3,823741972e-01    5,207841396e-01
       65300000    3,864561021e-01    5,181389451e-01
       65375000    3,873394430e-01    5,151924491e-01
       65450000    3,897660077e-01    5,099205375e-01
       65525000    3,928167820e-01    5,062993765e-01
       65600000    3,949197531e-01    5,013678670e-01
       65675000    3,969897032e-01    4,963462949e-01
       65750000    3,988173902e-01    4,926809072e-01
       65825000    4,036313593e-01    4,866172969e-01
       65900000    4,050038457e-01    4,828532636e-01
       65975000    4,106226563e-01    4,777711332e-01
       66050000    4,099754691e-01    4,745056033e-01
       66125000    4,096674323e-01    4,722833335e-01
       66200000    4,129035771e-01    4,664058983e-01
       66275000    4,145240784e-01    4,650626481e-01
       66350000    4,159447849e-01    4,598990679e-01
       66425000    4,193963408e-01    4,558552802e-01
       66500000    4,213761389e-01    4,517825246e-01
       66575000    4,242774248e-01    4,485098720e-01
       66650000    4,255206883e-01    4,442206323e-01
       66725000    4,267622530e-01    4,442265928e-01
       66800000    4,295122325e-01    4,397470057e-01
       66875000    4,296798408e-01    4,370862246e-01
       66950000    4,322005808e-01    4,327240884e-01
       67025000    4,342897534e-01    4,299921691e-01
       67100000    4,361889958e-01    4,271889925e-01
       67175000    4,402530193e-01    4,224986434e-01
       67250000    4,428701103e-01    4,191408753e-01
       67325000    4,448219836e-01    4,150553048e-01
       67400000    4,478875399e-01    4,124659896e-01
       67475000    4,500248432e-01    4,114415050e-01
       67550000    4,510818422e-01    4,049814343e-01
       67625000    4,550822973e-01    4,019177854e-01
       67700000    4,564153552e-01    3,968333304e-01
       67775000    4,570631683e-01    3,948305249e-01
       67850000    4,599354863e-01    3,901860714e-01
       67925000    4,615898430e-01    3,866261840e-01
       68000000    4,643172622e-01    3,819101155e-01
       68075000    4,673526287e-01    3,788630068e-01
       68150000    4,689233005e-01    3,755303919e-01
       68225000    4,700447917e-01    3,732475638e-01
       68300000    4,717734158e-01    3,687895834e-01
       68375000    4,733346999e-01    3,643218577e-01
       68450000    4,743383527e-01    3,597512543e-01
       68525000    4,779293239e-01    3,562306166e-01
       68600000    4,778397977e-01    3,521521389e-01
       68675000    4,811788797e-01    3,495517075e-01
       68750000    4,829860926e-01    3,450861573e-01
       68825000    4,831708372e-01    3,431491852e-01
       68900000    4,846004546e-01    3,384158611e-01
       68975000    4,861559868e-01    3,352305591e-01
       69050000    4,877312779e-01    3,305579126e-01
       69125000    4,883851111e-01    3,275797069e-01
       69200000    4,899945259e-01    3,239481449e-01
       69275000    4,906121790e-01    3,203015029e-01
       69350000    4,921474159e-01    3,164138794e-01
       69425000    4,929901958e-01    3,129004538e-01
       69500000    4,939469397e-01    3,087381124e-01
       69575000    4,944783449e-01    3,057853580e-01
       69650000    4,966468513e-01    3,020626009e-01
       69725000    4,960951805e-01    2,975889742e-01
       69800000    4,974148870e-01    2,937927544e-01
       69875000    4,974421263e-01    2,911336124e-01
       69950000    4,996868372e-01    2,876405418e-01
       70025000    4,996649623e-01    2,839945555e-01
       70100000    5,009800792e-01    2,804116905e-01
       70175000    5,010722876e-01    2,786626816e-01
       70250000    5,012083650e-01    2,748862803e-01
       70325000    5,014350414e-01    2,715472877e-01
       70400000    5,012256503e-01    2,685112953e-01
       70475000    5,028212667e-01    2,656266093e-01
       70550000    5,038001537e-01    2,637983561e-01
       70625000    5,042278171e-01    2,609740794e-01
       70700000    5,053554773e-01    2,569196224e-01
       70775000    5,070799589e-01    2,553396225e-01
       70850000    5,069789886e-01    2,525883019e-01
       70925000    5,073148608e-01    2,509747744e-01
       71000000    5,090554357e-01    2,475740910e-01
       71075000    5,104928017e-01    2,448263466e-01
       71150000    5,105913877e-01    2,414382994e-01
       71225000    5,134556890e-01    2,402161360e-01
       71300000    5,141902566e-01    2,363565266e-01
       71375000    5,152656436e-01    2,338784784e-01
       71450000    5,170012712e-01    2,297060490e-01
       71525000    5,175927281e-01    2,271409631e-01
       71600000    5,190897584e-01    2,230193317e-01
       71675000    5,195878148e-01    2,195827365e-01
       71750000    5,206283331e-01    2,168690264e-01
       71825000    5,207331777e-01    2,120564729e-01
       71900000    5,224446654e-01    2,086684406e-01
       71975000    5,224701166e-01    2,055205852e-01
       72050000    5,224504471e-01    2,020429373e-01
       72125000    5,218607783e-01    1,987589896e-01
       72200000    5,225300789e-01    1,960321069e-01
       72275000    5,212033987e-01    1,921721697e-01
       72350000    5,220385194e-01    1,895358562e-01
       72425000    5,202931762e-01    1,855452955e-01
       72500000    5,201631188e-01    1,829216778e-01
       72575000    5,199705362e-01    1,808884889e-01
       72650000    5,205004215e-01    1,797673702e-01
       72725000    5,195926428e-01    1,764636189e-01
       72800000    5,198307633e-01    1,746607274e-01
       72875000    5,192991495e-01    1,720837206e-01
       72950000    5,184669495e-01    1,692052484e-01
       73025000    5,196424723e-01    1,683155298e-01
       73100000    5,198531747e-01    1,677011549e-01
       73175000    5,204023123e-01    1,650776863e-01
       73250000    5,203568935e-01    1,636326313e-01
       73325000    5,201367140e-01    1,594240367e-01
       73400000    5,215203762e-01    1,598132104e-01
       73475000    5,221960545e-01    1,572000980e-01
       73550000    5,232267976e-01    1,553114504e-01
       73625000    5,222103596e-01    1,528834701e-01
       73700000    5,233438611e-01    1,526823044e-01
       73775000    5,245625973e-01    1,498277187e-01
       73850000    5,242896080e-01    1,473783851e-01
       73925000    5,256538987e-01    1,446029842e-01
       74000000    5,258828998e-01    1,430495381e-01
       74075000    5,279565454e-01    1,416280270e-01
       74150000    5,277593136e-01    1,396962553e-01
       74225000    5,286074281e-01    1,368364096e-01
       74300000    5,289732218e-01    1,359160244e-01
       74375000    5,302091241e-01    1,332725585e-01
       74450000    5,303921700e-01    1,310780644e-01
       74525000    5,313341022e-01    1,290989667e-01
       74600000    5,320876241e-01    1,254920810e-01
       74675000    5,326436758e-01    1,241194308e-01
       74750000    5,332272649e-01    1,217502356e-01
       74825000    5,334348083e-01    1,188706607e-01
       74900000    5,351000428e-01    1,172336638e-01
       74975000    5,349703431e-01    1,143372655e-01
       75050000    5,358153582e-01    1,130081937e-01
       75125000    5,359558463e-01    1,099935919e-01
       75200000    5,373777151e-01    1,087023690e-01
       75275000    5,372523665e-01    1,053491458e-01
       75350000    5,381656289e-01    1,048333347e-01
       75425000    5,389293432e-01    1,011493579e-01
       75500000    5,381582975e-01    9,932067990e-02
       75575000    5,385534763e-01    9,620038420e-02
       75650000    5,385774970e-01    9,489545226e-02
       75725000    5,393511653e-01    9,186384082e-02
       75800000    5,393391848e-01    8,981770277e-02
       75875000    5,404583812e-01    8,684783429e-02
       75950000    5,400136709e-01    8,537835628e-02
       76025000    5,402827859e-01    8,395820856e-02
       76100000    5,409047604e-01    8,081506193e-02
       76175000    5,408707857e-01    7,949436456e-02
       76250000    5,412835479e-01    7,658090442e-02
       76325000    5,411698222e-01    7,413270324e-02
       76400000    5,417513251e-01    7,260630280e-02
       76475000    5,411720276e-01    7,004398108e-02
       76550000    5,415865183e-01    6,843298674e-02
       76625000    5,418791175e-01    6,760360301e-02
       76700000    5,412136912e-01    6,464818865e-02
       76775000    5,408672094e-01    6,236527115e-02
       76850000    5,411592722e-01    6,232503057e-02
       76925000    5,406963825e-01    6,049275398e-02
       77000000    5,403121114e-01    5,976990983e-02
       77075000    5,403489470e-01    5,936143175e-02
       77150000    5,418363810e-01    5,905430764e-02
       77225000    5,433942676e-01    5,763005093e-02
       77300000    5,438872576e-01    5,579922348e-02
       77375000    5,451966524e-01    5,523796380e-02
       77450000    5,466975570e-01    5,301063135e-02
       77525000    5,478111506e-01    5,068648979e-02
       77600000    5,488028526e-01    4,946080595e-02
       77675000    5,495703220e-01    4,620205611e-02
       77750000    5,497354269e-01    4,434075952e-02
       77825000    5,510315299e-01    4,306337610e-02
       77900000    5,513926148e-01    4,073978588e-02
       77975000    5,505978465e-01    3,848076612e-02
       78050000    5,527014732e-01    3,802511469e-02
       78125000    5,525319576e-01    3,559904918e-02
       78200000    5,531677604e-01    3,338589892e-02
       78275000    5,542057157e-01    3,334428743e-02
       78350000    5,552470088e-01    3,028179333e-02
       78425000    5,547170639e-01    2,850675210e-02
       78500000    5,553578734e-01    2,698894031e-02
       78575000    5,574294329e-01    2,585421316e-02
       78650000    5,578352809e-01    2,378241345e-02
       78725000    5,577807426e-01    2,277540602e-02
       78800000    5,597662926e-01    2,127830870e-02
       78875000    5,600576997e-01    1,875326596e-02
       78950000    5,611015558e-01    1,867766120e-02
       79025000    5,618180037e-01    1,502732374e-02
       79100000    5,625572801e-01    1,618060842e-02
       79175000    5,634344816e-01    1,369465049e-02
       79250000    5,640262365e-01    1,197844278e-02
       79325000    5,657227635e-01    1,040545572e-02
       79400000    5,663437843e-01    8,342970163e-03
       79475000    5,683625937e-01    8,518138900e-03
       79550000    5,683940053e-01    5,709906109e-03
       79625000    5,695604086e-01    4,025043454e-03
       79700000    5,727390647e-01    3,431308083e-03
       79775000    5,730094314e-01    2,733993169e-04
       79850000    5,732502341e-01   -3,678793146e-04
       79925000    5,766938925e-01   -1,950833248e-03
       80000000    5,768480897e-01   -2,544791205e-03
       80075000    5,781599879e-01   -6,901625544e-03
       80150000    5,806387067e-01   -8,588977158e-03
       80225000    5,811641812e-01   -1,020127069e-02
       80300000    5,844084024e-01   -1,049247198e-02
       80375000    5,845685005e-01   -1,415500417e-02
       80450000    5,854619741e-01   -1,726768352e-02
       80525000    5,881386399e-01   -1,850766502e-02
       80600000    5,894097686e-01   -2,098193765e-02
       80675000    5,912269950e-01   -2,336967923e-02
       80750000    5,912221074e-01   -2,625500411e-02
       80825000    5,928835273e-01   -2,892800421e-02
       80900000    5,947275758e-01   -3,117465414e-02
       80975000    5,959859490e-01   -3,287455067e-02
       81050000    5,954818726e-01   -3,528847173e-02
       81125000    5,987685919e-01   -3,897266090e-02
       81200000    5,994722843e-01   -4,094541445e-02
       81275000    6,011065245e-01   -4,409881309e-02
       81350000    6,017175913e-01   -4,608592391e-02
       81425000    6,040875316e-01   -4,793250188e-02
       81500000    6,046901345e-01   -5,153248459e-02
       81575000    6,067623496e-01   -5,364710093e-02
       81650000    6,075014472e-01   -5,706674233e-02
       81725000    6,081759334e-01   -5,897935107e-02
       81800000    6,091734767e-01   -6,300276518e-02
       81875000    6,109912395e-01   -6,470029056e-02
       81950000    6,119440198e-01   -6,820059568e-02
       82025000    6,142112613e-01   -6,995625794e-02
       82100000    6,142491698e-01   -7,291901857e-02
       82175000    6,162212491e-01   -7,479988039e-02
       82250000    6,170265675e-01   -7,926376164e-02
       82325000    6,186771989e-01   -7,993799448e-02
       82400000    6,191633344e-01   -8,452087641e-02
       82475000    6,201099753e-01   -8,704239875e-02
       82550000    6,222521663e-01   -9,022974223e-02
       82625000    6,227231622e-01   -9,306366742e-02
       82700000    6,244587302e-01   -9,622658789e-02
       82775000    6,248212457e-01   -9,993765503e-02
       82850000    6,267630458e-01   -1,023515239e-01
       82925000    6,278034449e-01   -1,052250266e-01
       83000000    6,300047636e-01   -1,075578183e-01
       83075000    6,301051974e-01   -1,120416075e-01
       83150000    6,321104169e-01   -1,151615232e-01
       83225000    6,322104931e-01   -1,192928031e-01
       83300000    6,342674494e-01   -1,218677461e-01
       83375000    6,346173286e-01   -1,256610006e-01
       83450000    6,353823543e-01   -1,282144487e-01
       83525000    6,360877156e-01   -1,330308169e-01
       83600000    6,370525360e-01   -1,355399787e-01
       83675000    6,388834119e-01   -1,389830261e-01
       83750000    6,389728189e-01   -1,445656270e-01
       83825000    6,387314796e-01   -1,465166807e-01
       83900000    6,411995292e-01   -1,513522714e-01
       83975000    6,403720975e-01   -1,547904909e-01
       84050000    6,426650882e-01   -1,591576338e-01
       84125000    6,421906352e-01   -1,630628705e-01
       84200000    6,431761384e-01   -1,660547107e-01
       84275000    6,433164477e-01   -1,713943779e-01
       84350000    6,430777311e-01   -1,742955446e-01
       84425000    6,443426609e-01   -1,794197261e-01
       84500000    6,442159414e-01   -1,829359978e-01
       84575000    6,447605491e-01   -1,861995161e-01
       84650000    6,441895366e-01   -1,914735585e-01
       84725000    6,429236531e-01   -1,921897829e-01
       84800000    6,453630328e-01   -1,987605393e-01
       84875000    6,437292695e-01   -2,041880935e-01
       84950000    6,442648768e-01   -2,065190375e-01
       85025000    6,452376842e-01   -2,116377652e-01
       85100000    6,435239911e-01   -2,166124284e-01
       85175000    6,428484321e-01   -2,195330262e-01
       85250000    6,425518990e-01   -2,249938399e-01
       85325000    6,419220567e-01   -2,291001827e-01
       85400000    6,426223516e-01   -2,323907763e-01
       85475000    6,411962509e-01   -2,377984077e-01
       85550000    6,387173533e-01   -2,422737777e-01
       85625000    6,382820606e-01   -2,448563874e-01
       85700000    6,376888156e-01   -2,506806552e-01
       85775000    6,362289786e-01   -2,537127137e-01
       85850000    6,345797777e-01   -2,581284940e-01
       85925000    6,337360740e-01   -2,605169713e-01
       86000000    6,322150826e-01   -2,668958902e-01
       86075000    6,306338906e-01   -2,682366669e-01
       86150000    6,309987307e-01   -2,733401060e-01
       86225000    6,263960600e-01   -2,818823159e-01
       86300000    6,267480850e-01   -2,813039720e-01
       86375000    6,249908805e-01   -2,856754065e-01
       86450000    6,242820024e-01   -2,884410322e-01
       86525000    6,214146614e-01   -2,934095860e-01
       86600000    6,184809208e-01   -2,972485125e-01
       86675000    6,177847385e-01   -2,987799346e-01
       86750000    6,153846383e-01   -3,030321896e-01
       86825000    6,129160523e-01   -3,067692220e-01
       86900000    6,095039845e-01   -3,093470931e-01
       86975000    6,084164381e-01   -3,110995889e-01
       87050000    6,074030995e-01   -3,151129186e-01
       87125000    6,039127707e-01   -3,189874589e-01
       87200000    6,011335850e-01   -3,194366693e-01
       87275000    6,001825929e-01   -3,233639002e-01
       87350000    5,968821049e-01   -3,262684941e-01
       87425000    5,941073895e-01   -3,264254034e-01
       87500000    5,902237892e-01   -3,306571245e-01
       87575000    5,907656550e-01   -3,318739533e-01
       87650000    5,886555314e-01   -3,347754478e-01
       87725000    5,844829679e-01   -3,379229307e-01
       87800000    5,838380456e-01   -3,382596374e-01
       87875000    5,814331174e-01   -3,425254822e-01
       87950000    5,792641640e-01   -3,416741490e-01
       88025000    5,793359280e-01   -3,445416689e-01
       88100000    5,762158036e-01   -3,462635875e-01
       88175000    5,741280913e-01   -3,495394886e-01
       88250000    5,730699301e-01   -3,499756157e-01
       88325000    5,713352561e-01   -3,515946269e-01
       88400000    5,699820518e-01   -3,532945514e-01
       88475000    5,683306456e-01   -3,557874262e-01
       88550000    5,655711889e-01   -3,571121693e-01
       88625000    5,655142665e-01   -3,591114283e-01
       88700000    5,628660917e-01   -3,616326451e-01
       88775000    5,611952543e-01   -3,639604747e-01
       88850000    5,578207970e-01   -3,644751310e-01
       88925000    5,583932996e-01   -3,667216301e-01
       89000000    5,550928712e-01   -3,699155450e-01
       89075000    5,556368828e-01   -3,692798018e-01
       89150000    5,521285534e-01   -3,725645244e-01
       89225000    5,498908758e-01   -3,722528815e-01
       89300000    5,486866832e-01   -3,750183582e-01
       89375000    5,452378988e-01   -3,751015663e-01
       89450000    5,436370969e-01   -3,772788942e-01
       89525000    5,419099927e-01   -3,802147210e-01
       89600000    5,398269296e-01   -3,792491257e-01
       89675000    5,386574268e-01   -3,806459010e-01
       89750000    5,347839594e-01   -3,816125989e-01
       89825000    5,336095691e-01   -3,792549372e-01
       89900000    5,334811807e-01   -3,811868727e-01
       89975000    5,297885537e-01   -3,812274933e-01
       90050000    5,305393934e-01   -3,823102713e-01
       90125000    5,288393497e-01   -3,832216263e-01
       90200000    5,302907228e-01   -3,809909225e-01
       90275000    5,279263854e-01   -3,813059330e-01
       90350000    5,255745053e-01   -3,820379376e-01
       90425000    5,277076364e-01   -3,807856143e-01
       90500000    5,275452733e-01   -3,823150694e-01
       90575000    5,263148546e-01   -3,802926242e-01
       90650000    5,277122259e-01   -3,807360530e-01
       90725000    5,286667943e-01   -3,809923232e-01
       90800000    5,278804302e-01   -3,809469640e-01
       90875000    5,304350257e-01   -3,812219799e-01
       90950000    5,293123126e-01   -3,830270469e-01
       91025000    5,338521600e-01   -3,833157420e-01
       91100000    5,321593285e-01   -3,849210441e-01
       91175000    5,362693071e-01   -3,856987059e-01
       91250000    5,355893970e-01   -3,885993361e-01
       91325000    5,390901566e-01   -3,885427415e-01
       91400000    5,402609706e-01   -3,916244209e-01
       91475000    5,409812331e-01   -3,912456632e-01
       91550000    5,420922637e-01   -3,946237862e-01
       91625000    5,428046584e-01   -3,957271278e-01
       91700000    5,457124114e-01   -3,992291093e-01
       91775000    5,459124446e-01   -4,025358856e-01
       91850000    5,482603908e-01   -4,046324790e-01
       91925000    5,465071797e-01   -4,093340635e-01
