! NanoVNA-App
! Date: 2025-08-09 16:28:28
! Start: 65MHz Stop: 95MHz Points: 401
! S-Parameter data: F S11
# Hz S RI R 50
!     Frequency           S11_Real           S11_Imag
       65000000   -7,928618789e-01   -9,152989835e-02
       65075000   -8,008134961e-01   -9,550485760e-02
       65150000   -7,998693585e-01   -9,064950049e-02
       65225000   -7,996829748e-01   -8,544795215e-02
       65300000   -7,985417247e-01   -8,042454720e-02
       65375000   -7,974066138e-01   -7,588128000e-02
       65450000   -7,936415672e-01   -7,285876572e-02
       65525000   -7,945294976e-01   -6,611562520e-02
       65600000   -7,922445536e-01   -6,219369546e-02
       65675000   -7,897556424e-01   -5,862305313e-02
       65750000   -7,883781195e-01   -5,501257256e-02
       65825000   -7,838768363e-01   -5,012613907e-02
       65900000   -7,854500413e-01   -4,536888003e-02
       65975000   -7,821387649e-01   -4,131865501e-02
       66050000   -7,825616002e-01   -3,702529147e-02
       66125000   -7,808148861e-01   -3,214446828e-02
       66200000   -7,776059508e-01   -3,026089445e-02
       66275000   -7,778086662e-01   -2,434789203e-02
       66350000   -7,757220864e-01   -1,991621777e-02
       66425000   -7,732248306e-01   -1,767606847e-02
       66500000   -7,724036574e-01   -1,291951444e-02
       66575000   -7,703567147e-01   -9,124998935e-03
       66650000   -7,688586712e-01   -4,835620057e-03
       66725000   -7,661579251e-01   -2,157626295e-04
       66800000   -7,660034299e-01    2,702665050e-03
       66875000   -7,628248930e-01    7,904044352e-03
       66950000   -7,623857856e-01    1,193383895e-02
       67025000   -7,607637644e-01    1,579273492e-02
       67100000   -7,579531074e-01    1,944110729e-02
       67175000   -7,587456107e-01    2,306392975e-02
       67250000   -7,566038966e-01    2,762279846e-02
       67325000   -7,557569742e-01    3,204276040e-02
       67400000   -7,546843886e-01    3,600917384e-02
       67475000   -7,514185905e-01    3,997435421e-02
       67550000   -7,465494275e-01    4,450024664e-02
       67625000   -7,483256459e-01    4,929571971e-02
       67700000   -7,450813651e-01    5,358460546e-02
       67775000   -7,437075377e-01    5,474772677e-02
       67850000   -7,415233850e-01    5,989404395e-02
       67925000   -7,391297817e-01    6,324428320e-02
       68000000   -7,373732924e-01    6,759334356e-02
       68075000   -7,342206240e-01    7,284192741e-02
       68150000   -7,322300673e-01    7,696772367e-02
       68225000   -7,320470214e-01    8,075092733e-02
       68300000   -7,312784195e-01    8,493697643e-02
       68375000   -7,272627354e-01    8,902962506e-02
       68450000   -7,252960801e-01    9,067688882e-02
       68525000   -7,231265903e-01    9,544190764e-02
       68600000   -7,205704451e-01    9,845983982e-02
       68675000   -7,179951072e-01    1,018192694e-01
       68750000   -7,147167921e-01    1,052627563e-01
       68825000   -7,119507790e-01    1,107027903e-01
       68900000   -7,090195417e-01    1,128978655e-01
       68975000   -7,074621916e-01    1,171776429e-01
       69050000   -7,039270401e-01    1,211396158e-01
       69125000   -7,021291852e-01    1,243765876e-01
       69200000   -6,995478868e-01    1,274376661e-01
       69275000   -6,961591840e-01    1,316923350e-01
       69350000   -6,946113110e-01    1,337317228e-01
       69425000   -6,929338574e-01    1,368118525e-01
       69500000   -6,894618273e-01    1,395265013e-01
       69575000   -6,869767904e-01    1,445644647e-01
       69650000   -6,857221723e-01    1,471494883e-01
       69725000   -6,816778779e-01    1,507197022e-01
       69800000   -6,790946126e-01    1,535073370e-01
       69875000   -6,779031157e-01    1,564113498e-01
       69950000   -6,738560796e-01    1,618641913e-01
       70025000   -6,720533371e-01    1,616449505e-01
       70100000   -6,699994206e-01    1,677212864e-01
       70175000   -6,679860950e-01    1,707551479e-01
       70250000   -6,668652892e-01    1,717356741e-01
       70325000   -6,629673839e-01    1,749805808e-01
       70400000   -6,609486938e-01    1,767795831e-01
       70475000   -6,564294696e-01    1,791416258e-01
       70550000   -6,545374393e-01    1,842687279e-01
       70625000   -6,547159553e-01    1,873866767e-01
       70700000   -6,516239047e-01    1,887737811e-01
       70775000   -6,491950750e-01    1,900569946e-01
       70850000   -6,469899416e-01    1,949292123e-01
       70925000   -6,433206797e-01    1,990056038e-01
       71000000   -6,422441006e-01    2,026261836e-01
       71075000   -6,409610510e-01    2,049099803e-01
       71150000   -6,360608935e-01    2,081612200e-01
       71225000   -6,358066797e-01    2,109718025e-01
       71300000   -6,318833232e-01    2,130088359e-01
       71375000   -6,287343502e-01    2,150575519e-01
       71450000   -6,261604428e-01    2,220984846e-01
       71525000   -6,234626770e-01    2,231587321e-01
       71600000   -6,230739951e-01    2,266028374e-01
       71675000   -6,169043779e-01    2,288873196e-01
       71750000   -6,139667034e-01    2,317961454e-01
       71825000   -6,111513376e-01    2,342376411e-01
       71900000   -6,082521677e-01    2,372224629e-01
       71975000   -6,068881750e-01    2,402954549e-01
       72050000   -6,039171815e-01    2,449553162e-01
       72125000   -6,019586921e-01    2,460618466e-01
       72200000   -5,982398391e-01    2,487756014e-01
       72275000   -5,956586599e-01    2,501236200e-01
       72350000   -5,922480226e-01    2,521435320e-01
       72425000   -5,894443393e-01    2,538098693e-01
       72500000   -5,858871937e-01    2,549525499e-01
       72575000   -5,827838182e-01    2,583659589e-01
       72650000   -5,776699781e-01    2,588598430e-01
       72725000   -5,774236321e-01    2,627828121e-01
       72800000   -5,755608678e-01    2,645736635e-01
       72875000   -5,729926825e-01    2,666575611e-01
       72950000   -5,716004372e-01    2,682750523e-01
       73025000   -5,694537163e-01    2,723599672e-01
       73100000   -5,659546256e-01    2,699290514e-01
       73175000   -5,639297962e-01    2,749523520e-01
       73250000   -5,627476573e-01    2,750794291e-01
       73325000   -5,596650243e-01    2,785519660e-01
       73400000   -5,563594699e-01    2,812298834e-01
       73475000   -5,545759797e-01    2,840243280e-01
       73550000   -5,537815690e-01    2,842656076e-01
       73625000   -5,517815351e-01    2,872627676e-01
       73700000   -5,501850247e-01    2,889493704e-01
       73775000   -5,471722484e-01    2,903846204e-01
       73850000   -5,446342230e-01    2,926084399e-01
       73925000   -5,387764573e-01    2,955075502e-01
       74000000   -5,368916392e-01    2,986454070e-01
       74075000   -5,352313519e-01    3,016767800e-01
       74150000   -5,362837315e-01    3,015765250e-01
       74225000   -5,347356796e-01    3,062274754e-01
       74300000   -5,302906036e-01    3,085694909e-01
       74375000   -5,280951858e-01    3,100190163e-01
       74450000   -5,222389102e-01    3,135555387e-01
       74525000   -5,201599002e-01    3,154280782e-01
       74600000   -5,170416236e-01    3,171652257e-01
       74675000   -5,159500837e-01    3,217124343e-01
       74750000   -5,128536820e-01    3,243129551e-01
       74825000   -5,131381154e-01    3,248443604e-01
       74900000   -5,107541680e-01    3,275985420e-01
       74975000   -5,059908628e-01    3,277341723e-01
       75050000   -5,037343502e-01    3,292645514e-01
       75125000   -4,999057353e-01    3,315158188e-01
       75200000   -4,976939857e-01    3,330968916e-01
       75275000   -4,947744608e-01    3,365063369e-01
       75350000   -4,924513996e-01    3,374324143e-01
       75425000   -4,877879620e-01    3,421777487e-01
       75500000   -4,845173359e-01    3,445473909e-01
       75575000   -4,815416336e-01    3,458273113e-01
       75650000   -4,783762395e-01    3,477856517e-01
       75725000   -4,756090045e-01    3,502102792e-01
       75800000   -4,737404883e-01    3,505056500e-01
       75875000   -4,700978696e-01    3,528433740e-01
       75950000   -4,715935886e-01    3,567974865e-01
       76025000   -4,688462913e-01    3,563795090e-01
       76100000   -4,655033052e-01    3,592136502e-01
       76175000   -4,628695846e-01    3,596842885e-01
       76250000   -4,596684277e-01    3,615211546e-01
       76325000   -4,555127323e-01    3,621231914e-01
       76400000   -4,534328282e-01    3,644239902e-01
       76475000   -4,496635497e-01    3,693523407e-01
       76550000   -4,458833635e-01    3,664875627e-01
       76625000   -4,429824948e-01    3,693247736e-01
       76700000   -4,423812926e-01    3,693632185e-01
       76775000   -4,420911670e-01    3,722325265e-01
       76850000   -4,364619255e-01    3,725211024e-01
       76925000   -4,363123477e-01    3,762657940e-01
       77000000   -4,337244034e-01    3,788379729e-01
       77075000   -4,296115637e-01    3,786903322e-01
       77150000   -4,300298095e-01    3,785459995e-01
       77225000   -4,310982227e-01    3,822638392e-01
       77300000   -4,288606346e-01    3,832414150e-01
       77375000   -4,264766574e-01    3,860508204e-01
       77450000   -4,224154651e-01    3,845489919e-01
       77525000   -4,209100008e-01    3,901218474e-01
       77600000   -4,181445241e-01    3,926370144e-01
       77675000   -4,144321680e-01    3,945018947e-01
       77750000   -4,096961319e-01    3,979295790e-01
       77825000   -4,107058644e-01    3,995302916e-01
       77900000   -4,053098261e-01    4,004873335e-01
       77975000   -4,016858935e-01    4,040061235e-01
       78050000   -4,022075534e-01    4,070568681e-01
       78125000   -3,994072676e-01    4,052510262e-01
       78200000   -3,951073587e-01    4,087632298e-01
       78275000   -3,957716227e-01    4,103928804e-01
       78350000   -3,898308873e-01    4,103882611e-01
       78425000   -3,903491199e-01    4,126375616e-01
       78500000   -3,873362839e-01    4,157927930e-01
       78575000   -3,820493817e-01    4,184982181e-01
       78650000   -3,802080154e-01    4,209227860e-01
       78725000   -3,810932338e-01    4,220838249e-01
       78800000   -3,765457869e-01    4,219685793e-01
       78875000   -3,727974892e-01    4,257962406e-01
       78950000   -3,710762262e-01    4,271968305e-01
       79025000   -3,684386909e-01    4,308295548e-01
       79100000   -3,657388985e-01    4,321470857e-01
       79175000   -3,678844869e-01    4,355838299e-01
       79250000   -3,644689620e-01    4,372650981e-01
       79325000   -3,619572520e-01    4,369607866e-01
       79400000   -3,602014482e-01    4,396973252e-01
       79475000   -3,538151085e-01    4,425531924e-01
       79550000   -3,522554636e-01    4,484585226e-01
       79625000   -3,498702943e-01    4,501117766e-01
       79700000   -3,512715697e-01    4,514552057e-01
       79775000   -3,472886682e-01    4,518665671e-01
       79850000   -3,408307433e-01    4,550271630e-01
       79925000   -3,432210386e-01    4,578929245e-01
       80000000   -3,383231461e-01    4,614317417e-01
       80075000   -3,329639435e-01    4,634261429e-01
       80150000   -3,323268890e-01    4,673476517e-01
       80225000   -3,296262026e-01    4,666331112e-01
       80300000   -3,262547553e-01    4,680610299e-01
       80375000   -3,219679594e-01    4,718369842e-01
       80450000   -3,180232048e-01    4,773567021e-01
       80525000   -3,173240721e-01    4,763112366e-01
       80600000   -3,130489290e-01    4,829626977e-01
       80675000   -3,105673492e-01    4,855112135e-01
       80750000   -3,093021512e-01    4,858700335e-01
       80825000   -3,028273880e-01    4,864577949e-01
       80900000   -2,991599739e-01    4,888748825e-01
       80975000   -2,979438305e-01    4,949372411e-01
       81050000   -2,946276367e-01    4,939164817e-01
       81125000   -2,906344235e-01    4,967048466e-01
       81200000   -2,874020338e-01    4,989744425e-01
       81275000   -2,851898670e-01    5,027604699e-01
       81350000   -2,806729972e-01    5,036027431e-01
       81425000   -2,731620073e-01    5,068834424e-01
       81500000   -2,693850398e-01    5,096491575e-01
       81575000   -2,653848827e-01    5,110194683e-01
       81650000   -2,664237022e-01    5,130946040e-01
       81725000   -2,604661882e-01    5,187909603e-01
       81800000   -2,575300336e-01    5,196293592e-01
       81875000   -2,544292808e-01    5,203640461e-01
       81950000   -2,510071397e-01    5,212351084e-01
       82025000   -2,500559688e-01    5,220270753e-01
       82100000   -2,422039509e-01    5,250662565e-01
       82175000   -2,381777018e-01    5,265986919e-01
       82250000   -2,341445386e-01    5,296290517e-01
       82325000   -2,274018526e-01    5,312131047e-01
       82400000   -2,231017202e-01    5,329568386e-01
       82475000   -2,191320509e-01    5,387461185e-01
       82550000   -2,144499570e-01    5,403563976e-01
       82625000   -2,098696977e-01    5,427063704e-01
       82700000   -2,063084543e-01    5,444244742e-01
       82775000   -2,013918757e-01    5,463679433e-01
       82850000   -1,971812993e-01    5,478228927e-01
       82925000   -1,925005764e-01    5,505383611e-01
       83000000   -1,888264716e-01    5,522380471e-01
       83075000   -1,838490367e-01    5,530198812e-01
       83150000   -1,789573282e-01    5,544953942e-01
       83225000   -1,740031093e-01    5,562705398e-01
       83300000   -1,694706678e-01    5,578032732e-01
       83375000   -1,650432795e-01    5,594092607e-01
       83450000   -1,632363349e-01    5,633146763e-01
       83525000   -1,576220989e-01    5,661879182e-01
       83600000   -1,527588367e-01    5,671679974e-01
       83675000   -1,448580772e-01    5,646676421e-01
       83750000   -1,391199976e-01    5,661343336e-01
       83825000   -1,338849664e-01    5,720750093e-01
       83900000   -1,284687072e-01    5,731820464e-01
       83975000   -1,274610460e-01    5,753220916e-01
       84050000   -1,217820123e-01    5,744169950e-01
       84125000   -1,164799854e-01    5,750119686e-01
       84200000   -1,071180552e-01    5,751064420e-01
       84275000   -1,019426137e-01    5,792927146e-01
       84350000   -9,668474644e-02    5,801420808e-01
       84425000   -9,247782826e-02    5,820524096e-01
       84500000   -8,628357202e-02    5,819904804e-01
       84575000   -8,239082247e-02    5,787149072e-01
       84650000   -7,295779139e-02    5,788614154e-01
       84725000   -6,796061993e-02    5,833610892e-01
       84800000   -6,058895588e-02    5,826102495e-01
       84875000   -5,481560901e-02    5,821837187e-01
       84950000   -5,062682927e-02    5,803290606e-01
       85025000   -4,449595138e-02    5,840961337e-01
       85100000   -4,015134275e-02    5,808588266e-01
       85175000   -3,412223235e-02    5,791246295e-01
       85250000   -2,725672536e-02    5,790567398e-01
       85325000   -1,948679052e-02    5,795457959e-01
       85400000   -1,288495306e-02    5,797536969e-01
       85475000   -7,825408131e-03    5,797110796e-01
       85550000   -2,692929003e-03    5,758257508e-01
       85625000    4,584708659e-04    5,776786804e-01
       85700000    6,237665191e-03    5,780230165e-01
       85775000    1,611467637e-02    5,729104877e-01
       85850000    1,760192588e-02    5,732988715e-01
       85925000    2,749150060e-02    5,717983246e-01
       86000000    3,214222565e-02    5,695461035e-01
       86075000    3,817933053e-02    5,682718754e-01
       86150000    4,104999825e-02    5,646051168e-01
       86225000    4,717840999e-02    5,641750693e-01
       86300000    5,292299017e-02    5,590351224e-01
       86375000    5,766426772e-02    5,568686128e-01
       86450000    5,983303487e-02    5,538658500e-01
       86525000    6,845501810e-02    5,550419688e-01
       86600000    7,159081101e-02    5,502638221e-01
       86675000    7,688618451e-02    5,463271141e-01
       86750000    8,157756180e-02    5,447594523e-01
       86825000    8,606161177e-02    5,427500010e-01
       86900000    9,455124289e-02    5,381288528e-01
       86975000    9,756267071e-02    5,353810787e-01
       87050000    9,983541071e-02    5,342552662e-01
       87125000    1,040221155e-01    5,286111832e-01
       87200000    1,098179519e-01    5,236598253e-01
       87275000    1,127755791e-01    5,241839290e-01
       87350000    1,132859141e-01    5,191738605e-01
       87425000    1,168323904e-01    5,159406066e-01
       87500000    1,197350100e-01    5,143640637e-01
       87575000    1,201059073e-01    5,144400001e-01
       87650000    1,273417324e-01    5,081778765e-01
       87725000    1,335380822e-01    5,058962703e-01
       87800000    1,326198727e-01    5,011244416e-01
       87875000    1,346674114e-01    5,035938025e-01
       87950000    1,327303648e-01    4,987431765e-01
       88025000    1,394357979e-01    4,974864423e-01
       88100000    1,411327869e-01    4,940807223e-01
       88175000    1,449793428e-01    4,895538092e-01
       88250000    1,464497149e-01    4,871942699e-01
       88325000    1,485486031e-01    4,884465337e-01
       88400000    1,512761861e-01    4,858159423e-01
       88475000    1,538824886e-01    4,840131402e-01
       88550000    1,557337642e-01    4,808107913e-01
       88625000    1,594370902e-01    4,767121375e-01
       88700000    1,604262441e-01    4,762001634e-01
       88775000    1,653391868e-01    4,730052948e-01
       88850000    1,652040333e-01    4,709641039e-01
       88925000    1,683560312e-01    4,671187699e-01
       89000000    1,707164496e-01    4,641551673e-01
       89075000    1,739089638e-01    4,622524679e-01
       89150000    1,759829223e-01    4,597806931e-01
       89225000    1,772828102e-01    4,589533210e-01
       89300000    1,786735505e-01    4,562769830e-01
       89375000    1,805899888e-01    4,533303380e-01
       89450000    1,814598441e-01    4,508143067e-01
       89525000    1,806473136e-01    4,478580356e-01
       89600000    1,807238162e-01    4,460025132e-01
       89675000    1,825923771e-01    4,457221925e-01
       89750000    1,824919134e-01    4,429029524e-01
       89825000    1,846897751e-01    4,404714704e-01
       89900000    1,841158420e-01    4,386308491e-01
       89975000    1,835748255e-01    4,373522103e-01
       90050000    1,837783605e-01    4,373354316e-01
       90125000    1,818900406e-01    4,361146986e-01
       90200000    1,814378351e-01    4,369460046e-01
       90275000    1,814956218e-01    4,359627366e-01
       90350000    1,822821647e-01    4,351179898e-01
       90425000    1,821933538e-01    4,391096234e-01
       90500000    1,819198132e-01    4,384997487e-01
       90575000    1,816490293e-01    4,384031296e-01
       90650000    1,839255095e-01    4,401667416e-01
       90725000    1,825231612e-01    4,424870014e-01
       90800000    1,837368011e-01    4,447192550e-01
       90875000    1,848980635e-01    4,463724196e-01
       90950000    1,864895821e-01    4,480141997e-01
       91025000    1,873890460e-01    4,537322819e-01
       91100000    1,902156025e-01    4,530532658e-01
       91175000    1,941791475e-01    4,552846551e-01
       91250000    1,971718222e-01    4,577362239e-01
       91325000    2,006968856e-01    4,599354565e-01
       91400000    2,042474151e-01    4,634872079e-01
       91475000    2,080076039e-01    4,666312337e-01
       91550000    2,116850168e-01    4,692617953e-01
       91625000    2,156701386e-01    4,718438387e-01
       91700000    2,206660658e-01    4,733771682e-01
       91775000    2,247595489e-01    4,789669514e-01
       91850000    2,296961248e-01    4,769309461e-01
       91925000    2,344599366e-01    4,791644812e-01
