! NanoVNA-App
! Date: 2025-08-09 16:18:55
! Start: 65MHz Stop: 95MHz Points: 401
! S-Parameter data: F S11
# Hz S RI R 50
!     Frequency           S11_Real           S11_Imag
       65000000    7,279751897e-01    1,242906749e-01
       65075000    7,330732346e-01    1,264233887e-01
       65150000    7,330574393e-01    1,221709475e-01
       65225000    7,323197126e-01    1,187326312e-01
       65300000    7,310579419e-01    1,151915118e-01
       65375000    7,311175466e-01    1,109295264e-01
       65450000    7,300326228e-01    1,068975180e-01
       65525000    7,287011147e-01    1,036861762e-01
       65600000    7,288947105e-01    9,966138005e-02
       65675000    7,276751399e-01    9,620853513e-02
       65750000    7,274914384e-01    9,330093116e-02
       65825000    7,262406349e-01    8,863689750e-02
       65900000    7,256436944e-01    8,644451201e-02
       65975000    7,247063518e-01    8,164173365e-02
       66050000    7,236495614e-01    7,986726612e-02
       66125000    7,233852744e-01    7,658385485e-02
       66200000    7,221635580e-01    7,266423851e-02
       66275000    7,208952904e-01    6,924548745e-02
       66350000    7,207742333e-01    6,725944579e-02
       66425000    7,199552059e-01    6,304271519e-02
       66500000    7,193824649e-01    6,039649993e-02
       66575000    7,180815339e-01    5,631823093e-02
       66650000    7,180922031e-01    5,458651856e-02
       66725000    7,176550031e-01    5,120476708e-02
       66800000    7,161926031e-01    4,799547046e-02
       66875000    7,160390615e-01    4,587144405e-02
       66950000    7,154718041e-01    4,259128869e-02
       67025000    7,146338820e-01    3,946812823e-02
       67100000    7,150400877e-01    3,777448833e-02
       67175000    7,145686746e-01    3,370235860e-02
       67250000    7,135047913e-01    3,076444380e-02
       67325000    7,150663137e-01    2,857499011e-02
       67400000    7,144806385e-01    2,455314808e-02
       67475000    7,139073610e-01    2,244369686e-02
       67550000    7,137432098e-01    1,855481789e-02
       67625000    7,126064301e-01    1,418909989e-02
       67700000    7,129892111e-01    1,183382515e-02
       67775000    7,121198773e-01    8,431472816e-03
       67850000    7,108302116e-01    5,051145796e-03
       67925000    7,115140557e-01    2,334567951e-03
       68000000    7,102392912e-01   -2,031335607e-03
       68075000    7,096248865e-01   -4,616329446e-03
       68150000    7,088574767e-01   -8,546745405e-03
       68225000    7,078999877e-01   -1,075215824e-02
       68300000    7,071384788e-01   -1,402312890e-02
       68375000    7,057980299e-01   -1,791622676e-02
       68450000    7,063292265e-01   -2,074449882e-02
       68525000    7,045440078e-01   -2,404592186e-02
       68600000    7,036550641e-01   -2,660255879e-02
       68675000    7,035798430e-01   -3,037889674e-02
       68750000    7,030028701e-01   -3,227866068e-02
       68825000    7,018271089e-01   -3,561777622e-02
       68900000    7,006647587e-01   -3,866453096e-02
       68975000    7,000757456e-01   -4,186064005e-02
       69050000    6,993133426e-01   -4,429726303e-02
       69125000    6,979328394e-01   -4,786201939e-02
       69200000    6,967439055e-01   -5,086985976e-02
       69275000    6,960026026e-01   -5,322363973e-02
       69350000    6,942139268e-01   -5,587303266e-02
       69425000    6,941981316e-01   -5,884278566e-02
       69500000    6,922139525e-01   -6,140772626e-02
       69575000    6,908444166e-01   -6,482958049e-02
       69650000    6,898263693e-01   -6,678273529e-02
       69725000    6,892170906e-01   -7,054135948e-02
       69800000    6,868425012e-01   -7,283999026e-02
       69875000    6,874340773e-01   -7,478568703e-02
       69950000    6,853321195e-01   -7,865171134e-02
       70025000    6,833294034e-01   -8,085915446e-02
       70100000    6,836693287e-01   -8,275391161e-02
       70175000    6,822276115e-01   -8,557045460e-02
       70250000    6,803872585e-01   -8,723931760e-02
       70325000    6,795527935e-01   -8,984854817e-02
       70400000    6,782967448e-01   -9,170876443e-02
       70475000    6,781231761e-01   -9,402243793e-02
       70550000    6,773677468e-01   -9,619656205e-02
       70625000    6,758157611e-01   -9,739098698e-02
       70700000    6,754989028e-01   -1,007439047e-01
       70775000    6,740974188e-01   -1,034498438e-01
       70850000    6,741377711e-01   -1,040032879e-01
       70925000    6,734007001e-01   -1,076720431e-01
       71000000    6,720074415e-01   -1,089439467e-01
       71075000    6,723899841e-01   -1,109717041e-01
       71150000    6,717392206e-01   -1,138889566e-01
       71225000    6,706694365e-01   -1,169161350e-01
       71300000    6,703286767e-01   -1,188685000e-01
       71375000    6,703680754e-01   -1,213361844e-01
       71450000    6,675090790e-01   -1,247559637e-01
       71525000    6,672747731e-01   -1,273262203e-01
       71600000    6,676222086e-01   -1,294458956e-01
       71675000    6,651633978e-01   -1,319661289e-01
       71750000    6,646655202e-01   -1,356742829e-01
       71825000    6,638517380e-01   -1,379154176e-01
       71900000    6,620250940e-01   -1,407540292e-01
       71975000    6,600510478e-01   -1,429995745e-01
       72050000    6,602769494e-01   -1,449699253e-01
       72125000    6,573814750e-01   -1,473032832e-01
       72200000    6,561888456e-01   -1,489404589e-01
       72275000    6,549500823e-01   -1,518418193e-01
       72350000    6,530788541e-01   -1,539597660e-01
       72425000    6,510378718e-01   -1,555596441e-01
       72500000    6,482883692e-01   -1,549219042e-01
       72575000    6,486353874e-01   -1,581279337e-01
       72650000    6,472266316e-01   -1,608665437e-01
       72725000    6,450065970e-01   -1,617673188e-01
       72800000    6,452075839e-01   -1,630863547e-01
       72875000    6,430030465e-01   -1,648013592e-01
       72950000    6,433002353e-01   -1,652437747e-01
       73025000    6,426618099e-01   -1,672187597e-01
       73100000    6,404181719e-01   -1,695293486e-01
       73175000    6,396315694e-01   -1,702038199e-01
       73250000    6,390359402e-01   -1,711895168e-01
       73325000    6,387240291e-01   -1,728089899e-01
       73400000    6,370031834e-01   -1,749801338e-01
       73475000    6,368696690e-01   -1,756340712e-01
       73550000    6,366921067e-01   -1,791952550e-01
       73625000    6,356981397e-01   -1,798104048e-01
       73700000    6,359183192e-01   -1,816324294e-01
       73775000    6,347836852e-01   -1,821823567e-01
       73850000    6,349570751e-01   -1,843633950e-01
       73925000    6,338181496e-01   -1,863052845e-01
       74000000    6,346376538e-01   -1,867806017e-01
       74075000    6,316944361e-01   -1,904693246e-01
       74150000    6,310953498e-01   -1,887290776e-01
       74225000    6,320022941e-01   -1,928874254e-01
       74300000    6,312497854e-01   -1,950674802e-01
       74375000    6,310813427e-01   -1,965498626e-01
       74450000    6,291605234e-01   -1,986535490e-01
       74525000    6,295773387e-01   -2,014790624e-01
       74600000    6,289200187e-01   -2,018133849e-01
       74675000    6,294700503e-01   -2,047731280e-01
       74750000    6,273239851e-01   -2,060686350e-01
       74825000    6,275789738e-01   -2,068105936e-01
       74900000    6,251228452e-01   -2,107623816e-01
       74975000    6,251408458e-01   -2,111053914e-01
       75050000    6,243576407e-01   -2,145035863e-01
       75125000    6,244817972e-01   -2,149921060e-01
       75200000    6,234377027e-01   -2,176351994e-01
       75275000    6,226763725e-01   -2,188639343e-01
       75350000    6,217909455e-01   -2,216177136e-01
       75425000    6,217989326e-01   -2,212073654e-01
       75500000    6,199765205e-01   -2,244975567e-01
       75575000    6,204393506e-01   -2,259986550e-01
       75650000    6,195967793e-01   -2,307678163e-01
       75725000    6,181091070e-01   -2,290833294e-01
       75800000    6,179880500e-01   -2,308958620e-01
       75875000    6,155112386e-01   -2,324477434e-01
       75950000    6,160784960e-01   -2,347274274e-01
       76025000    6,147071123e-01   -2,371442467e-01
       76100000    6,146032810e-01   -2,378484607e-01
       76175000    6,137060523e-01   -2,396729439e-01
       76250000    6,118889451e-01   -2,411249131e-01
       76325000    6,129938364e-01   -2,420074195e-01
       76400000    6,093357801e-01   -2,436790764e-01
       76475000    6,088713408e-01   -2,456978559e-01
       76550000    6,089874506e-01   -2,461927682e-01
       76625000    6,062560081e-01   -2,489153892e-01
       76700000    6,067764163e-01   -2,491296977e-01
       76775000    6,065731645e-01   -2,510630488e-01
       76850000    6,036428213e-01   -2,518537343e-01
       76925000    6,038742661e-01   -2,521966100e-01
       77000000    6,033922434e-01   -2,539835870e-01
       77075000    6,019212604e-01   -2,552215755e-01
       77150000    6,011717916e-01   -2,547581196e-01
       77225000    6,033806801e-01   -2,546439767e-01
       77300000    6,037608981e-01   -2,561986446e-01
       77375000    6,023963094e-01   -2,579101622e-01
       77450000    6,038804650e-01   -2,597364485e-01
       77525000    6,038579345e-01   -2,611111701e-01
       77600000    6,019231081e-01   -2,637422681e-01
       77675000    6,030275822e-01   -2,653147280e-01
       77750000    6,028957963e-01   -2,681196928e-01
       77825000    6,012355089e-01   -2,683457732e-01
       77900000    6,023473144e-01   -2,693172395e-01
       77975000    6,020549536e-01   -2,723230422e-01
       78050000    5,998170972e-01   -2,725284994e-01
       78125000    6,011288166e-01   -2,744374871e-01
       78200000    6,007282138e-01   -2,765239179e-01
       78275000    5,986980200e-01   -2,782591283e-01
       78350000    6,000674963e-01   -2,792352140e-01
       78425000    5,993779898e-01   -2,806944847e-01
       78500000    5,985700488e-01   -2,836652100e-01
       78575000    5,994126201e-01   -2,818783820e-01
       78650000    5,992303491e-01   -2,849819958e-01
       78725000    5,978901982e-01   -2,872112393e-01
       78800000    5,980893373e-01   -2,874384224e-01
       78875000    5,987361073e-01   -2,888989747e-01
       78950000    5,971370935e-01   -2,897894382e-01
       79025000    5,976054072e-01   -2,903482616e-01
       79100000    5,966641307e-01   -2,927079797e-01
       79175000    5,976209044e-01   -2,951096594e-01
       79250000    5,975942016e-01   -2,977143228e-01
       79325000    5,951283574e-01   -2,938836813e-01
       79400000    5,978657007e-01   -2,991229594e-01
       79475000    5,961905122e-01   -3,001193404e-01
       79550000    5,970184803e-01   -3,020463884e-01
       79625000    5,975219011e-01   -3,055580854e-01
       79700000    5,984266400e-01   -3,048599362e-01
       79775000    5,987687111e-01   -3,057813644e-01
       79850000    5,983272195e-01   -3,106553555e-01
       79925000    5,985652208e-01   -3,097205460e-01
       80000000    6,015102267e-01   -3,098294735e-01
       80075000    5,999845266e-01   -3,156690001e-01
       80150000    6,006563306e-01   -3,182070851e-01
       80225000    6,022577286e-01   -3,194310963e-01
       80300000    5,971477032e-01   -3,232017159e-01
       80375000    6,010745168e-01   -3,229050040e-01
       80450000    6,015725732e-01   -3,245906234e-01
       80525000    6,005976200e-01   -3,260051012e-01
       80600000    6,017485261e-01   -3,288133144e-01
       80675000    6,010178924e-01   -3,292794824e-01
       80750000    6,006221175e-01   -3,324755430e-01
       80825000    6,012521982e-01   -3,368890285e-01
       80900000    6,014960408e-01   -3,381766081e-01
       80975000    6,004171371e-01   -3,394934535e-01
       81050000    5,997434855e-01   -3,444203436e-01
       81125000    6,010565162e-01   -3,448222876e-01
       81200000    6,000372171e-01   -3,481191397e-01
       81275000    6,013895869e-01   -3,487173617e-01
       81350000    6,007771492e-01   -3,527758718e-01
       81425000    6,003924608e-01   -3,523837626e-01
       81500000    6,003121734e-01   -3,545493484e-01
       81575000    5,987886190e-01   -3,561773300e-01
       81650000    6,008635759e-01   -3,608699739e-01
       81725000    5,994384885e-01   -3,629906476e-01
       81800000    5,977402329e-01   -3,668899834e-01
       81875000    5,998653173e-01   -3,675338030e-01
       81950000    5,993248820e-01   -3,714759052e-01
       82025000    5,994091630e-01   -3,725398481e-01
       82100000    6,005715132e-01   -3,747330308e-01
       82175000    5,994870067e-01   -3,762891889e-01
       82250000    5,992873311e-01   -3,791397214e-01
       82325000    5,956684947e-01   -3,817878067e-01
       82400000    5,974872708e-01   -3,839191794e-01
       82475000    5,970511436e-01   -3,889729977e-01
       82550000    5,984123349e-01   -3,898328543e-01
       82625000    5,968748927e-01   -3,936373293e-01
       82700000    5,970469117e-01   -3,956131935e-01
       82775000    5,966859460e-01   -3,990865648e-01
       82850000    5,961704850e-01   -4,005307257e-01
       82925000    5,957295299e-01   -4,049030542e-01
       83000000    5,962169170e-01   -4,060116112e-01
       83075000    5,954376459e-01   -4,100212455e-01
       83150000    5,957353115e-01   -4,115188122e-01
       83225000    5,947164297e-01   -4,152882993e-01
       83300000    5,963507891e-01   -4,168624580e-01
       83375000    5,938465595e-01   -4,204281867e-01
       83450000    5,913751721e-01   -4,214500487e-01
       83525000    5,930461287e-01   -4,254436791e-01
       83600000    5,898600817e-01   -4,279961884e-01
       83675000    5,924185514e-01   -4,305762947e-01
       83750000    5,925822258e-01   -4,345566928e-01
       83825000    5,915047526e-01   -4,361543059e-01
       83900000    5,898140073e-01   -4,385570884e-01
       83975000    5,886298418e-01   -4,426711202e-01
       84050000    5,853463411e-01   -4,466638863e-01
       84125000    5,864656568e-01   -4,488598108e-01
       84200000    5,865928531e-01   -4,531686008e-01
       84275000    5,831589103e-01   -4,524465203e-01
       84350000    5,839867592e-01   -4,563918710e-01
       84425000    5,801444650e-01   -4,601388276e-01
       84500000    5,814142823e-01   -4,636025429e-01
       84575000    5,807532668e-01   -4,701193571e-01
       84650000    5,803993940e-01   -4,696051180e-01
       84725000    5,771550536e-01   -4,722618461e-01
       84800000    5,741677284e-01   -4,762282968e-01
       84875000    5,739337206e-01   -4,785997570e-01
       84950000    5,735287666e-01   -4,846658707e-01
       85025000    5,688629150e-01   -4,864549637e-01
       85100000    5,706533194e-01   -4,888208508e-01
       85175000    5,691649318e-01   -4,914156199e-01
       85250000    5,684996247e-01   -4,927320182e-01
       85325000    5,644886494e-01   -4,966374338e-01
       85400000    5,605959892e-01   -5,019987822e-01
       85475000    5,612190962e-01   -5,039046407e-01
       85550000    5,579715371e-01   -5,054569244e-01
       85625000    5,594248772e-01   -5,092963576e-01
       85700000    5,544567704e-01   -5,095475912e-01
       85775000    5,526525378e-01   -5,155276060e-01
       85850000    5,525243282e-01   -5,157120228e-01
       85925000    5,484499335e-01   -5,229760408e-01
       86000000    5,477197766e-01   -5,243597031e-01
       86075000    5,455007553e-01   -5,262982845e-01
       86150000    5,402114391e-01   -5,261796117e-01
       86225000    5,397891402e-01   -5,284465551e-01
       86300000    5,374720693e-01   -5,328339338e-01
       86375000    5,348875523e-01   -5,354560614e-01
       86450000    5,301065445e-01   -5,388485789e-01
       86525000    5,291847587e-01   -5,372999310e-01
       86600000    5,262826681e-01   -5,415943265e-01
       86675000    5,225332379e-01   -5,466232896e-01
       86750000    5,220282674e-01   -5,470719337e-01
       86825000    5,185751915e-01   -5,483109951e-01
       86900000    5,175467134e-01   -5,491844416e-01
       86975000    5,160183907e-01   -5,512832999e-01
       87050000    5,088133216e-01   -5,549814701e-01
       87125000    5,104831457e-01   -5,544649363e-01
       87200000    5,080157518e-01   -5,568441749e-01
       87275000    5,017329454e-01   -5,561881661e-01
       87350000    5,028343797e-01   -5,594577193e-01
       87425000    5,013257861e-01   -5,614740849e-01
       87500000    5,002747178e-01   -5,660246611e-01
       87575000    4,982414544e-01   -5,602176785e-01
       87650000    4,922081232e-01   -5,650971532e-01
       87725000    4,899871647e-01   -5,668191910e-01
       87800000    4,816266596e-01   -5,622704625e-01
       87875000    4,854694307e-01   -5,629364848e-01
       87950000    4,822906256e-01   -5,668683648e-01
       88025000    4,789370894e-01   -5,742927194e-01
       88100000    4,766340256e-01   -5,736914873e-01
       88175000    4,767068028e-01   -5,760087967e-01
       88250000    4,717497528e-01   -5,735785961e-01
       88325000    4,695579112e-01   -5,730278492e-01
       88400000    4,730361104e-01   -5,695794225e-01
       88475000    4,714628458e-01   -5,780333281e-01
       88550000    4,674908519e-01   -5,777208209e-01
       88625000    4,623824954e-01   -5,829364061e-01
       88700000    4,656653702e-01   -5,822641253e-01
       88775000    4,631677568e-01   -5,798656940e-01
       88850000    4,590303302e-01   -5,830358267e-01
       88925000    4,573394060e-01   -5,871927142e-01
       89000000    4,541067779e-01   -5,782439113e-01
       89075000    4,571762085e-01   -5,812056661e-01
       89150000    4,528704584e-01   -5,846961141e-01
       89225000    4,515565336e-01   -5,848967433e-01
       89300000    4,500327408e-01   -5,869398117e-01
       89375000    4,476763904e-01   -5,860258341e-01
       89450000    4,459250867e-01   -5,877420902e-01
       89525000    4,395927489e-01   -5,910366774e-01
       89600000    4,399703443e-01   -5,888713598e-01
       89675000    4,376779497e-01   -5,879363418e-01
       89750000    4,327869117e-01   -5,905437469e-01
       89825000    4,336220622e-01   -5,846852660e-01
       89900000    4,333964884e-01   -5,873788595e-01
       89975000    4,295483828e-01   -5,887709856e-01
       90050000    4,300224781e-01   -5,879836082e-01
       90125000    4,283883572e-01   -5,924548507e-01
       90200000    4,290164709e-01   -5,903435349e-01
       90275000    4,271813631e-01   -5,880804658e-01
       90350000    4,229673445e-01   -5,892868042e-01
       90425000    4,267277122e-01   -5,913377404e-01
       90500000    4,278320670e-01   -5,871245861e-01
       90575000    4,307876825e-01   -5,938949585e-01
       90650000    4,272485077e-01   -5,889241695e-01
       90725000    4,243748486e-01   -5,905200839e-01
       90800000    4,237508178e-01   -5,930905342e-01
       90875000    4,263615906e-01   -5,928235650e-01
       90950000    4,273258746e-01   -5,953313112e-01
       91025000    4,275834262e-01   -5,943341851e-01
       91100000    4,264631569e-01   -5,925998688e-01
       91175000    4,256414175e-01   -5,980519652e-01
       91250000    4,275357127e-01   -5,976153612e-01
       91325000    4,268289804e-01   -5,984123945e-01
       91400000    4,250668287e-01   -6,017576456e-01
       91475000    4,274715185e-01   -6,034130454e-01
       91550000    4,275084734e-01   -6,083494425e-01
       91625000    4,284295142e-01   -6,080731750e-01
       91700000    4,292842448e-01   -6,104188561e-01
       91775000    4,292594194e-01   -6,142106652e-01
       91850000    4,295319319e-01   -6,146540642e-01
       91925000    4,299880564e-01   -6,182352304e-01
