! NanoVNA-App
! Date: 2025-08-09 13:44:55
! Start: 65MHz Stop: 95MHz Points: 401
! S-Parameter data: F S11
# Hz S RI R 50
!     Frequency           S11_Real           S11_Imag
       65000000    4,604751766e-01    3,678200245e-01
       65075000    4,612912238e-01    3,697991669e-01
       65150000    4,645497501e-01    3,657555282e-01
       65225000    4,658823609e-01    3,620463014e-01
       65300000    4,659724236e-01    3,563171029e-01
       65375000    4,667306542e-01    3,511629403e-01
       65450000    4,682372510e-01    3,476486206e-01
       65525000    4,694340527e-01    3,424857557e-01
       65600000    4,711150527e-01    3,385458887e-01
       65675000    4,723519981e-01    3,322538435e-01
       65750000    4,751030207e-01    3,286917508e-01
       65825000    4,760847986e-01    3,265690804e-01
       65900000    4,771064520e-01    3,219136000e-01
       65975000    4,792658687e-01    3,177130520e-01
       66050000    4,796997905e-01    3,138622046e-01
       66125000    4,816135466e-01    3,085817695e-01
       66200000    4,825599194e-01    3,050789535e-01
       66275000    4,832377136e-01    2,983417213e-01
       66350000    4,857320786e-01    2,969627678e-01
       66425000    4,870652854e-01    2,930969596e-01
       66500000    4,872910082e-01    2,876602113e-01
       66575000    4,883687496e-01    2,851654589e-01
       66650000    4,896129966e-01    2,798280716e-01
       66725000    4,904309809e-01    2,756870985e-01
       66800000    4,923448861e-01    2,716040313e-01
       66875000    4,934771955e-01    2,689024210e-01
       66950000    4,951625168e-01    2,659775615e-01
       67025000    4,963290691e-01    2,598915398e-01
       67100000    4,973847866e-01    2,570388615e-01
       67175000    4,979127049e-01    2,535607517e-01
       67250000    4,997455478e-01    2,482757270e-01
       67325000    5,004028678e-01    2,449320704e-01
       67400000    5,017821789e-01    2,411040813e-01
       67475000    5,033227205e-01    2,361981869e-01
       67550000    5,044713616e-01    2,328445166e-01
       67625000    5,051233768e-01    2,278994471e-01
       67700000    5,062679648e-01    2,244073004e-01
       67775000    5,080769062e-01    2,208969742e-01
       67850000    5,087455511e-01    2,166777700e-01
       67925000    5,099767447e-01    2,132680118e-01
       68000000    5,113938451e-01    2,083172500e-01
       68075000    5,124691725e-01    2,030653656e-01
       68150000    5,133836269e-01    1,993451566e-01
       68225000    5,149624944e-01    1,953407526e-01
       68300000    5,145608783e-01    1,912297159e-01
       68375000    5,151483417e-01    1,866136938e-01
       68450000    5,156290531e-01    1,817209572e-01
       68525000    5,171269178e-01    1,778378636e-01
       68600000    5,165370107e-01    1,734769046e-01
       68675000    5,177588463e-01    1,687707901e-01
       68750000    5,180155635e-01    1,643339097e-01
       68825000    5,177075863e-01    1,595944911e-01
       68900000    5,187821388e-01    1,563302577e-01
       68975000    5,182788372e-01    1,513455957e-01
       69050000    5,184958577e-01    1,471717060e-01
       69125000    5,174381137e-01    1,440191418e-01
       69200000    5,185740590e-01    1,392345577e-01
       69275000    5,177961588e-01    1,350570470e-01
       69350000    5,176236033e-01    1,322179288e-01
       69425000    5,170890689e-01    1,269994676e-01
       69500000    5,164570808e-01    1,235703677e-01
       69575000    5,156302452e-01    1,194905117e-01
       69650000    5,155320764e-01    1,162237152e-01
       69725000    5,147297978e-01    1,119280383e-01
       69800000    5,140846372e-01    1,083852351e-01
       69875000    5,135823488e-01    1,053068042e-01
       69950000    5,131663680e-01    1,025259048e-01
       70025000    5,129864216e-01    9,877126664e-02
       70100000    5,110214949e-01    9,496843815e-02
       70175000    5,106174946e-01    9,088519216e-02
       70250000    5,104044676e-01    8,925747126e-02
       70325000    5,091907382e-01    8,500566334e-02
       70400000    5,088711381e-01    8,318157494e-02
       70475000    5,079802275e-01    8,014907688e-02
       70550000    5,070621371e-01    7,710378617e-02
       70625000    5,070644021e-01    7,376483828e-02
       70700000    5,068072081e-01    7,280783355e-02
       70775000    5,052886605e-01    6,897237897e-02
       70850000    5,061081648e-01    6,654614955e-02
       70925000    5,057506561e-01    6,302160025e-02
       71000000    5,051016808e-01    6,118359789e-02
       71075000    5,050007105e-01    5,730857700e-02
       71150000    5,045395494e-01    5,431152880e-02
       71225000    5,043983459e-01    5,110391974e-02
       71300000    5,043973327e-01    4,897607118e-02
       71375000    5,041866899e-01    4,618709907e-02
       71450000    5,022526383e-01    4,273459315e-02
       71525000    5,021327734e-01    3,933118284e-02
       71600000    5,017054677e-01    3,583457321e-02
       71675000    5,009235144e-01    3,274134547e-02
       71750000    4,995475709e-01    2,970806882e-02
       71825000    4,995753467e-01    2,667712234e-02
       71900000    4,968177676e-01    2,384646237e-02
       71975000    4,959665239e-01    2,103840001e-02
       72050000    4,946141243e-01    1,784900390e-02
       72125000    4,923307002e-01    1,488910615e-02
       72200000    4,909263849e-01    1,384621672e-02
       72275000    4,896925092e-01    1,106585097e-02
       72350000    4,875857830e-01    9,784703143e-03
       72425000    4,862158298e-01    7,175418548e-03
       72500000    4,846019745e-01    6,740774028e-03
       72575000    4,842430651e-01    5,094952416e-03
       72650000    4,836044610e-01    3,134216415e-03
       72725000    4,815360904e-01    2,333584707e-03
       72800000    4,803341329e-01   -9,383293218e-05
       72875000    4,792693853e-01   -1,610061387e-03
       72950000    4,792143703e-01   -2,175121335e-03
       73025000    4,780378938e-01   -3,550030524e-03
       73100000    4,779649675e-01   -5,449252203e-03
       73175000    4,756977260e-01   -6,812342908e-03
       73250000    4,768564999e-01   -7,589353248e-03
       73325000    4,762107730e-01   -8,906264789e-03
       73400000    4,754385650e-01   -1,040028501e-02
       73475000    4,748374522e-01   -1,187474839e-02
       73550000    4,753170907e-01   -1,369654667e-02
       73625000    4,754402637e-01   -1,334389858e-02
       73700000    4,747222364e-01   -1,551094744e-02
       73775000    4,741758704e-01   -1,676419005e-02
       73850000    4,746136367e-01   -1,749894023e-02
       73925000    4,732726812e-01   -2,023581602e-02
       74000000    4,745251238e-01   -2,130839787e-02
       74075000    4,747607708e-01   -2,296316810e-02
       74150000    4,734387398e-01   -2,367986739e-02
       74225000    4,728350937e-01   -2,577556111e-02
       74300000    4,740963876e-01   -2,677184902e-02
       74375000    4,736120999e-01   -2,861612663e-02
       74450000    4,734390080e-01   -2,967758849e-02
       74525000    4,745594561e-01   -3,144630045e-02
       74600000    4,734891951e-01   -3,273421898e-02
       74675000    4,726653695e-01   -3,481044993e-02
       74750000    4,722965360e-01   -3,622329980e-02
       74825000    4,732095599e-01   -3,749640286e-02
       74900000    4,716151655e-01   -3,992127255e-02
       74975000    4,727827311e-01   -4,031916335e-02
       75050000    4,722235203e-01   -4,157512635e-02
       75125000    4,712433517e-01   -4,380270466e-02
       75200000    4,719753861e-01   -4,561414570e-02
       75275000    4,712613225e-01   -4,608087987e-02
       75350000    4,711682498e-01   -4,754103348e-02
       75425000    4,707460701e-01   -4,985718802e-02
       75500000    4,713502526e-01   -5,101083219e-02
       75575000    4,705440402e-01   -5,228899047e-02
       75650000    4,702385962e-01   -5,428129435e-02
       75725000    4,705975056e-01   -5,602795631e-02
       75800000    4,708748460e-01   -5,625493452e-02
       75875000    4,685211778e-01   -5,890471488e-02
       75950000    4,709893465e-01   -5,882708356e-02
       76025000    4,703116715e-01   -6,024000421e-02
       76100000    4,687144756e-01   -6,159255654e-02
       76175000    4,697881639e-01   -6,301244348e-02
       76250000    4,688577056e-01   -6,585786492e-02
       76325000    4,699297845e-01   -6,461057812e-02
       76400000    4,704470038e-01   -6,722600013e-02
       76475000    4,695459604e-01   -6,756694615e-02
       76550000    4,693424106e-01   -6,796453148e-02
       76625000    4,687399864e-01   -7,041817158e-02
       76700000    4,695473909e-01   -7,063045353e-02
       76775000    4,692339599e-01   -7,231498510e-02
       76850000    4,694361091e-01   -7,356010377e-02
       76925000    4,690847993e-01   -7,546487451e-02
       77000000    4,689871967e-01   -7,631990314e-02
       77075000    4,683896601e-01   -7,690407336e-02
       77150000    4,689350724e-01   -7,811501622e-02
       77225000    4,693985283e-01   -7,972123474e-02
       77300000    4,695120752e-01   -7,978743315e-02
       77375000    4,699792564e-01   -8,163458109e-02
       77450000    4,689410031e-01   -8,186164498e-02
       77525000    4,684718251e-01   -8,262693137e-02
       77600000    4,680209756e-01   -8,439316601e-02
       77675000    4,675126374e-01   -8,541007340e-02
       77750000    4,692155719e-01   -8,608911186e-02
       77825000    4,684902430e-01   -8,664647490e-02
       77900000    4,690781534e-01   -8,785865456e-02
       77975000    4,691301584e-01   -8,753812313e-02
       78050000    4,684830904e-01   -8,819009364e-02
       78125000    4,689520597e-01   -8,913628012e-02
       78200000    4,698217511e-01   -8,858848363e-02
       78275000    4,703057408e-01   -8,883868158e-02
       78350000    4,713094234e-01   -8,925047517e-02
       78425000    4,722048640e-01   -8,970284462e-02
       78500000    4,738861918e-01   -8,955646306e-02
       78575000    4,760985374e-01   -9,090909362e-02
       78650000    4,762487710e-01   -9,140960872e-02
       78725000    4,780197442e-01   -9,268730134e-02
       78800000    4,797394872e-01   -9,418127686e-02
       78875000    4,802599847e-01   -9,428963810e-02
       78950000    4,806925952e-01   -9,644486010e-02
       79025000    4,803603590e-01   -9,812624753e-02
       79100000    4,827610850e-01   -9,881190956e-02
       79175000    4,843546748e-01   -1,001263335e-01
       79250000    4,863433242e-01   -1,012477800e-01
       79325000    4,861267507e-01   -1,024755090e-01
       79400000    4,892489314e-01   -1,021306291e-01
       79475000    4,893348515e-01   -1,047572121e-01
       79550000    4,904360175e-01   -1,076436490e-01
       79625000    4,919122159e-01   -1,072708592e-01
       79700000    4,921233356e-01   -1,080966666e-01
       79775000    4,938836992e-01   -1,104222313e-01
       79850000    4,958376288e-01   -1,110910177e-01
       79925000    4,958221614e-01   -1,137406528e-01
       80000000    4,969048202e-01   -1,137759462e-01
       80075000    4,990601242e-01   -1,153108403e-01
       80150000    5,000222325e-01   -1,175805032e-01
       80225000    5,029918551e-01   -1,201210395e-01
       80300000    5,041914582e-01   -1,200910360e-01
       80375000    5,056886673e-01   -1,219299510e-01
       80450000    5,064995289e-01   -1,231577396e-01
       80525000    5,078078508e-01   -1,245165840e-01
       80600000    5,086197257e-01   -1,268940270e-01
       80675000    5,112024546e-01   -1,289391071e-01
       80750000    5,136989355e-01   -1,312353313e-01
       80825000    5,149502754e-01   -1,314928532e-01
       80900000    5,163161159e-01   -1,342047155e-01
       80975000    5,178873539e-01   -1,377457827e-01
       81050000    5,185856223e-01   -1,381829977e-01
       81125000    5,208567381e-01   -1,409393251e-01
       81200000    5,228097439e-01   -1,425814629e-01
       81275000    5,239152908e-01   -1,454296410e-01
       81350000    5,253497958e-01   -1,476131529e-01
       81425000    5,267193317e-01   -1,511846781e-01
       81500000    5,278287530e-01   -1,533971876e-01
       81575000    5,305063128e-01   -1,548180282e-01
       81650000    5,314167738e-01   -1,582731158e-01
       81725000    5,341768265e-01   -1,594084799e-01
       81800000    5,342571139e-01   -1,621656418e-01
       81875000    5,361026525e-01   -1,660884917e-01
       81950000    5,362901688e-01   -1,687780917e-01
       82025000    5,377870202e-01   -1,712266654e-01
       82100000    5,398818254e-01   -1,751007289e-01
       82175000    5,419335365e-01   -1,764650196e-01
       82250000    5,427315831e-01   -1,799327582e-01
       82325000    5,453571081e-01   -1,819950491e-01
       82400000    5,444900393e-01   -1,860978454e-01
       82475000    5,450018048e-01   -1,880155057e-01
       82550000    5,479322076e-01   -1,915628612e-01
       82625000    5,478824973e-01   -1,942079365e-01
       82700000    5,505335927e-01   -1,979762018e-01
       82775000    5,489227772e-01   -2,017467618e-01
       82850000    5,517472029e-01   -2,051330656e-01
       82925000    5,520177484e-01   -2,083512694e-01
       83000000    5,539603233e-01   -2,112139612e-01
       83075000    5,543695092e-01   -2,149803340e-01
       83150000    5,565047264e-01   -2,176490277e-01
       83225000    5,574337244e-01   -2,225027978e-01
       83300000    5,574457049e-01   -2,255821675e-01
       83375000    5,576205850e-01   -2,295430154e-01
       83450000    5,582997799e-01   -2,320336848e-01
       83525000    5,606071949e-01   -2,354015857e-01
       83600000    5,611114502e-01   -2,385547459e-01
       83675000    5,616734624e-01   -2,429674417e-01
       83750000    5,622226000e-01   -2,487256229e-01
       83825000    5,618188381e-01   -2,502677739e-01
       83900000    5,620877743e-01   -2,550040185e-01
       83975000    5,622211695e-01   -2,599808574e-01
       84050000    5,634927750e-01   -2,625332177e-01
       84125000    5,624738932e-01   -2,685214281e-01
       84200000    5,638371110e-01   -2,695847750e-01
       84275000    5,632081628e-01   -2,746587098e-01
       84350000    5,625970364e-01   -2,789082825e-01
       84425000    5,624009967e-01   -2,833109200e-01
       84500000    5,620098710e-01   -2,869366705e-01
       84575000    5,629034042e-01   -2,891019285e-01
       84650000    5,630869865e-01   -2,946206629e-01
       84725000    5,614804626e-01   -2,996687293e-01
       84800000    5,620707273e-01   -3,022119701e-01
       84875000    5,607177615e-01   -3,074410260e-01
       84950000    5,605697632e-01   -3,100197911e-01
       85025000    5,618265271e-01   -3,138248622e-01
       85100000    5,585764647e-01   -3,192163706e-01
       85175000    5,588374138e-01   -3,232531548e-01
       85250000    5,585815907e-01   -3,265505135e-01
       85325000    5,570476055e-01   -3,310234249e-01
       85400000    5,556756258e-01   -3,343036175e-01
       85475000    5,538009405e-01   -3,383683264e-01
       85550000    5,539633036e-01   -3,428257406e-01
       85625000    5,508000255e-01   -3,469077349e-01
       85700000    5,507275462e-01   -3,501965404e-01
       85775000    5,501141548e-01   -3,543832898e-01
       85850000    5,462396741e-01   -3,587538302e-01
       85925000    5,446624160e-01   -3,610617220e-01
       86000000    5,452679396e-01   -3,647921383e-01
       86075000    5,422021747e-01   -3,695758879e-01
       86150000    5,418571234e-01   -3,713318706e-01
       86225000    5,406020284e-01   -3,765282929e-01
       86300000    5,378630757e-01   -3,791306317e-01
       86375000    5,358989239e-01   -3,826072514e-01
       86450000    5,327061415e-01   -3,854708970e-01
       86525000    5,329983234e-01   -3,899050653e-01
       86600000    5,301350355e-01   -3,926697075e-01
       86675000    5,271659493e-01   -3,964582682e-01
       86750000    5,262531638e-01   -4,000665843e-01
       86825000    5,210641623e-01   -4,019646645e-01
       86900000    5,199589133e-01   -4,058039188e-01
       86975000    5,198932886e-01   -4,075896144e-01
       87050000    5,164297223e-01   -4,106317461e-01
       87125000    5,155406594e-01   -4,141630530e-01
       87200000    5,108182430e-01   -4,167665243e-01
       87275000    5,088119507e-01   -4,178782701e-01
       87350000    5,070846081e-01   -4,209209085e-01
       87425000    5,051006675e-01   -4,257488549e-01
       87500000    5,015515685e-01   -4,277867973e-01
       87575000    5,015406013e-01   -4,305120111e-01
       87650000    4,987596869e-01   -4,296792150e-01
       87725000    4,954842031e-01   -4,329383075e-01
       87800000    4,912325740e-01   -4,338223338e-01
       87875000    4,910625219e-01   -4,374777675e-01
       87950000    4,892980456e-01   -4,390547872e-01
       88025000    4,881068170e-01   -4,430323243e-01
       88100000    4,863662124e-01   -4,423631132e-01
       88175000    4,800030291e-01   -4,465437531e-01
       88250000    4,785286486e-01   -4,475154877e-01
       88325000    4,781548679e-01   -4,498511851e-01
       88400000    4,765028656e-01   -4,533098042e-01
       88475000    4,742055833e-01   -4,537804723e-01
       88550000    4,703893960e-01   -4,566351771e-01
       88625000    4,673894346e-01   -4,581504464e-01
       88700000    4,658668339e-01   -4,581840038e-01
       88775000    4,636350870e-01   -4,616336524e-01
       88850000    4,619615972e-01   -4,638803899e-01
       88925000    4,572350681e-01   -4,660810232e-01
       89000000    4,572507739e-01   -4,670120776e-01
       89075000    4,526116848e-01   -4,696189165e-01
       89150000    4,495531321e-01   -4,688709974e-01
       89225000    4,479278922e-01   -4,704580009e-01
       89300000    4,464187622e-01   -4,692124724e-01
       89375000    4,441414177e-01   -4,721382558e-01
       89450000    4,400695860e-01   -4,721007645e-01
       89525000    4,384732544e-01   -4,729099274e-01
       89600000    4,344039261e-01   -4,753524661e-01
       89675000    4,312437177e-01   -4,736918211e-01
       89750000    4,310786724e-01   -4,739467502e-01
       89825000    4,284734130e-01   -4,743686020e-01
       89900000    4,251228273e-01   -4,733309448e-01
       89975000    4,246415198e-01   -4,736667275e-01
       90050000    4,219594300e-01   -4,734345376e-01
       90125000    4,217130542e-01   -4,726572633e-01
       90200000    4,203597009e-01   -4,741452336e-01
       90275000    4,179555774e-01   -4,712960124e-01
       90350000    4,187909961e-01   -4,715452492e-01
       90425000    4,172548652e-01   -4,721371233e-01
       90500000    4,185854197e-01   -4,697436988e-01
       90575000    4,173693359e-01   -4,701824188e-01
       90650000    4,165922403e-01   -4,704104662e-01
       90725000    4,173144400e-01   -4,691805243e-01
       90800000    4,191373587e-01   -4,701831043e-01
       90875000    4,167308807e-01   -4,695987701e-01
       90950000    4,195822775e-01   -4,693325460e-01
       91025000    4,195366502e-01   -4,701825976e-01
       91100000    4,218973517e-01   -4,715996087e-01
       91175000    4,216805696e-01   -4,725335240e-01
       91250000    4,224816859e-01   -4,713895321e-01
       91325000    4,238660634e-01   -4,743533432e-01
       91400000    4,259670675e-01   -4,731371105e-01
       91475000    4,276481271e-01   -4,763810933e-01
       91550000    4,286806881e-01   -4,787747264e-01
       91625000    4,291698337e-01   -4,795497656e-01
       91700000    4,280530512e-01   -4,819642603e-01
       91775000    4,315780699e-01   -4,840881824e-01
       91850000    4,311397970e-01   -4,868880510e-01
       91925000    4,331494272e-01   -4,878348112e-01
