! NanoVNA-App
! Date: 2025-08-02 15:42:37
! Start: 65MHz Stop: 95MHz Points: 401
! S-Parameter data: F S11
# Hz S RI R 50
!     Frequency           S11_Real           S11_Imag
       65000000   -1,489639729e-01    2,732701898e-01
       65075000   -1,399788409e-01    2,712390721e-01
       65150000   -1,331952661e-01    2,680182755e-01
       65225000   -1,248443872e-01    2,654548287e-01
       65300000   -1,172360778e-01    2,648272812e-01
       65375000   -1,110000238e-01    2,626996636e-01
       65450000   -1,034489870e-01    2,597329021e-01
       65525000   -9,657937288e-02    2,561161220e-01
       65600000   -9,029202908e-02    2,537142932e-01
       65675000   -8,469887078e-02    2,490645051e-01
       65750000   -7,712755352e-02    2,468850166e-01
       65825000   -7,083306462e-02    2,423383892e-01
       65900000   -6,444665045e-02    2,387231439e-01
       65975000   -5,863957480e-02    2,348751128e-01
       66050000   -5,300949886e-02    2,310182601e-01
       66125000   -4,935186729e-02    2,268742919e-01
       66200000   -4,314413667e-02    2,235415280e-01
       66275000   -3,960883990e-02    2,197221071e-01
       66350000   -3,519161418e-02    2,152719051e-01
       66425000   -2,975004911e-02    2,123862505e-01
       66500000   -2,541588061e-02    2,086416632e-01
       66575000   -2,069114521e-02    2,053257823e-01
       66650000   -1,742732711e-02    2,022867650e-01
       66725000   -1,414384786e-02    1,986865550e-01
       66800000   -9,317115881e-03    1,952328980e-01
       66875000   -5,721034482e-03    1,919089109e-01
       66950000   -3,523211926e-04    1,886224598e-01
       67025000    2,857791493e-03    1,857524514e-01
       67100000    8,286682889e-03    1,815448105e-01
       67175000    1,276478358e-02    1,793478876e-01
       67250000    1,601889543e-02    1,756310165e-01
       67325000    2,061765455e-02    1,710150242e-01
       67400000    2,547405660e-02    1,677541435e-01
       67475000    2,871776931e-02    1,622950435e-01
       67550000    3,348363563e-02    1,586596370e-01
       67625000    3,730507568e-02    1,537913233e-01
       67700000    4,026877508e-02    1,494363099e-01
       67775000    4,453918710e-02    1,438594609e-01
       67850000    4,697312787e-02    1,380027235e-01
       67925000    5,048036948e-02    1,353985518e-01
       68000000    5,287072435e-02    1,300846934e-01
       68075000    5,564053357e-02    1,256761551e-01
       68150000    5,782883987e-02    1,206341460e-01
       68225000    5,932694301e-02    1,158652157e-01
       68300000    6,285241991e-02    1,104279310e-01
       68375000    6,339497864e-02    1,064277440e-01
       68450000    6,698464602e-02    1,018033847e-01
       68525000    6,845030934e-02    9,701377898e-02
       68600000    6,925186515e-02    9,140402824e-02
       68675000    7,069937140e-02    8,744593710e-02
       68750000    7,204604894e-02    8,127757162e-02
       68825000    7,290971279e-02    7,730120420e-02
       68900000    7,284833491e-02    7,271385938e-02
       68975000    7,378533483e-02    6,739199907e-02
       69050000    7,380737364e-02    6,400049478e-02
       69125000    7,463834435e-02    5,854892731e-02
       69200000    7,373925298e-02    5,471966043e-02
       69275000    7,430833578e-02    5,058804527e-02
       69350000    7,328838110e-02    4,699226096e-02
       69425000    7,340639830e-02    4,272737727e-02
       69500000    7,275079191e-02    3,887182847e-02
       69575000    7,370403409e-02    3,678803518e-02
       69650000    7,194085419e-02    3,267945722e-02
       69725000    7,292557508e-02    2,916621417e-02
       69800000    7,084044069e-02    2,637513727e-02
       69875000    7,093970478e-02    2,421625704e-02
       69950000    7,003838569e-02    2,010229230e-02
       70025000    7,000368834e-02    1,798195764e-02
       70100000    6,885179132e-02    1,475476287e-02
       70175000    6,817403436e-02    1,298278384e-02
       70250000    6,900784373e-02    1,130762044e-02
       70325000    6,688918173e-02    9,126547724e-03
       70400000    6,752082705e-02    6,173076574e-03
       70475000    6,605017930e-02    4,276017193e-03
       70550000    6,638747454e-02    3,764105728e-03
       70625000    6,532551348e-02    9,108369122e-04
       70700000    6,633614749e-02   -3,979070170e-04
       70775000    6,496730447e-02   -3,317103954e-03
       70850000    6,509774178e-02   -4,897158127e-03
       70925000    6,524853408e-02   -6,652520038e-03
       71000000    6,593784690e-02   -8,273563348e-03
       71075000    6,436356157e-02   -1,136390772e-02
       71150000    6,456384808e-02   -1,209454890e-02
       71225000    6,501606852e-02   -1,482959930e-02
       71300000    6,434407830e-02   -1,585653424e-02
       71375000    6,537238508e-02   -1,845982112e-02
       71450000    6,350826472e-02   -2,042405307e-02
       71525000    6,340843439e-02   -2,195243537e-02
       71600000    6,484968960e-02   -2,361608297e-02
       71675000    6,318096071e-02   -2,583798580e-02
       71750000    6,263389438e-02   -2,613782510e-02
       71825000    6,272951514e-02   -2,892374806e-02
       71900000    6,278967857e-02   -3,204815462e-02
       71975000    6,106846035e-02   -3,265606612e-02
       72050000    6,075136736e-02   -3,448922560e-02
       72125000    6,190452352e-02   -3,698872402e-02
       72200000    5,898576602e-02   -3,691001981e-02
       72275000    6,015674770e-02   -3,972699866e-02
       72350000    5,884484202e-02   -4,204703122e-02
       72425000    5,802308768e-02   -4,277498648e-02
       72500000    5,564484000e-02   -4,482425749e-02
       72575000    5,731913075e-02   -4,687141255e-02
       72650000    5,585038662e-02   -4,848432541e-02
       72725000    5,325686932e-02   -4,860686511e-02
       72800000    5,397602171e-02   -5,060273036e-02
       72875000    5,143119395e-02   -5,239286646e-02
       72950000    5,127695575e-02   -5,225767940e-02
       73025000    5,095101893e-02   -5,328740180e-02
       73100000    4,870007560e-02   -5,472345650e-02
       73175000    4,832638800e-02   -5,435118452e-02
       73250000    4,666335508e-02   -5,749630928e-02
       73325000    4,543523490e-02   -5,807200074e-02
       73400000    4,546248168e-02   -5,656664446e-02
       73475000    4,299655184e-02   -5,906784534e-02
       73550000    4,298713058e-02   -5,881515518e-02
       73625000    4,260108247e-02   -5,990571529e-02
       73700000    4,091541842e-02   -5,914742500e-02
       73775000    4,081256688e-02   -6,128166243e-02
       73850000    3,982899711e-02   -6,015234068e-02
       73925000    3,906305507e-02   -6,086993217e-02
       74000000    3,627571091e-02   -6,116863713e-02
       74075000    3,712708503e-02   -6,016000733e-02
       74150000    3,711451590e-02   -6,116750091e-02
       74225000    3,508915007e-02   -6,174084172e-02
       74300000    3,462850675e-02   -6,084766984e-02
       74375000    3,491633385e-02   -6,184049696e-02
       74450000    3,268618882e-02   -6,149061769e-02
       74525000    3,349760920e-02   -6,040501967e-02
       74600000    3,188786656e-02   -6,061013788e-02
       74675000    3,070474230e-02   -6,028751656e-02
       74750000    3,121782467e-02   -6,119532883e-02
       74825000    3,187570721e-02   -5,945488065e-02
       74900000    2,968956158e-02   -6,058297306e-02
       74975000    2,903688326e-02   -5,954651535e-02
       75050000    3,075367399e-02   -5,915538222e-02
       75125000    2,778243087e-02   -5,867173895e-02
       75200000    2,889985219e-02   -5,923231319e-02
       75275000    2,879515104e-02   -5,904102698e-02
       75350000    2,707774751e-02   -5,828647316e-02
       75425000    2,726106904e-02   -5,922630057e-02
       75500000    2,879957296e-02   -5,799322203e-02
       75575000    2,679610252e-02   -5,820249394e-02
       75650000    2,642164007e-02   -5,577855185e-02
       75725000    2,709170058e-02   -5,774861202e-02
       75800000    2,640241943e-02   -5,575322360e-02
       75875000    2,646053582e-02   -5,611703545e-02
       75950000    2,697135508e-02   -5,518051237e-02
       76025000    2,556849644e-02   -5,447807163e-02
       76100000    2,468272299e-02   -5,405067652e-02
       76175000    2,613319457e-02   -5,356727540e-02
       76250000    2,516539581e-02   -5,316741392e-02
       76325000    2,554510534e-02   -5,196960643e-02
       76400000    2,546785586e-02   -5,253475904e-02
       76475000    2,446097322e-02   -5,055318773e-02
       76550000    2,436760068e-02   -4,899979383e-02
       76625000    2,513063699e-02   -5,013693124e-02
       76700000    2,445139550e-02   -4,759834334e-02
       76775000    2,526538074e-02   -4,658712447e-02
       76850000    2,503275871e-02   -4,756069928e-02
       76925000    2,393782698e-02   -4,563786089e-02
       77000000    2,477267385e-02   -4,281659052e-02
       77075000    2,478393540e-02   -4,388716817e-02
       77150000    2,442471124e-02   -4,262927920e-02
       77225000    2,427428775e-02   -4,116184264e-02
       77300000    2,447118424e-02   -3,861429542e-02
       77375000    2,450416610e-02   -3,924911097e-02
       77450000    2,605739608e-02   -3,532282636e-02
       77525000    2,590302937e-02   -3,365864232e-02
       77600000    2,697122470e-02   -3,394459561e-02
       77675000    2,778065950e-02   -3,029624373e-02
       77750000    2,889850736e-02   -2,974798530e-02
       77825000    2,796532959e-02   -2,954692766e-02
       77900000    2,979925089e-02   -2,587473765e-02
       77975000    3,155366704e-02   -2,461192198e-02
       78050000    3,031736240e-02   -2,427027188e-02
       78125000    3,333456442e-02   -2,024864219e-02
       78200000    3,487151116e-02   -1,899963431e-02
       78275000    3,557756543e-02   -1,861282811e-02
       78350000    3,753843904e-02   -1,563291624e-02
       78425000    3,931602091e-02   -1,387558598e-02
       78500000    4,075938836e-02   -1,255495753e-02
       78575000    4,249127209e-02   -9,644565172e-03
       78650000    4,584287107e-02   -8,367441595e-03
       78725000    4,671957716e-02   -8,160062134e-03
       78800000    4,961908609e-02   -5,131302867e-03
       78875000    5,318967998e-02   -3,385356860e-03
       78950000    5,421239510e-02   -2,559714718e-03
       79025000    5,807723850e-02   -1,396866399e-03
       79100000    5,977155268e-02   -1,576349023e-03
       79175000    6,233105436e-02    7,682971191e-04
       79250000    6,597021222e-02    8,496565861e-04
       79325000    6,845338643e-02    2,843803260e-03
       79400000    7,232714444e-02    3,503965680e-03
       79475000    7,448232174e-02    4,329442047e-03
       79550000    7,762010396e-02    4,603940062e-03
       79625000    7,957243919e-02    3,512797877e-03
       79700000    8,327827603e-02    5,369019695e-03
       79775000    8,710073680e-02    5,349873565e-03
       79850000    8,946761489e-02    5,805596244e-03
       79925000    9,263606369e-02    6,094580051e-03
       80000000    9,736806154e-02    6,465053651e-03
       80075000    9,905201197e-02    5,213702098e-03
       80150000    1,021559760e-01    5,859371740e-03
       80225000    1,054153070e-01    6,067682058e-03
       80300000    1,081384122e-01    4,665838555e-03
       80375000    1,122974902e-01    4,509626888e-03
       80450000    1,153044254e-01    3,287821310e-03
       80525000    1,181961745e-01    4,068441689e-03
       80600000    1,218397617e-01    1,875453978e-03
       80675000    1,243278906e-01    2,188293263e-03
       80750000    1,281059980e-01    3,286896972e-04
       80825000    1,304764301e-01   -1,245433697e-03
       80900000    1,343073994e-01   -1,659461879e-03
       80975000    1,373274028e-01   -3,504155204e-03
       81050000    1,396413296e-01   -5,443086848e-03
       81125000    1,436315477e-01   -6,328001618e-03
       81200000    1,454294026e-01   -7,335300557e-03
       81275000    1,486054957e-01   -1,001126971e-02
       81350000    1,510436386e-01   -1,133419666e-02
       81425000    1,542115510e-01   -1,315330341e-02
       81500000    1,562673450e-01   -1,646780781e-02
       81575000    1,580075473e-01   -1,653400064e-02
       81650000    1,611303538e-01   -1,981251687e-02
       81725000    1,630375087e-01   -2,147041634e-02
       81800000    1,637112945e-01   -2,356811240e-02
       81875000    1,664095074e-01   -2,632071264e-02
       81950000    1,666885763e-01   -2,772578783e-02
       82025000    1,690139174e-01   -2,977742068e-02
       82100000    1,702820212e-01   -3,299933672e-02
       82175000    1,717507541e-01   -3,286160901e-02
       82250000    1,719636917e-01   -3,667784855e-02
       82325000    1,749259233e-01   -3,643511236e-02
       82400000    1,757871807e-01   -3,901685029e-02
       82475000    1,765952557e-01   -4,038647190e-02
       82550000    1,778945327e-01   -4,203390330e-02
       82625000    1,783881187e-01   -4,277862608e-02
       82700000    1,802855432e-01   -4,453872144e-02
       82775000    1,799288541e-01   -4,492905736e-02
       82850000    1,821207702e-01   -4,695655778e-02
       82925000    1,824428588e-01   -4,690103605e-02
       83000000    1,849693507e-01   -4,934985191e-02
       83075000    1,844053715e-01   -4,979093745e-02
       83150000    1,870615631e-01   -5,023576319e-02
       83225000    1,874446869e-01   -5,026131868e-02
       83300000    1,892725527e-01   -5,234510079e-02
       83375000    1,896122098e-01   -5,219316110e-02
       83450000    1,921551228e-01   -5,355577916e-02
       83525000    1,924646795e-01   -5,565860122e-02
       83600000    1,949687302e-01   -5,440861359e-02
       83675000    1,966116577e-01   -5,616704747e-02
       83750000    1,970323473e-01   -5,517004803e-02
       83825000    2,001008093e-01   -5,662701651e-02
       83900000    2,003051192e-01   -5,888782442e-02
       83975000    2,034801245e-01   -5,765523762e-02
       84050000    2,046668977e-01   -6,016742811e-02
       84125000    2,068671882e-01   -5,895603821e-02
       84200000    2,087022215e-01   -6,036018580e-02
       84275000    2,102298588e-01   -6,255245209e-02
       84350000    2,127218544e-01   -6,248471141e-02
       84425000    2,139520645e-01   -6,505485624e-02
       84500000    2,170134783e-01   -6,342200935e-02
       84575000    2,202828526e-01   -6,644957513e-02
       84650000    2,199206799e-01   -6,665645540e-02
       84725000    2,236034572e-01   -6,694919616e-02
       84800000    2,244686931e-01   -6,895247102e-02
       84875000    2,275728136e-01   -6,871826947e-02
       84950000    2,301086336e-01   -7,006759197e-02
       85025000    2,320345193e-01   -7,091819495e-02
       85100000    2,345674187e-01   -7,166296989e-02
       85175000    2,365019172e-01   -7,353359461e-02
       85250000    2,389571071e-01   -7,427037507e-02
       85325000    2,409657985e-01   -7,714264840e-02
       85400000    2,444149554e-01   -7,613611966e-02
       85475000    2,484097481e-01   -7,908231020e-02
       85550000    2,482578456e-01   -8,101188391e-02
       85625000    2,519392371e-01   -8,091088384e-02
       85700000    2,547502518e-01   -8,254996687e-02
       85775000    2,578087449e-01   -8,549955487e-02
       85850000    2,591449916e-01   -8,509064466e-02
       85925000    2,630090117e-01   -8,595915139e-02
       86000000    2,669965625e-01   -8,896348625e-02
       86075000    2,697743773e-01   -8,978976309e-02
       86150000    2,727462351e-01   -9,236664325e-02
       86225000    2,755857110e-01   -9,437717497e-02
       86300000    2,784577310e-01   -9,833087772e-02
       86375000    2,801683545e-01   -1,009191498e-01
       86450000    2,837464213e-01   -1,008983403e-01
       86525000    2,874810696e-01   -1,038823947e-01
       86600000    2,886019647e-01   -1,080442518e-01
       86675000    2,929742634e-01   -1,089790910e-01
       86750000    2,947296798e-01   -1,137500256e-01
       86825000    2,964753509e-01   -1,158628166e-01
       86900000    3,001525402e-01   -1,164103299e-01
       86975000    3,040284812e-01   -1,199831665e-01
       87050000    3,072316945e-01   -1,238299087e-01
       87125000    3,093088865e-01   -1,283858567e-01
       87200000    3,111867905e-01   -1,293210387e-01
       87275000    3,138083816e-01   -1,335233152e-01
       87350000    3,149810731e-01   -1,384367794e-01
       87425000    3,183366954e-01   -1,396247447e-01
       87500000    3,192973733e-01   -1,457954347e-01
       87575000    3,227265179e-01   -1,460294425e-01
       87650000    3,237915039e-01   -1,514859647e-01
       87725000    3,265293837e-01   -1,519884765e-01
       87800000    3,296533525e-01   -1,571951956e-01
       87875000    3,298466802e-01   -1,603624225e-01
       87950000    3,331369460e-01   -1,632715762e-01
       88025000    3,344406188e-01   -1,684624255e-01
       88100000    3,360051215e-01   -1,731301099e-01
       88175000    3,379066885e-01   -1,739768982e-01
       88250000    3,416971266e-01   -1,789876819e-01
       88325000    3,402264118e-01   -1,848237216e-01
       88400000    3,447631001e-01   -1,860404611e-01
       88475000    3,434958458e-01   -1,919995397e-01
       88550000    3,476517498e-01   -1,938965619e-01
       88625000    3,500164747e-01   -1,984690428e-01
       88700000    3,491950631e-01   -2,045719475e-01
       88775000    3,504064083e-01   -2,053598464e-01
       88850000    3,538850844e-01   -2,094297856e-01
       88925000    3,563455939e-01   -2,130256295e-01
       89000000    3,566031456e-01   -2,156719118e-01
       89075000    3,597102165e-01   -2,217091471e-01
       89150000    3,573504388e-01   -2,251203656e-01
       89225000    3,611683547e-01   -2,298911512e-01
       89300000    3,604111075e-01   -2,341851294e-01
       89375000    3,643959761e-01   -2,381350100e-01
       89450000    3,635001183e-01   -2,432500273e-01
       89525000    3,676217198e-01   -2,458567023e-01
       89600000    3,689593971e-01   -2,527530789e-01
       89675000    3,682375848e-01   -2,581387460e-01
       89750000    3,703296185e-01   -2,603383064e-01
       89825000    3,714861572e-01   -2,659510672e-01
       89900000    3,693716526e-01   -2,704274058e-01
       89975000    3,730607629e-01   -2,741289437e-01
       90050000    3,715640306e-01   -2,807979286e-01
       90125000    3,758455813e-01   -2,841847241e-01
       90200000    3,775079548e-01   -2,901401520e-01
       90275000    3,737771809e-01   -2,950961888e-01
       90350000    3,758949935e-01   -2,992133498e-01
       90425000    3,781094551e-01   -3,062014580e-01
       90500000    3,789702058e-01   -3,087123036e-01
       90575000    3,784241974e-01   -3,150242567e-01
       90650000    3,761347234e-01   -3,219658732e-01
       90725000    3,772662878e-01   -3,226020932e-01
       90800000    3,778603375e-01   -3,299520314e-01
       90875000    3,759883046e-01   -3,334200978e-01
       90950000    3,782294393e-01   -3,398729861e-01
       91025000    3,736746013e-01   -3,450251520e-01
       91100000    3,761068583e-01   -3,519467115e-01
       91175000    3,748706877e-01   -3,585559428e-01
       91250000    3,756280839e-01   -3,623047173e-01
       91325000    3,712320030e-01   -3,696492016e-01
       91400000    3,742530942e-01   -3,728908300e-01
       91475000    3,731886148e-01   -3,816984892e-01
       91550000    3,730422258e-01   -3,837160766e-01
       91625000    3,718069196e-01   -3,918630779e-01
       91700000    3,687004447e-01   -3,927393556e-01
       91775000    3,675845265e-01   -4,011472464e-01
       91850000    3,647694290e-01   -4,026402831e-01
       91925000    3,646851182e-01   -4,096822739e-01
