! NanoVNA-App
! Date: 2025-08-09 13:24:07
! Start: 65MHz Stop: 95MHz Points: 401
! S-Parameter data: F S11
# Hz S RI R 50
!     Frequency           S11_Real           S11_Imag
       65000000    4,208008945e-01    2,369516641e-01
       65075000    4,245725274e-01    2,364181727e-01
       65150000    4,243690670e-01    2,320761383e-01
       65225000    4,248241186e-01    2,264840752e-01
       65300000    4,250202179e-01    2,224780768e-01
       65375000    4,264045656e-01    2,185081095e-01
       65450000    4,260753691e-01    2,136355042e-01
       65525000    4,271410406e-01    2,092246115e-01
       65600000    4,280319810e-01    2,050522715e-01
       65675000    4,274176657e-01    2,003948539e-01
       65750000    4,284284413e-01    1,968518645e-01
       65825000    4,279736578e-01    1,908928156e-01
       65900000    4,284193516e-01    1,879368573e-01
       65975000    4,292899668e-01    1,829570234e-01
       66050000    4,294226766e-01    1,789717078e-01
       66125000    4,300330579e-01    1,758368164e-01
       66200000    4,300423563e-01    1,703537852e-01
       66275000    4,301742017e-01    1,667234898e-01
       66350000    4,307751954e-01    1,629370898e-01
       66425000    4,310219884e-01    1,585651040e-01
       66500000    4,306942523e-01    1,545533985e-01
       66575000    4,312924147e-01    1,507041454e-01
       66650000    4,318252504e-01    1,467968971e-01
       66725000    4,319558740e-01    1,439637542e-01
       66800000    4,326153100e-01    1,399809867e-01
       66875000    4,333769381e-01    1,370550245e-01
       66950000    4,334420860e-01    1,330097914e-01
       67025000    4,344508946e-01    1,294195205e-01
       67100000    4,346288741e-01    1,256630570e-01
       67175000    4,357797205e-01    1,219500601e-01
       67250000    4,365083277e-01    1,185135767e-01
       67325000    4,373050928e-01    1,140221208e-01
       67400000    4,379008412e-01    1,108165979e-01
       67475000    4,376167953e-01    1,065062135e-01
       67550000    4,386993945e-01    1,035230011e-01
       67625000    4,393104017e-01    9,859357029e-02
       67700000    4,393112659e-01    9,486625344e-02
       67775000    4,398802221e-01    9,160875529e-02
       67850000    4,401799738e-01    8,731690794e-02
       67925000    4,408644736e-01    8,408759534e-02
       68000000    4,413541555e-01    7,962430269e-02
       68075000    4,419298172e-01    7,627400756e-02
       68150000    4,431294799e-01    7,180967182e-02
       68225000    4,421986043e-01    6,709066033e-02
       68300000    4,429191351e-01    6,402333081e-02
       68375000    4,425880611e-01    5,787678435e-02
       68450000    4,429496825e-01    5,512341857e-02
       68525000    4,428339303e-01    5,008783937e-02
       68600000    4,427985549e-01    4,726433381e-02
       68675000    4,434266686e-01    4,295257851e-02
       68750000    4,417468011e-01    3,854204342e-02
       68825000    4,424172938e-01    3,404107690e-02
       68900000    4,408754408e-01    3,006630205e-02
       68975000    4,406085014e-01    2,673462406e-02
       69050000    4,394751787e-01    2,092276700e-02
       69125000    4,388891160e-01    1,738503017e-02
       69200000    4,376986623e-01    1,311975718e-02
       69275000    4,369687736e-01    9,240703657e-03
       69350000    4,361982048e-01    5,569628440e-03
       69425000    4,350939393e-01    2,617791295e-03
       69500000    4,331779480e-01   -2,893987345e-03
       69575000    4,327405393e-01   -5,348125007e-03
       69650000    4,307497442e-01   -9,220158681e-03
       69725000    4,294976890e-01   -1,172098890e-02
       69800000    4,279230535e-01   -1,617025770e-02
       69875000    4,266563654e-01   -1,782720909e-02
       69950000    4,247206748e-01   -2,133111283e-02
       70025000    4,245817363e-01   -2,539685182e-02
       70100000    4,218372405e-01   -2,761409432e-02
       70175000    4,196462035e-01   -3,049815260e-02
       70250000    4,190560281e-01   -3,412596136e-02
       70325000    4,168902040e-01   -3,536208346e-02
       70400000    4,155862033e-01   -3,835247084e-02
       70475000    4,131689966e-01   -4,068293795e-02
       70550000    4,115876853e-01   -4,258223623e-02
       70625000    4,103071988e-01   -4,623573646e-02
       70700000    4,077957571e-01   -4,706594720e-02
       70775000    4,074681699e-01   -4,888099059e-02
       70850000    4,055477381e-01   -5,140739307e-02
       70925000    4,040476680e-01   -5,286497623e-02
       71000000    4,032602310e-01   -5,414494872e-02
       71075000    4,004071057e-01   -5,621239543e-02
       71150000    4,005334973e-01   -5,783396587e-02
       71225000    3,993560076e-01   -5,971558020e-02
       71300000    3,981012106e-01   -6,272772700e-02
       71375000    3,965385258e-01   -6,274310499e-02
       71450000    3,958529234e-01   -6,384120136e-02
       71525000    3,951893151e-01   -6,606702507e-02
       71600000    3,933397532e-01   -6,900929660e-02
       71675000    3,927353323e-01   -6,910086423e-02
       71750000    3,923079669e-01   -7,046563178e-02
       71825000    3,906406760e-01   -7,258892804e-02
       71900000    3,901114464e-01   -7,365838438e-02
       71975000    3,895265758e-01   -7,586336136e-02
       72050000    3,872932792e-01   -7,770049572e-02
       72125000    3,869261146e-01   -7,863909006e-02
       72200000    3,865598738e-01   -8,097369224e-02
       72275000    3,849050403e-01   -8,087447286e-02
       72350000    3,844226897e-01   -8,236841857e-02
       72425000    3,827345371e-01   -8,403169364e-02
       72500000    3,824047148e-01   -8,536560088e-02
       72575000    3,803928196e-01   -8,662366867e-02
       72650000    3,807793260e-01   -8,789221197e-02
       72725000    3,809354007e-01   -8,877456188e-02
       72800000    3,790819347e-01   -8,983826637e-02
       72875000    3,786516190e-01   -9,152388573e-02
       72950000    3,767501116e-01   -9,297981113e-02
       73025000    3,758930564e-01   -9,377280623e-02
       73100000    3,765566945e-01   -9,532896429e-02
       73175000    3,761686981e-01   -9,548120946e-02
       73250000    3,751185536e-01   -9,905265272e-02
       73325000    3,732557595e-01   -1,001115441e-01
       73400000    3,741496801e-01   -1,000509709e-01
       73475000    3,726487756e-01   -1,017957181e-01
       73550000    3,729409575e-01   -1,014975533e-01
       73625000    3,734147549e-01   -1,038120091e-01
       73700000    3,727239370e-01   -1,031112373e-01
       73775000    3,713071346e-01   -1,043999866e-01
       73850000    3,707993031e-01   -1,056471542e-01
       73925000    3,711344898e-01   -1,071184427e-01
       74000000    3,695445955e-01   -1,091940627e-01
       74075000    3,703090549e-01   -1,097860336e-01
       74150000    3,704187274e-01   -1,103023291e-01
       74225000    3,701504171e-01   -1,108431220e-01
       74300000    3,693913519e-01   -1,121686772e-01
       74375000    3,694252372e-01   -1,130976528e-01
       74450000    3,693802357e-01   -1,156124324e-01
       74525000    3,688107133e-01   -1,162608340e-01
       74600000    3,691890538e-01   -1,183655336e-01
       74675000    3,671489358e-01   -1,182075217e-01
       74750000    3,678301871e-01   -1,194592267e-01
       74825000    3,664493859e-01   -1,221817434e-01
       74900000    3,670376539e-01   -1,218690649e-01
       74975000    3,672306836e-01   -1,239561439e-01
       75050000    3,671170771e-01   -1,239489615e-01
       75125000    3,666148484e-01   -1,256809533e-01
       75200000    3,658269346e-01   -1,261282861e-01
       75275000    3,662596941e-01   -1,278557032e-01
       75350000    3,652695417e-01   -1,280044615e-01
       75425000    3,644252717e-01   -1,292659044e-01
       75500000    3,622363210e-01   -1,316196322e-01
       75575000    3,640604913e-01   -1,319518089e-01
       75650000    3,622205853e-01   -1,340648532e-01
       75725000    3,625855744e-01   -1,339994967e-01
       75800000    3,620156348e-01   -1,369901150e-01
       75875000    3,622119129e-01   -1,362407953e-01
       75950000    3,614763319e-01   -1,384429932e-01
       76025000    3,600268066e-01   -1,381520033e-01
       76100000    3,617780507e-01   -1,388917863e-01
       76175000    3,599250913e-01   -1,414328516e-01
       76250000    3,601405025e-01   -1,414583474e-01
       76325000    3,603617847e-01   -1,445524395e-01
       76400000    3,598066568e-01   -1,437468380e-01
       76475000    3,598411083e-01   -1,432389766e-01
       76550000    3,615455031e-01   -1,456687748e-01
       76625000    3,586877584e-01   -1,446872056e-01
       76700000    3,591924012e-01   -1,469091177e-01
       76775000    3,580308557e-01   -1,497083157e-01
       76850000    3,582378030e-01   -1,475435793e-01
       76925000    3,568369150e-01   -1,486152709e-01
       77000000    3,556959331e-01   -1,513898671e-01
       77075000    3,551965952e-01   -1,501050591e-01
       77150000    3,559683263e-01   -1,498779655e-01
       77225000    3,562120199e-01   -1,519812346e-01
       77300000    3,563019633e-01   -1,519190520e-01
       77375000    3,547511697e-01   -1,518412828e-01
       77450000    3,544918597e-01   -1,528518796e-01
       77525000    3,538334072e-01   -1,527929008e-01
       77600000    3,514260352e-01   -1,519594789e-01
       77675000    3,530071974e-01   -1,535590589e-01
       77750000    3,520647287e-01   -1,559961587e-01
       77825000    3,511809111e-01   -1,530279964e-01
       77900000    3,516041040e-01   -1,545331776e-01
       77975000    3,509634733e-01   -1,554004699e-01
       78050000    3,507535756e-01   -1,525451839e-01
       78125000    3,510233164e-01   -1,528747082e-01
       78200000    3,510195017e-01   -1,526480913e-01
       78275000    3,511950374e-01   -1,510984153e-01
       78350000    3,538540006e-01   -1,497644633e-01
       78425000    3,545651734e-01   -1,495170444e-01
       78500000    3,562152684e-01   -1,504850537e-01
       78575000    3,581144810e-01   -1,489957124e-01
       78650000    3,608433306e-01   -1,500203460e-01
       78725000    3,604435027e-01   -1,525411308e-01
       78800000    3,630503714e-01   -1,506002545e-01
       78875000    3,637930453e-01   -1,523919255e-01
       78950000    3,632393777e-01   -1,517779529e-01
       79025000    3,649125993e-01   -1,525015831e-01
       79100000    3,642176986e-01   -1,533283591e-01
       79175000    3,669456244e-01   -1,541219950e-01
       79250000    3,681244850e-01   -1,566471010e-01
       79325000    3,689233959e-01   -1,543030292e-01
       79400000    3,712772131e-01   -1,559021920e-01
       79475000    3,701102436e-01   -1,567849219e-01
       79550000    3,724213243e-01   -1,570436954e-01
       79625000    3,746175766e-01   -1,593493074e-01
       79700000    3,749930561e-01   -1,572667211e-01
       79775000    3,761328459e-01   -1,585455090e-01
       79850000    3,771162927e-01   -1,615525931e-01
       79925000    3,782836795e-01   -1,595469415e-01
       80000000    3,790449202e-01   -1,607757062e-01
       80075000    3,830384314e-01   -1,636618376e-01
       80150000    3,835437298e-01   -1,605889350e-01
       80225000    3,855244219e-01   -1,632173210e-01
       80300000    3,873034716e-01   -1,658380926e-01
       80375000    3,890980184e-01   -1,651520282e-01
       80450000    3,911968470e-01   -1,652552783e-01
       80525000    3,920831084e-01   -1,658516973e-01
       80600000    3,964368701e-01   -1,667009592e-01
       80675000    3,960014284e-01   -1,692253202e-01
       80750000    3,986822963e-01   -1,712777615e-01
       80825000    4,013320208e-01   -1,723552644e-01
       80900000    4,028956294e-01   -1,722497791e-01
       80975000    4,045285285e-01   -1,751915812e-01
       81050000    4,080481529e-01   -1,771745682e-01
       81125000    4,088152945e-01   -1,774047017e-01
       81200000    4,115932584e-01   -1,797123551e-01
       81275000    4,132435620e-01   -1,804440469e-01
       81350000    4,157079756e-01   -1,830583364e-01
       81425000    4,151203632e-01   -1,873051077e-01
       81500000    4,185999334e-01   -1,879799813e-01
       81575000    4,198218286e-01   -1,914431751e-01
       81650000    4,216109812e-01   -1,907562613e-01
       81725000    4,246350229e-01   -1,930241436e-01
       81800000    4,266234040e-01   -1,962181330e-01
       81875000    4,261923134e-01   -1,979099959e-01
       81950000    4,293992221e-01   -2,003811896e-01
       82025000    4,295351505e-01   -2,037623376e-01
       82100000    4,332236350e-01   -2,059351802e-01
       82175000    4,338377714e-01   -2,103983313e-01
       82250000    4,370916188e-01   -2,111118138e-01
       82325000    4,400696754e-01   -2,152311653e-01
       82400000    4,407444894e-01   -2,161516696e-01
       82475000    4,427383840e-01   -2,188654542e-01
       82550000    4,431086481e-01   -2,210984677e-01
       82625000    4,449075758e-01   -2,240872532e-01
       82700000    4,453662336e-01   -2,275168002e-01
       82775000    4,487493336e-01   -2,302733511e-01
       82850000    4,490938187e-01   -2,329869121e-01
       82925000    4,515548050e-01   -2,371878922e-01
       83000000    4,514234960e-01   -2,409527600e-01
       83075000    4,541348219e-01   -2,435463220e-01
       83150000    4,532704353e-01   -2,476905137e-01
       83225000    4,567714036e-01   -2,510374188e-01
       83300000    4,560324848e-01   -2,555343807e-01
       83375000    4,597446322e-01   -2,584128082e-01
       83450000    4,623795152e-01   -2,606313527e-01
       83525000    4,617088139e-01   -2,634655833e-01
       83600000    4,644536972e-01   -2,692327499e-01
       83675000    4,631692767e-01   -2,751789987e-01
       83750000    4,651234448e-01   -2,770782113e-01
       83825000    4,663864076e-01   -2,802219987e-01
       83900000    4,668505490e-01   -2,838615775e-01
       83975000    4,665472806e-01   -2,868922651e-01
       84050000    4,639051557e-01   -2,925058603e-01
       84125000    4,670648873e-01   -2,962892354e-01
       84200000    4,692870378e-01   -3,004508018e-01
       84275000    4,663410485e-01   -3,026495576e-01
       84350000    4,685969055e-01   -3,067560196e-01
       84425000    4,660510719e-01   -3,118129969e-01
       84500000    4,677480161e-01   -3,153418899e-01
       84575000    4,701494277e-01   -3,212594092e-01
       84650000    4,687229991e-01   -3,214259744e-01
       84725000    4,687363207e-01   -3,281548321e-01
       84800000    4,668397307e-01   -3,332585394e-01
       84875000    4,670718312e-01   -3,365176618e-01
       84950000    4,692509770e-01   -3,403250277e-01
       85025000    4,675787389e-01   -3,473469019e-01
       85100000    4,665406942e-01   -3,468325734e-01
       85175000    4,662295282e-01   -3,523229063e-01
       85250000    4,630997181e-01   -3,566525280e-01
       85325000    4,660993218e-01   -3,620411456e-01
       85400000    4,645515680e-01   -3,681693077e-01
       85475000    4,636427760e-01   -3,689386249e-01
       85550000    4,617440701e-01   -3,739214838e-01
       85625000    4,596887231e-01   -3,762551248e-01
       85700000    4,558777809e-01   -3,827918768e-01
       85775000    4,587268233e-01   -3,847937286e-01
       85850000    4,550601542e-01   -3,893691003e-01
       85925000    4,551632702e-01   -3,920580745e-01
       86000000    4,523184597e-01   -3,950247467e-01
       86075000    4,511180222e-01   -3,986239135e-01
       86150000    4,476806223e-01   -4,074881971e-01
       86225000    4,445086420e-01   -4,091227353e-01
       86300000    4,470274150e-01   -4,104926586e-01
       86375000    4,450889528e-01   -4,149740338e-01
       86450000    4,431729317e-01   -4,206111729e-01
       86525000    4,359225333e-01   -4,235154688e-01
       86600000    4,380318224e-01   -4,245023429e-01
       86675000    4,360660017e-01   -4,283421934e-01
       86750000    4,329432249e-01   -4,299314618e-01
       86825000    4,321828187e-01   -4,341062009e-01
       86900000    4,265713990e-01   -4,385867715e-01
       86975000    4,254516065e-01   -4,402164221e-01
       87050000    4,249626398e-01   -4,446467459e-01
       87125000    4,182175696e-01   -4,456820190e-01
       87200000    4,184518456e-01   -4,487712383e-01
       87275000    4,165580571e-01   -4,543842971e-01
       87350000    4,101518393e-01   -4,527632296e-01
       87425000    4,107981622e-01   -4,563238919e-01
       87500000    4,071415365e-01   -4,588867426e-01
       87575000    4,049396813e-01   -4,612964690e-01
       87650000    4,008621871e-01   -4,644409120e-01
       87725000    4,036887884e-01   -4,660475254e-01
       87800000    4,017750025e-01   -4,691059291e-01
       87875000    3,969684541e-01   -4,675454497e-01
       87950000    3,938072324e-01   -4,728149474e-01
       88025000    3,914650977e-01   -4,730071127e-01
       88100000    3,864035308e-01   -4,778419435e-01
       88175000    3,898150027e-01   -4,788283706e-01
       88250000    3,866127133e-01   -4,812698364e-01
       88325000    3,805440366e-01   -4,847601354e-01
       88400000    3,798793256e-01   -4,852901399e-01
       88475000    3,759383559e-01   -4,887301028e-01
       88550000    3,763960302e-01   -4,886723757e-01
       88625000    3,719735444e-01   -4,888949096e-01
       88700000    3,705802858e-01   -4,930772483e-01
       88775000    3,645339906e-01   -4,942577183e-01
       88850000    3,661670089e-01   -4,933373034e-01
       88925000    3,623360097e-01   -4,953827858e-01
       89000000    3,561089933e-01   -4,966804385e-01
       89075000    3,554311693e-01   -4,992053509e-01
       89150000    3,501169086e-01   -5,018235445e-01
       89225000    3,513853252e-01   -5,012922883e-01
       89300000    3,481709361e-01   -5,036770701e-01
       89375000    3,457687795e-01   -5,012227893e-01
       89450000    3,429409564e-01   -5,047441125e-01
       89525000    3,369060159e-01   -5,031805634e-01
       89600000    3,364746869e-01   -5,024668574e-01
       89675000    3,356069028e-01   -5,023192167e-01
       89750000    3,300290704e-01   -5,010790825e-01
       89825000    3,311127424e-01   -5,005627871e-01
       89900000    3,298432529e-01   -5,014303923e-01
       89975000    3,265196085e-01   -4,992713630e-01
       90050000    3,255977929e-01   -4,995943010e-01
       90125000    3,199336827e-01   -5,008808970e-01
       90200000    3,217696548e-01   -5,003452301e-01
       90275000    3,216553926e-01   -4,974274337e-01
       90350000    3,191681802e-01   -4,965796173e-01
       90425000    3,201426566e-01   -4,989064932e-01
       90500000    3,176778853e-01   -4,989849329e-01
       90575000    3,200389445e-01   -4,946505725e-01
       90650000    3,178384006e-01   -4,956161082e-01
       90725000    3,203512728e-01   -4,955325723e-01
       90800000    3,210767806e-01   -4,939624071e-01
       90875000    3,213430047e-01   -4,941762090e-01
       90950000    3,190362453e-01   -4,930649102e-01
       91025000    3,212224841e-01   -4,943847954e-01
       91100000    3,213451505e-01   -4,942818582e-01
       91175000    3,237703443e-01   -4,968171120e-01
       91250000    3,223359883e-01   -4,983635843e-01
       91325000    3,259789646e-01   -4,989068210e-01
       91400000    3,273131549e-01   -5,015608668e-01
       91475000    3,300288916e-01   -4,997640252e-01
       91550000    3,315399289e-01   -5,023593903e-01
       91625000    3,314658999e-01   -5,018391609e-01
       91700000    3,334780633e-01   -5,060424805e-01
       91775000    3,321053386e-01   -5,060139298e-01
       91850000    3,344061375e-01   -5,090844631e-01
       91925000    3,326624632e-01   -5,130326748e-01
