! NanoVNA-App
! Date: 2025-08-09 12:59:54
! Start: 65MHz Stop: 95MHz Points: 401
! S-Parameter data: F S11
# Hz S RI R 50
!     Frequency           S11_Real           S11_Imag
       65000000    4,332489073e-01    8,042705804e-02
       65075000    4,338206649e-01    7,764632255e-02
       65150000    4,329955876e-01    7,307138294e-02
       65225000    4,319456518e-01    6,901211292e-02
       65300000    4,318907857e-01    6,568323821e-02
       65375000    4,311169386e-01    6,093806028e-02
       65450000    4,301934242e-01    5,826146528e-02
       65525000    4,293342829e-01    5,396974087e-02
       65600000    4,295752347e-01    5,033212900e-02
       65675000    4,284299016e-01    4,647551477e-02
       65750000    4,279498458e-01    4,242160916e-02
       65825000    4,269050062e-01    3,925656155e-02
       65900000    4,265695214e-01    3,498201817e-02
       65975000    4,257992506e-01    3,128743917e-02
       66050000    4,257121384e-01    2,796139382e-02
       66125000    4,255777299e-01    2,458064817e-02
       66200000    4,248666465e-01    2,091347799e-02
       66275000    4,244243801e-01    1,761567965e-02
       66350000    4,234215021e-01    1,397316158e-02
       66425000    4,238463938e-01    9,706347249e-03
       66500000    4,233739674e-01    5,847326014e-03
       66575000    4,220387340e-01    2,916651545e-03
       66650000    4,220302403e-01   -6,554223364e-04
       66725000    4,211951196e-01   -2,928683301e-03
       66800000    4,206881225e-01   -6,079509854e-03
       66875000    4,202013612e-01   -9,904630482e-03
       66950000    4,198687077e-01   -1,250400674e-02
       67025000    4,201013148e-01   -1,617857069e-02
       67100000    4,203635752e-01   -1,951722614e-02
       67175000    4,199009836e-01   -2,326648869e-02
       67250000    4,206103981e-01   -2,575737052e-02
       67325000    4,203442633e-01   -3,046858311e-02
       67400000    4,196655154e-01   -3,408060968e-02
       67475000    4,192834795e-01   -3,626181930e-02
       67550000    4,189305902e-01   -4,074860737e-02
       67625000    4,191862643e-01   -4,465669394e-02
       67700000    4,189296365e-01   -4,729641974e-02
       67775000    4,182988405e-01   -5,099410564e-02
       67850000    4,177636802e-01   -5,442773551e-02
       67925000    4,176623523e-01   -5,868906155e-02
       68000000    4,166762233e-01   -6,305757165e-02
       68075000    4,171318114e-01   -6,562654674e-02
       68150000    4,168337584e-01   -6,945619732e-02
       68225000    4,140115678e-01   -7,348598540e-02
       68300000    4,147770703e-01   -7,727762312e-02
       68375000    4,131617248e-01   -8,089885861e-02
       68450000    4,128857553e-01   -8,469205350e-02
       68525000    4,125598073e-01   -8,942268044e-02
       68600000    4,107739329e-01   -9,214214981e-02
       68675000    4,100202918e-01   -9,524182230e-02
       68750000    4,091973901e-01   -9,923124313e-02
       68825000    4,067779779e-01   -1,028052047e-01
       68900000    4,053243697e-01   -1,059232801e-01
       68975000    4,048354924e-01   -1,103386581e-01
       69050000    4,025386572e-01   -1,132728830e-01
       69125000    4,013601840e-01   -1,168077812e-01
       69200000    3,995102942e-01   -1,209109575e-01
       69275000    3,985419571e-01   -1,241803542e-01
       69350000    3,963195086e-01   -1,276798397e-01
       69425000    3,944575191e-01   -1,307197958e-01
       69500000    3,918104172e-01   -1,348184496e-01
       69575000    3,905253410e-01   -1,375905126e-01
       69650000    3,878526390e-01   -1,398706138e-01
       69725000    3,861070573e-01   -1,433391571e-01
       69800000    3,842411637e-01   -1,464969367e-01
       69875000    3,823587000e-01   -1,473121494e-01
       69950000    3,794268072e-01   -1,499137282e-01
       70025000    3,779203892e-01   -1,530243009e-01
       70100000    3,746664524e-01   -1,541931331e-01
       70175000    3,730114400e-01   -1,572503895e-01
       70250000    3,710887134e-01   -1,596874148e-01
       70325000    3,695134819e-01   -1,606929302e-01
       70400000    3,665532768e-01   -1,634028852e-01
       70475000    3,642908037e-01   -1,641128212e-01
       70550000    3,625080585e-01   -1,667090952e-01
       70625000    3,602997065e-01   -1,690184623e-01
       70700000    3,580557406e-01   -1,688889861e-01
       70775000    3,568392396e-01   -1,704849452e-01
       70850000    3,535842896e-01   -1,707760543e-01
       70925000    3,532243073e-01   -1,735854596e-01
       71000000    3,516247272e-01   -1,742183715e-01
       71075000    3,487258255e-01   -1,748155802e-01
       71150000    3,471956253e-01   -1,773619801e-01
       71225000    3,453561366e-01   -1,781320125e-01
       71300000    3,425539136e-01   -1,795886606e-01
       71375000    3,428925276e-01   -1,810083389e-01
       71450000    3,410292864e-01   -1,809055209e-01
       71525000    3,398858607e-01   -1,821544915e-01
       71600000    3,367625177e-01   -1,842228025e-01
       71675000    3,367910981e-01   -1,834495217e-01
       71750000    3,356822133e-01   -1,853162795e-01
       71825000    3,339768052e-01   -1,852609068e-01
       71900000    3,327083588e-01   -1,870118976e-01
       71975000    3,317075968e-01   -1,883546561e-01
       72050000    3,286521137e-01   -1,899203956e-01
       72125000    3,287133873e-01   -1,902284920e-01
       72200000    3,275299370e-01   -1,921325624e-01
       72275000    3,264377415e-01   -1,909126490e-01
       72350000    3,257414699e-01   -1,928624660e-01
       72425000    3,234867752e-01   -1,927778721e-01
       72500000    3,235277534e-01   -1,946208775e-01
       72575000    3,211907744e-01   -1,939990073e-01
       72650000    3,209929168e-01   -1,962344497e-01
       72725000    3,200575709e-01   -1,958444715e-01
       72800000    3,191279471e-01   -1,949269474e-01
       72875000    3,176856339e-01   -1,976415515e-01
       72950000    3,153393269e-01   -1,981373876e-01
       73025000    3,153985143e-01   -1,984827518e-01
       73100000    3,149298131e-01   -2,000504136e-01
       73175000    3,129256666e-01   -1,998275518e-01
       73250000    3,121089041e-01   -2,017781883e-01
       73325000    3,113351166e-01   -2,011063993e-01
       73400000    3,106666803e-01   -2,023119032e-01
       73475000    3,095715940e-01   -2,030638605e-01
       73550000    3,102300167e-01   -2,032360733e-01
       73625000    3,084840775e-01   -2,054537088e-01
       73700000    3,093985021e-01   -2,047123909e-01
       73775000    3,081441820e-01   -2,056882381e-01
       73850000    3,073077500e-01   -2,055271268e-01
       73925000    3,065713346e-01   -2,074837834e-01
       74000000    3,052411377e-01   -2,079692185e-01
       74075000    3,059970737e-01   -2,084886879e-01
       74150000    3,048438728e-01   -2,087992132e-01
       74225000    3,051581383e-01   -2,094411403e-01
       74300000    3,042038083e-01   -2,095700800e-01
       74375000    3,030558228e-01   -2,107055038e-01
       74450000    3,022688329e-01   -2,123768181e-01
       74525000    3,028345406e-01   -2,130689025e-01
       74600000    3,014481366e-01   -2,140362114e-01
       74675000    3,014065921e-01   -2,134695649e-01
       74750000    3,010579944e-01   -2,141881585e-01
       74825000    2,989705503e-01   -2,157367617e-01
       74900000    2,991419733e-01   -2,163117081e-01
       74975000    2,990395129e-01   -2,180905640e-01
       75050000    2,987983823e-01   -2,172031105e-01
       75125000    2,986061573e-01   -2,190562040e-01
       75200000    2,983957827e-01   -2,188837677e-01
       75275000    2,972165942e-01   -2,196417749e-01
       75350000    2,963013947e-01   -2,198812515e-01
       75425000    2,955451012e-01   -2,213252783e-01
       75500000    2,946550548e-01   -2,214004546e-01
       75575000    2,941916585e-01   -2,223860621e-01
       75650000    2,927995622e-01   -2,228494436e-01
       75725000    2,938536406e-01   -2,237184644e-01
       75800000    2,918879390e-01   -2,248774171e-01
       75875000    2,926107943e-01   -2,253091782e-01
       75950000    2,915180922e-01   -2,268523723e-01
       76025000    2,909941971e-01   -2,255112827e-01
       76100000    2,904640734e-01   -2,264575660e-01
       76175000    2,895533442e-01   -2,276455760e-01
       76250000    2,895611227e-01   -2,280527502e-01
       76325000    2,880789936e-01   -2,290877253e-01
       76400000    2,884417176e-01   -2,300019860e-01
       76475000    2,880247831e-01   -2,286129743e-01
       76550000    2,880444825e-01   -2,302641571e-01
       76625000    2,881378829e-01   -2,310875952e-01
       76700000    2,865837812e-01   -2,314927429e-01
       76775000    2,850801647e-01   -2,320405096e-01
       76850000    2,856994867e-01   -2,312235534e-01
       76925000    2,842499316e-01   -2,317090183e-01
       77000000    2,824535072e-01   -2,313692123e-01
       77075000    2,828229368e-01   -2,318971008e-01
       77150000    2,834393382e-01   -2,321270555e-01
       77225000    2,825159431e-01   -2,331427485e-01
       77300000    2,816269696e-01   -2,338211387e-01
       77375000    2,819953263e-01   -2,323767692e-01
       77450000    2,804195881e-01   -2,327639014e-01
       77525000    2,787678838e-01   -2,331335694e-01
       77600000    2,786436081e-01   -2,320715338e-01
       77675000    2,783503830e-01   -2,322537601e-01
       77750000    2,761718333e-01   -2,324534506e-01
       77825000    2,771978676e-01   -2,305416614e-01
       77900000    2,754238546e-01   -2,313264757e-01
       77975000    2,752799094e-01   -2,309621871e-01
       78050000    2,759761512e-01   -2,284118533e-01
       78125000    2,760225236e-01   -2,280667275e-01
       78200000    2,753791213e-01   -2,274696231e-01
       78275000    2,759927511e-01   -2,244773805e-01
       78350000    2,783479691e-01   -2,233735174e-01
       78425000    2,797817588e-01   -2,224337012e-01
       78500000    2,810680270e-01   -2,230319232e-01
       78575000    2,841419876e-01   -2,218720168e-01
       78650000    2,850627899e-01   -2,229702026e-01
       78725000    2,849183977e-01   -2,236484140e-01
       78800000    2,878666818e-01   -2,232955098e-01
       78875000    2,888014019e-01   -2,243670225e-01
       78950000    2,879813612e-01   -2,236396372e-01
       79025000    2,894626260e-01   -2,234509289e-01
       79100000    2,903515697e-01   -2,232332230e-01
       79175000    2,916993201e-01   -2,246252745e-01
       79250000    2,922448516e-01   -2,247782648e-01
       79325000    2,941714525e-01   -2,231062204e-01
       79400000    2,948433161e-01   -2,245324701e-01
       79475000    2,953766882e-01   -2,243226171e-01
       79550000    2,977794409e-01   -2,246717066e-01
       79625000    2,987872660e-01   -2,258835435e-01
       79700000    3,008044362e-01   -2,240688950e-01
       79775000    3,015514910e-01   -2,251032889e-01
       79850000    3,027108312e-01   -2,264678478e-01
       79925000    3,044958711e-01   -2,253558487e-01
       80000000    3,068138957e-01   -2,258957922e-01
       80075000    3,084632456e-01   -2,274182886e-01
       80150000    3,100883961e-01   -2,262396216e-01
       80225000    3,116011918e-01   -2,280831784e-01
       80300000    3,130485117e-01   -2,287336737e-01
       80375000    3,161026537e-01   -2,289488465e-01
       80450000    3,166601956e-01   -2,289256006e-01
       80525000    3,189666569e-01   -2,294838876e-01
       80600000    3,216570318e-01   -2,314628363e-01
       80675000    3,220473528e-01   -2,316835821e-01
       80750000    3,254086375e-01   -2,338683158e-01
       80825000    3,281518221e-01   -2,351591438e-01
       80900000    3,284454346e-01   -2,348498702e-01
       80975000    3,319023848e-01   -2,375714928e-01
       81050000    3,334664106e-01   -2,388954908e-01
       81125000    3,354895711e-01   -2,391587794e-01
       81200000    3,377340436e-01   -2,421423495e-01
       81275000    3,397061229e-01   -2,422080487e-01
       81350000    3,408103883e-01   -2,444947958e-01
       81425000    3,428177536e-01   -2,469688207e-01
       81500000    3,450767696e-01   -2,488280833e-01
       81575000    3,470431864e-01   -2,512513995e-01
       81650000    3,490861356e-01   -2,516231835e-01
       81725000    3,506729603e-01   -2,538141608e-01
       81800000    3,533870876e-01   -2,563714981e-01
       81875000    3,544420600e-01   -2,574993074e-01
       81950000    3,560687900e-01   -2,608127594e-01
       82025000    3,574990630e-01   -2,626141310e-01
       82100000    3,601740301e-01   -2,653672993e-01
       82175000    3,612050414e-01   -2,693515420e-01
       82250000    3,642665148e-01   -2,703314126e-01
       82325000    3,659495711e-01   -2,727463543e-01
       82400000    3,677607179e-01   -2,749174833e-01
       82475000    3,695854545e-01   -2,778139412e-01
       82550000    3,703956902e-01   -2,795486450e-01
       82625000    3,720181584e-01   -2,835794389e-01
       82700000    3,726916909e-01   -2,857258320e-01
       82775000    3,753019273e-01   -2,892633677e-01
       82850000    3,762302101e-01   -2,919940948e-01
       82925000    3,784125447e-01   -2,953160405e-01
       83000000    3,796135187e-01   -2,983906865e-01
       83075000    3,812756240e-01   -3,017125428e-01
       83150000    3,815501928e-01   -3,045496047e-01
       83225000    3,839152157e-01   -3,078435361e-01
       83300000    3,838482499e-01   -3,113714159e-01
       83375000    3,867308199e-01   -3,153264225e-01
       83450000    3,880543113e-01   -3,172841370e-01
       83525000    3,886875510e-01   -3,204710484e-01
       83600000    3,897143602e-01   -3,249458075e-01
       83675000    3,900462389e-01   -3,297088742e-01
       83750000    3,912818134e-01   -3,330571055e-01
       83825000    3,923452199e-01   -3,368218243e-01
       83900000    3,931927681e-01   -3,391636610e-01
       83975000    3,929247558e-01   -3,432338536e-01
       84050000    3,922178149e-01   -3,474278748e-01
       84125000    3,940614760e-01   -3,512323797e-01
       84200000    3,942785561e-01   -3,551966250e-01
       84275000    3,932669759e-01   -3,569794893e-01
       84350000    3,944443762e-01   -3,621774018e-01
       84425000    3,929978311e-01   -3,658298552e-01
       84500000    3,956094682e-01   -3,701008856e-01
       84575000    3,959298730e-01   -3,749183714e-01
       84650000    3,948189020e-01   -3,770219088e-01
       84725000    3,951225579e-01   -3,826552331e-01
       84800000    3,929452300e-01   -3,867231011e-01
       84875000    3,943149149e-01   -3,908584416e-01
       84950000    3,945632875e-01   -3,946148753e-01
       85025000    3,936071992e-01   -3,993333578e-01
       85100000    3,931795955e-01   -4,012278616e-01
       85175000    3,914569020e-01   -4,063149393e-01
       85250000    3,904611468e-01   -4,099484384e-01
       85325000    3,920204639e-01   -4,150566161e-01
       85400000    3,888186216e-01   -4,193964005e-01
       85475000    3,887157738e-01   -4,217034876e-01
       85550000    3,872143626e-01   -4,270387590e-01
       85625000    3,854872882e-01   -4,297852814e-01
       85700000    3,827125430e-01   -4,348821044e-01
       85775000    3,828181624e-01   -4,375803173e-01
       85850000    3,809580207e-01   -4,424602389e-01
       85925000    3,799706697e-01   -4,458167851e-01
       86000000    3,775810003e-01   -4,479879737e-01
       86075000    3,760321140e-01   -4,526235163e-01
       86150000    3,737951219e-01   -4,577177465e-01
       86225000    3,715234101e-01   -4,603164792e-01
       86300000    3,711194992e-01   -4,623263478e-01
       86375000    3,690897226e-01   -4,669687152e-01
       86450000    3,665222228e-01   -4,714627862e-01
       86525000    3,627122939e-01   -4,744644761e-01
       86600000    3,623059392e-01   -4,759204686e-01
       86675000    3,598127663e-01   -4,795971811e-01
       86750000    3,571596444e-01   -4,817362130e-01
       86825000    3,553501964e-01   -4,852199852e-01
       86900000    3,522002101e-01   -4,893308878e-01
       86975000    3,504292071e-01   -4,919900298e-01
       87050000    3,474669158e-01   -4,942388535e-01
       87125000    3,431090117e-01   -4,969557226e-01
       87200000    3,424760103e-01   -4,999416173e-01
       87275000    3,391646445e-01   -5,028617978e-01
       87350000    3,357360065e-01   -5,036671162e-01
       87425000    3,346517980e-01   -5,070964694e-01
       87500000    3,308068514e-01   -5,085359216e-01
       87575000    3,298665583e-01   -5,117713213e-01
       87650000    3,257290721e-01   -5,138539076e-01
       87725000    3,263388574e-01   -5,150645375e-01
       87800000    3,218949735e-01   -5,162077546e-01
       87875000    3,206679821e-01   -5,188353658e-01
       87950000    3,172667921e-01   -5,218294859e-01
       88025000    3,145215213e-01   -5,231162310e-01
       88100000    3,103341460e-01   -5,258177519e-01
       88175000    3,098835051e-01   -5,272450447e-01
       88250000    3,071956336e-01   -5,301001668e-01
       88325000    3,021488190e-01   -5,309298635e-01
       88400000    3,014298081e-01   -5,332235098e-01
       88475000    2,980941832e-01   -5,350871086e-01
       88550000    2,960151732e-01   -5,360687971e-01
       88625000    2,935525179e-01   -5,384448767e-01
       88700000    2,897987068e-01   -5,403857231e-01
       88775000    2,868858874e-01   -5,401140451e-01
       88850000    2,858955562e-01   -5,415377021e-01
       88925000    2,823280096e-01   -5,431983471e-01
       89000000    2,777511775e-01   -5,435012579e-01
       89075000    2,765977979e-01   -5,456232429e-01
       89150000    2,715356350e-01   -5,459680557e-01
       89225000    2,709538639e-01   -5,477374196e-01
       89300000    2,658781111e-01   -5,487827063e-01
       89375000    2,647249699e-01   -5,468209386e-01
       89450000    2,604290545e-01   -5,498086214e-01
       89525000    2,582044303e-01   -5,476856828e-01
       89600000    2,561537325e-01   -5,479546189e-01
       89675000    2,537496984e-01   -5,498185158e-01
       89750000    2,505251467e-01   -5,472369790e-01
       89825000    2,494838387e-01   -5,475921035e-01
       89900000    2,460392118e-01   -5,483756065e-01
       89975000    2,440633327e-01   -5,461649895e-01
       90050000    2,432865500e-01   -5,469127297e-01
       90125000    2,406008840e-01   -5,443212986e-01
       90200000    2,400632501e-01   -5,440148711e-01
       90275000    2,394592762e-01   -5,439562798e-01
       90350000    2,381662428e-01   -5,413777232e-01
       90425000    2,377339453e-01   -5,415554643e-01
       90500000    2,354531586e-01   -5,403860807e-01
       90575000    2,371417433e-01   -5,396366715e-01
       90650000    2,360517085e-01   -5,383360386e-01
       90725000    2,357868552e-01   -5,394765735e-01
       90800000    2,369081527e-01   -5,372666717e-01
       90875000    2,374690175e-01   -5,381760001e-01
       90950000    2,378246337e-01   -5,364367366e-01
       91025000    2,384295464e-01   -5,372895598e-01
       91100000    2,386771441e-01   -5,361613035e-01
       91175000    2,396262884e-01   -5,379310250e-01
       91250000    2,392946929e-01   -5,380679369e-01
       91325000    2,429441959e-01   -5,394970775e-01
       91400000    2,420225739e-01   -5,414981246e-01
       91475000    2,454564720e-01   -5,409633517e-01
       91550000    2,459326237e-01   -5,444859862e-01
       91625000    2,468435019e-01   -5,436544418e-01
       91700000    2,475334853e-01   -5,471979976e-01
       91775000    2,482345551e-01   -5,476602912e-01
       91850000    2,506793439e-01   -5,513937473e-01
       91925000    2,492341846e-01   -5,519915819e-01
