! NanoVNA-App
! Date: 2025-08-02 15:43:45
! Start: 65MHz Stop: 95MHz Points: 401
! S-Parameter data: F S11
# Hz S RI R 50
!     Frequency           S11_Real           S11_Imag
       65000000   -3,720502555e-01    1,833796352e-01
       65075000   -3,627513647e-01    1,859253198e-01
       65150000   -3,579132259e-01    1,871825010e-01
       65225000   -3,500893712e-01    1,887444556e-01
       65300000   -3,410848975e-01    1,900090724e-01
       65375000   -3,336499035e-01    1,916783601e-01
       65450000   -3,263614178e-01    1,925823689e-01
       65525000   -3,197248578e-01    1,928852350e-01
       65600000   -3,123524487e-01    1,919859946e-01
       65675000   -3,058237135e-01    1,910363585e-01
       65750000   -2,974471748e-01    1,913396567e-01
       65825000   -2,926434577e-01    1,917031705e-01
       65900000   -2,862276137e-01    1,916207373e-01
       65975000   -2,808090448e-01    1,900071651e-01
       66050000   -2,731449008e-01    1,892724484e-01
       66125000   -2,671383321e-01    1,863099486e-01
       66200000   -2,607721686e-01    1,874114126e-01
       66275000   -2,549655735e-01    1,840787381e-01
       66350000   -2,488020062e-01    1,839490831e-01
       66425000   -2,439496964e-01    1,834578067e-01
       66500000   -2,386904955e-01    1,821045578e-01
       66575000   -2,333909571e-01    1,809111685e-01
       66650000   -2,284847796e-01    1,800207347e-01
       66725000   -2,240117937e-01    1,774274707e-01
       66800000   -2,186840177e-01    1,776949167e-01
       66875000   -2,138463259e-01    1,768513918e-01
       66950000   -2,083627135e-01    1,749584377e-01
       67025000   -2,035586387e-01    1,737937480e-01
       67100000   -1,977073103e-01    1,730930060e-01
       67175000   -1,923225224e-01    1,706435382e-01
       67250000   -1,859968603e-01    1,682247370e-01
       67325000   -1,811086833e-01    1,671167314e-01
       67400000   -1,744020134e-01    1,649139076e-01
       67475000   -1,702596396e-01    1,648837775e-01
       67550000   -1,650587916e-01    1,619001329e-01
       67625000   -1,587695032e-01    1,584473103e-01
       67700000   -1,538325995e-01    1,557914466e-01
       67775000   -1,501442045e-01    1,532588452e-01
       67850000   -1,446494311e-01    1,501500309e-01
       67925000   -1,395757049e-01    1,479042917e-01
       68000000   -1,347257197e-01    1,442902088e-01
       68075000   -1,310815364e-01    1,421131939e-01
       68150000   -1,273952425e-01    1,382399648e-01
       68225000   -1,235780641e-01    1,342294514e-01
       68300000   -1,195248142e-01    1,309690475e-01
       68375000   -1,153523549e-01    1,275671273e-01
       68450000   -1,112931818e-01    1,241846830e-01
       68525000   -1,070179045e-01    1,206805408e-01
       68600000   -1,047219932e-01    1,167701855e-01
       68675000   -1,018305793e-01    1,131052151e-01
       68750000   -9,871167690e-02    1,100988835e-01
       68825000   -9,657567739e-02    1,052011624e-01
       68900000   -9,367037565e-02    1,006232873e-01
       68975000   -9,120421857e-02    9,714939445e-02
       69050000   -9,028207511e-02    9,349807352e-02
       69125000   -8,779644966e-02    8,942490816e-02
       69200000   -8,646456152e-02    8,589196950e-02
       69275000   -8,427661657e-02    8,293631673e-02
       69350000   -8,295128495e-02    7,922841609e-02
       69425000   -8,139130473e-02    7,643638551e-02
       69500000   -8,018653095e-02    7,237252593e-02
       69575000   -8,001928031e-02    6,931927055e-02
       69650000   -7,787702233e-02    6,737843156e-02
       69725000   -7,902756333e-02    6,279589981e-02
       69800000   -7,869364321e-02    6,027258188e-02
       69875000   -7,761478424e-02    5,973765999e-02
       69950000   -7,657618076e-02    5,426761135e-02
       70025000   -7,735348493e-02    5,318446457e-02
       70100000   -7,511638105e-02    5,088664591e-02
       70175000   -7,539237291e-02    4,863082990e-02
       70250000   -7,484796643e-02    4,795059934e-02
       70325000   -7,474546134e-02    4,434225708e-02
       70400000   -7,407788932e-02    4,218269885e-02
       70475000   -7,325553149e-02    4,161291197e-02
       70550000   -7,281895727e-02    3,937638924e-02
       70625000   -7,329191267e-02    3,709635511e-02
       70700000   -7,255247235e-02    3,573385626e-02
       70775000   -7,071825117e-02    3,486854956e-02
       70850000   -7,107673585e-02    3,141637146e-02
       70925000   -7,007926702e-02    3,088376299e-02
       71000000   -7,008519024e-02    2,880515717e-02
       71075000   -6,871686876e-02    2,765228041e-02
       71150000   -6,764040887e-02    2,593129128e-02
       71225000   -6,727009267e-02    2,411027811e-02
       71300000   -6,767679751e-02    2,229143865e-02
       71375000   -6,653600931e-02    2,146454714e-02
       71450000   -6,467314810e-02    1,954232529e-02
       71525000   -6,533863395e-02    1,755966060e-02
       71600000   -6,497267634e-02    1,684414595e-02
       71675000   -6,327631325e-02    1,517377328e-02
       71750000   -6,488335133e-02    1,274539344e-02
       71825000   -6,267338246e-02    1,144968253e-02
       71900000   -6,166484579e-02    9,787680581e-03
       71975000   -6,283808500e-02    8,033663034e-03
       72050000   -6,251164526e-02    6,020048633e-03
       72125000   -6,239617616e-02    5,440661218e-03
       72200000   -6,242806837e-02    4,218803719e-03
       72275000   -6,146497279e-02    1,474332996e-03
       72350000   -6,133013591e-02    8,971899661e-05
       72425000   -6,166682020e-02   -1,664760523e-03
       72500000   -6,421161443e-02   -2,657798119e-03
       72575000   -6,201281026e-02   -4,454381764e-03
       72650000   -6,187665835e-02   -6,065181922e-03
       72725000   -6,538645923e-02   -6,060895044e-03
       72800000   -6,311453134e-02   -9,745106101e-03
       72875000   -6,433939934e-02   -8,792310953e-03
       72950000   -6,572177261e-02   -1,017962303e-02
       73025000   -6,555327028e-02   -1,159149874e-02
       73100000   -6,652329862e-02   -1,301946398e-02
       73175000   -6,692556292e-02   -1,261481736e-02
       73250000   -6,710234284e-02   -1,454939321e-02
       73325000   -6,704282016e-02   -1,584092155e-02
       73400000   -6,927883625e-02   -1,487926487e-02
       73475000   -6,798256189e-02   -1,700420305e-02
       73550000   -6,955455244e-02   -1,866272837e-02
       73625000   -7,035588473e-02   -1,707499661e-02
       73700000   -7,076930255e-02   -1,834325679e-02
       73775000   -7,108478993e-02   -1,971904375e-02
       73850000   -7,089052349e-02   -1,759707928e-02
       73925000   -7,338015735e-02   -1,887577027e-02
       74000000   -7,203757763e-02   -1,971847564e-02
       74075000   -7,297204435e-02   -1,972802170e-02
       74150000   -7,484063506e-02   -1,950935274e-02
       74225000   -7,460642606e-02   -2,018694393e-02
       74300000   -7,479947060e-02   -1,792533696e-02
       74375000   -7,457052916e-02   -1,919397525e-02
       74450000   -7,665546983e-02   -2,044219710e-02
       74525000   -7,590581477e-02   -2,018067054e-02
       74600000   -7,615990192e-02   -1,841632836e-02
       74675000   -7,664000988e-02   -1,898677088e-02
       74750000   -7,694604248e-02   -1,693285629e-02
       74825000   -7,783177495e-02   -1,742124744e-02
       74900000   -7,755364478e-02   -1,694990881e-02
       74975000   -7,777440548e-02   -1,746174321e-02
       75050000   -7,673897594e-02   -1,591780409e-02
       75125000   -7,835237682e-02   -1,566219330e-02
       75200000   -7,907876372e-02   -1,655104570e-02
       75275000   -7,706283033e-02   -1,433213707e-02
       75350000   -7,941935211e-02   -1,500361692e-02
       75425000   -7,851323485e-02   -1,479144488e-02
       75500000   -7,785614580e-02   -1,365415938e-02
       75575000   -7,876759768e-02   -1,389946323e-02
       75650000   -8,034534007e-02   -1,234713569e-02
       75725000   -7,922101766e-02   -1,163120568e-02
       75800000   -7,867793739e-02   -1,166751701e-02
       75875000   -8,087019622e-02   -9,971344844e-03
       75950000   -7,863889635e-02   -1,146223024e-02
       76025000   -8,016964793e-02   -8,505955338e-03
       76100000   -7,961442322e-02   -9,417018853e-03
       76175000   -7,967247814e-02   -8,265540935e-03
       76250000   -7,933746278e-02   -7,880853489e-03
       76325000   -7,932447642e-02   -6,793938112e-03
       76400000   -8,041325212e-02   -6,639918312e-03
       76475000   -8,126735687e-02   -3,695092397e-03
       76550000   -8,002685010e-02   -3,305313876e-03
       76625000   -7,986032218e-02   -2,953741001e-03
       76700000   -8,114394546e-02   -1,612853725e-03
       76775000   -8,047309518e-02   -8,668216469e-05
       76850000   -8,019382507e-02    2,217248693e-04
       76925000   -8,062141389e-02    1,949036960e-03
       77000000   -7,973048836e-02    3,361469833e-03
       77075000   -8,100162446e-02    3,867452033e-03
       77150000   -8,045988530e-02    5,372050684e-03
       77225000   -8,031220734e-02    7,495938335e-03
       77300000   -8,010824770e-02    7,951266132e-03
       77375000   -7,968904078e-02    1,107428968e-02
       77450000   -7,951880991e-02    1,274055429e-02
       77525000   -8,032403886e-02    1,511480287e-02
       77600000   -7,900489122e-02    1,618815772e-02
       77675000   -7,856566459e-02    1,897253282e-02
       77750000   -7,660631835e-02    1,998375915e-02
       77825000   -7,756423950e-02    2,191301249e-02
       77900000   -7,530936599e-02    2,485792525e-02
       77975000   -7,575304061e-02    2,633053064e-02
       78050000   -7,496637106e-02    2,888137288e-02
       78125000   -7,340081036e-02    3,122982383e-02
       78200000   -7,173217833e-02    3,386905044e-02
       78275000   -7,093016058e-02    3,413470089e-02
       78350000   -6,950853020e-02    3,756338730e-02
       78425000   -6,686233729e-02    4,021491855e-02
       78500000   -6,687421352e-02    4,108472914e-02
       78575000   -6,446700543e-02    4,434780404e-02
       78650000   -6,243639439e-02    4,633118212e-02
       78725000   -6,079686061e-02    4,872364178e-02
       78800000   -5,812358856e-02    5,048137903e-02
       78875000   -5,633619055e-02    5,279964954e-02
       78950000   -5,331293121e-02    5,500953272e-02
       79025000   -5,005396530e-02    5,601755902e-02
       79100000   -4,865298793e-02    5,833313242e-02
       79175000   -4,572646320e-02    6,050262600e-02
       79250000   -4,257740080e-02    6,160080060e-02
       79325000   -3,946402669e-02    6,300394982e-02
       79400000   -3,799206391e-02    6,522954255e-02
       79475000   -3,244663402e-02    6,648942083e-02
       79550000   -3,088166751e-02    6,721710414e-02
       79625000   -2,806122229e-02    6,957746297e-02
       79700000   -2,444596402e-02    7,085465640e-02
       79775000   -2,159511484e-02    7,081061602e-02
       79850000   -1,819971018e-02    7,195106894e-02
       79925000   -1,512079034e-02    7,259670645e-02
       80000000   -1,219040900e-02    7,475645840e-02
       80075000   -8,169263601e-03    7,538837940e-02
       80150000   -5,814410280e-03    7,627061754e-02
       80225000   -1,177283353e-03    7,661713660e-02
       80300000    5,153032253e-04    7,690872252e-02
       80375000    5,023509264e-03    7,814886421e-02
       80450000    8,921516128e-03    7,698371261e-02
       80525000    1,263951696e-02    7,720447332e-02
       80600000    1,482569333e-02    7,837527990e-02
       80675000    2,020677179e-02    7,724590600e-02
       80750000    2,235465311e-02    7,790919393e-02
       80825000    2,600740083e-02    7,864433527e-02
       80900000    2,951112576e-02    7,747861743e-02
       80975000    3,418500721e-02    7,690550387e-02
       81050000    3,671523929e-02    7,525125891e-02
       81125000    4,040231928e-02    7,489763200e-02
       81200000    4,363050684e-02    7,493097335e-02
       81275000    4,717940837e-02    7,375141978e-02
       81350000    5,031920597e-02    7,285759598e-02
       81425000    5,312595516e-02    7,103540748e-02
       81500000    5,755451322e-02    6,984177977e-02
       81575000    5,860343203e-02    6,825459749e-02
       81650000    6,201355159e-02    6,781326234e-02
       81725000    6,505747139e-02    6,570819020e-02
       81800000    6,761020422e-02    6,471190602e-02
       81875000    6,982843578e-02    6,301235408e-02
       81950000    7,197768241e-02    6,195051223e-02
       82025000    7,424998283e-02    6,081613526e-02
       82100000    7,791151106e-02    5,799721554e-02
       82175000    7,857040316e-02    5,718166754e-02
       82250000    8,140399307e-02    5,549302697e-02
       82325000    8,242025226e-02    5,514726788e-02
       82400000    8,339761198e-02    5,307262018e-02
       82475000    8,576935530e-02    5,219401792e-02
       82550000    8,775164187e-02    5,065993965e-02
       82625000    8,950033039e-02    5,019675940e-02
       82700000    9,069094807e-02    4,947277904e-02
       82775000    9,244244546e-02    4,780763760e-02
       82850000    9,386016428e-02    4,834370688e-02
       82925000    9,574107826e-02    4,744563252e-02
       83000000    9,615681320e-02    4,588024318e-02
       83075000    9,843754023e-02    4,594151303e-02
       83150000    1,006088331e-01    4,483458400e-02
       83225000    1,018862799e-01    4,412396997e-02
       83300000    1,033531353e-01    4,426516965e-02
       83375000    1,061697826e-01    4,255741090e-02
       83450000    1,070120037e-01    4,321261868e-02
       83525000    1,091253310e-01    4,296738654e-02
       83600000    1,120148227e-01    4,355599731e-02
       83675000    1,131547764e-01    4,214876518e-02
       83750000    1,141388342e-01    4,319588467e-02
       83825000    1,165895686e-01    4,073598236e-02
       83900000    1,194823757e-01    4,243578017e-02
       83975000    1,211336553e-01    4,066967964e-02
       84050000    1,234181225e-01    4,141586274e-02
       84125000    1,248634160e-01    4,152489826e-02
       84200000    1,284164786e-01    4,042846709e-02
       84275000    1,306667924e-01    3,901997954e-02
       84350000    1,326388121e-01    3,991773352e-02
       84425000    1,351341754e-01    3,997756541e-02
       84500000    1,375789940e-01    3,799979389e-02
       84575000    1,392488629e-01    3,829542547e-02
       84650000    1,428325325e-01    3,860493377e-02
       84725000    1,441025585e-01    3,765764832e-02
       84800000    1,471769065e-01    3,641886264e-02
       84875000    1,486318260e-01    3,742487356e-02
       84950000    1,524751186e-01    3,638749942e-02
       85025000    1,544280052e-01    3,595080227e-02
       85100000    1,581102908e-01    3,587278351e-02
       85175000    1,605154872e-01    3,407686576e-02
       85250000    1,632298827e-01    3,513721377e-02
       85325000    1,657633930e-01    3,407032415e-02
       85400000    1,701252609e-01    3,319419548e-02
       85475000    1,702408940e-01    3,271177039e-02
       85550000    1,752350181e-01    3,334460035e-02
       85625000    1,779708117e-01    3,134763241e-02
       85700000    1,803847104e-01    3,158447519e-02
       85775000    1,849225014e-01    3,130215779e-02
       85850000    1,882626265e-01    2,916647866e-02
       85925000    1,913915426e-01    3,035318293e-02
       86000000    1,947476566e-01    2,663276903e-02
       86075000    1,981199533e-01    2,784140036e-02
       86150000    2,032885551e-01    2,565698698e-02
       86225000    2,058869451e-01    2,490452863e-02
       86300000    2,096618861e-01    2,369661815e-02
       86375000    2,127657831e-01    2,217160538e-02
       86450000    2,164399624e-01    1,999375783e-02
       86525000    2,214181870e-01    1,953474246e-02
       86600000    2,239128649e-01    1,588568091e-02
       86675000    2,279795706e-01    1,605616510e-02
       86750000    2,314719856e-01    1,253910642e-02
       86825000    2,353243977e-01    1,253274828e-02
       86900000    2,395549119e-01    9,374896996e-03
       86975000    2,437174171e-01    7,150201593e-03
       87050000    2,448754609e-01    3,485458205e-03
       87125000    2,508713901e-01    1,633393113e-03
       87200000    2,529603839e-01    3,485004127e-04
       87275000    2,567359805e-01   -9,989716345e-04
       87350000    2,609775960e-01   -5,830103997e-03
       87425000    2,638323605e-01   -8,219207637e-03
       87500000    2,676023543e-01   -1,044123434e-02
       87575000    2,698729932e-01   -1,250159834e-02
       87650000    2,740910053e-01   -1,621344499e-02
       87725000    2,756111324e-01   -1,894987561e-02
       87800000    2,806254327e-01   -2,162559703e-02
       87875000    2,833478749e-01   -2,477488667e-02
       87950000    2,865317762e-01   -2,863117307e-02
       88025000    2,911722362e-01   -3,242785484e-02
       88100000    2,927307487e-01   -3,479942307e-02
       88175000    2,951538861e-01   -3,829020634e-02
       88250000    3,004487157e-01   -3,991963342e-02
       88325000    3,038697243e-01   -4,386170208e-02
       88400000    3,039096892e-01   -4,695458710e-02
       88475000    3,077781498e-01   -5,059939623e-02
       88550000    3,121854365e-01   -5,444433168e-02
       88625000    3,140367270e-01   -5,906458572e-02
       88700000    3,164393306e-01   -6,071215868e-02
       88775000    3,211279809e-01   -6,535311043e-02
       88850000    3,215536177e-01   -6,871775538e-02
       88925000    3,261317313e-01   -7,129099220e-02
       89000000    3,290640414e-01   -7,752461731e-02
       89075000    3,323594034e-01   -8,061146736e-02
       89150000    3,333285153e-01   -8,288198709e-02
       89225000    3,383567929e-01   -8,652390540e-02
       89300000    3,385220170e-01   -9,099499136e-02
       89375000    3,431226611e-01   -9,553680569e-02
       89450000    3,461889625e-01   -1,006282791e-01
       89525000    3,465526700e-01   -1,051290333e-01
       89600000    3,522629738e-01   -1,085890383e-01
       89675000    3,529101014e-01   -1,119404957e-01
       89750000    3,560006917e-01   -1,172486171e-01
       89825000    3,601952195e-01   -1,225772873e-01
       89900000    3,611492217e-01   -1,257986426e-01
       89975000    3,626359701e-01   -1,307479143e-01
       90050000    3,673527241e-01   -1,362373084e-01
       90125000    3,671387434e-01   -1,437055916e-01
       90200000    3,706686199e-01   -1,458345652e-01
       90275000    3,711180091e-01   -1,516292840e-01
       90350000    3,745749891e-01   -1,434903890e-01
       90425000    3,736180663e-01   -1,620467007e-01
       90500000    3,795136213e-01   -1,679100245e-01
       90575000    3,799616396e-01   -1,727729589e-01
       90650000    3,822745085e-01   -1,773085594e-01
       90725000    3,857263327e-01   -1,833974421e-01
       90800000    3,846294880e-01   -1,889158040e-01
       90875000    3,858408928e-01   -1,967986226e-01
       90950000    3,888339400e-01   -2,018030733e-01
       91025000    3,865823448e-01   -2,095288187e-01
       91100000    3,906313777e-01   -2,137420624e-01
       91175000    3,906275332e-01   -2,190560251e-01
       91250000    3,911967576e-01   -2,272853255e-01
       91325000    3,927404284e-01   -2,307953387e-01
       91400000    3,935069740e-01   -2,380223721e-01
       91475000    3,926658630e-01   -2,440169454e-01
       91550000    3,908602595e-01   -2,507297695e-01
       91625000    3,923739791e-01   -2,549974918e-01
       91700000    3,896320760e-01   -2,621763349e-01
       91775000    3,918842375e-01   -2,703091800e-01
       91850000    3,923142850e-01   -2,730360627e-01
       91925000    3,914004266e-01   -2,839884460e-01
