! NanoVNA-App
! Date: 2025-08-02 16:06:09
! Start: 65MHz Stop: 95MHz Points: 401
! S-Parameter data: F S11
# Hz S RI R 50
!     Frequency           S11_Real           S11_Imag
       65000000   -1,431537867e-01    2,439600527e-01
       65075000   -1,346961260e-01    2,401721328e-01
       65150000   -1,291301250e-01    2,387852818e-01
       65225000   -1,235665381e-01    2,366635799e-01
       65300000   -1,160879880e-01    2,336435020e-01
       65375000   -1,087609455e-01    2,308764309e-01
       65450000   -1,017206907e-01    2,291272134e-01
       65525000   -9,593158960e-02    2,256250829e-01
       65600000   -8,962528408e-02    2,233123928e-01
       65675000   -8,345779032e-02    2,198090404e-01
       65750000   -7,768602669e-02    2,172799408e-01
       65825000   -7,299844921e-02    2,139152586e-01
       65900000   -6,799744070e-02    2,108571827e-01
       65975000   -6,192542240e-02    2,072007358e-01
       66050000   -5,691251159e-02    2,037590891e-01
       66125000   -5,234995484e-02    2,002977133e-01
       66200000   -4,691400379e-02    1,967554092e-01
       66275000   -4,372414201e-02    1,925721765e-01
       66350000   -3,794585168e-02    1,902613044e-01
       66425000   -3,313420340e-02    1,873053163e-01
       66500000   -2,830562741e-02    1,834936887e-01
       66575000   -2,460124344e-02    1,806768328e-01
       66650000   -2,057879604e-02    1,769662946e-01
       66725000   -1,681141928e-02    1,724848449e-01
       66800000   -1,157738641e-02    1,693264544e-01
       66875000   -7,795289624e-03    1,663054377e-01
       66950000   -3,529443173e-03    1,620669514e-01
       67025000    1,235862495e-03    1,598857343e-01
       67100000    4,776239395e-03    1,563466936e-01
       67175000    1,012533251e-02    1,536773592e-01
       67250000    1,351673529e-02    1,491546333e-01
       67325000    1,806234382e-02    1,453892142e-01
       67400000    2,205513604e-02    1,413087547e-01
       67475000    2,602038719e-02    1,365335435e-01
       67550000    3,093662672e-02    1,321868598e-01
       67625000    3,406954929e-02    1,276156455e-01
       67700000    3,730581328e-02    1,226491183e-01
       67775000    4,053819180e-02    1,173686534e-01
       67850000    4,286190495e-02    1,125691459e-01
       67925000    4,554301128e-02    1,079931855e-01
       68000000    4,896477610e-02    1,021255255e-01
       68075000    5,062776059e-02    9,837435931e-02
       68150000    5,263852328e-02    9,432863444e-02
       68225000    5,472716689e-02    8,876201510e-02
       68300000    5,670874938e-02    8,520164341e-02
       68375000    5,845407024e-02    8,018732071e-02
       68450000    6,035477668e-02    7,517486066e-02
       68525000    6,234390289e-02    7,071230561e-02
       68600000    6,316916645e-02    6,645242870e-02
       68675000    6,497384608e-02    6,184550375e-02
       68750000    6,536712497e-02    5,698318779e-02
       68825000    6,738739461e-02    5,261320621e-02
       68900000    6,724295765e-02    4,739988223e-02
       68975000    6,936268508e-02    4,301769286e-02
       69050000    6,895199418e-02    3,809861466e-02
       69125000    6,954070181e-02    3,477114439e-02
       69200000    6,956914067e-02    2,911724336e-02
       69275000    6,989430636e-02    2,589839883e-02
       69350000    6,963211298e-02    2,143726498e-02
       69425000    7,009248435e-02    1,742980257e-02
       69500000    6,818746030e-02    1,300387643e-02
       69575000    6,827492267e-02    1,137142070e-02
       69650000    6,721293181e-02    5,724140909e-03
       69725000    6,656152010e-02    3,519261489e-03
       69800000    6,581617892e-02   -7,252017385e-04
       69875000    6,396967918e-02   -3,247017507e-03
       69950000    6,470372528e-02   -5,810950417e-03
       70025000    6,317406148e-02   -9,149631485e-03
       70100000    6,112720817e-02   -1,217134297e-02
       70175000    6,179089844e-02   -1,380060054e-02
       70250000    6,121487543e-02   -1,688750461e-02
       70325000    5,942097306e-02   -1,811471023e-02
       70400000    5,909639597e-02   -2,072527446e-02
       70475000    5,819644034e-02   -2,242526226e-02
       70550000    5,758506805e-02   -2,450374514e-02
       70625000    5,780459568e-02   -2,689418010e-02
       70700000    5,689760298e-02   -2,790411934e-02
       70775000    5,649437010e-02   -3,110557795e-02
       70850000    5,576968193e-02   -3,203010932e-02
       70925000    5,589205027e-02   -3,391342610e-02
       71000000    5,432544276e-02   -3,654776886e-02
       71075000    5,451732874e-02   -3,724856675e-02
       71150000    5,436084047e-02   -3,950050473e-02
       71225000    5,346181989e-02   -4,146355018e-02
       71300000    5,258943886e-02   -4,252171516e-02
       71375000    5,327267572e-02   -4,473764449e-02
       71450000    5,221108720e-02   -4,715139046e-02
       71525000    5,210658163e-02   -4,860293120e-02
       71600000    5,198823661e-02   -5,010610819e-02
       71675000    5,050183833e-02   -5,131575465e-02
       71750000    4,954075441e-02   -5,403702706e-02
       71825000    5,050295219e-02   -5,481875315e-02
       71900000    4,809818789e-02   -5,692633986e-02
       71975000    4,713336378e-02   -5,830277130e-02
       72050000    4,855005071e-02   -5,922887474e-02
       72125000    4,682455212e-02   -6,121671572e-02
       72200000    4,519749433e-02   -6,202157587e-02
       72275000    4,661053419e-02   -6,552501768e-02
       72350000    4,402476922e-02   -6,631898880e-02
       72425000    4,254131392e-02   -6,644646823e-02
       72500000    4,153514281e-02   -7,006020844e-02
       72575000    4,189569876e-02   -7,044794410e-02
       72650000    4,032313451e-02   -7,140031457e-02
       72725000    3,968500718e-02   -7,277696580e-02
       72800000    3,863197565e-02   -7,432742417e-02
       72875000    3,603516147e-02   -7,408377528e-02
       72950000    3,579528630e-02   -7,622198015e-02
       73025000    3,495499864e-02   -7,633931190e-02
       73100000    3,372233734e-02   -7,674049586e-02
       73175000    3,209583461e-02   -7,748115808e-02
       73250000    3,166471422e-02   -7,879680395e-02
       73325000    3,082701564e-02   -7,803775370e-02
       73400000    2,896289341e-02   -8,017495275e-02
       73475000    2,854913473e-02   -8,020992577e-02
       73550000    2,827247605e-02   -8,086083829e-02
       73625000    2,683557011e-02   -8,038255572e-02
       73700000    2,583626844e-02   -8,190365881e-02
       73775000    2,503506094e-02   -8,033067733e-02
       73850000    2,384253405e-02   -8,142716438e-02
       73925000    2,180616558e-02   -8,136061579e-02
       74000000    2,173606865e-02   -8,108783513e-02
       74075000    2,062266134e-02   -8,204176277e-02
       74150000    1,999501884e-02   -8,031843603e-02
       74225000    2,050080523e-02   -8,067925274e-02
       74300000    1,951033249e-02   -8,089939505e-02
       74375000    1,803729124e-02   -8,052744716e-02
       74450000    1,722531021e-02   -8,060984313e-02
       74525000    1,756792143e-02   -8,056939393e-02
       74600000    1,604413614e-02   -8,089461178e-02
       74675000    1,531216223e-02   -8,100729436e-02
       74750000    1,737815887e-02   -7,959951460e-02
       74825000    1,482268702e-02   -7,920184731e-02
       74900000    1,459469646e-02   -7,873462141e-02
       74975000    1,603616029e-02   -7,880101353e-02
       75050000    1,188758295e-02   -7,890179753e-02
       75125000    1,289410517e-02   -7,821360230e-02
       75200000    1,327834930e-02   -7,857616991e-02
       75275000    1,216734853e-02   -7,818923146e-02
       75350000    1,093422156e-02   -7,786109298e-02
       75425000    1,273788512e-02   -7,766531408e-02
       75500000    1,104388852e-02   -7,665433735e-02
       75575000    1,137097832e-02   -7,621698827e-02
       75650000    1,115489006e-02   -7,704215497e-02
       75725000    1,064339932e-02   -7,513334602e-02
       75800000    9,579629637e-03   -7,503538579e-02
       75875000    1,037406176e-02   -7,510048896e-02
       75950000    9,347889572e-03   -7,394412160e-02
       76025000    7,814810611e-03   -7,364232838e-02
       76100000    8,773093112e-03   -7,271527499e-02
       76175000    7,848364301e-03   -7,247311622e-02
       76250000    7,904240862e-03   -7,020656765e-02
       76325000    7,829542272e-03   -7,053136081e-02
       76400000    7,931316271e-03   -6,908160448e-02
       76475000    8,486487903e-03   -6,790304184e-02
       76550000    7,880142890e-03   -6,858048588e-02
       76625000    7,378752809e-03   -6,584736705e-02
       76700000    7,730845828e-03   -6,526028365e-02
       76775000    6,418767385e-03   -6,512629241e-02
       76850000    6,299588829e-03   -6,304058433e-02
       76925000    7,107891142e-03   -6,164729595e-02
       77000000    5,820142105e-03   -6,125461683e-02
       77075000    6,938738748e-03   -5,958830565e-02
       77150000    6,972649135e-03   -5,755407736e-02
       77225000    6,792044733e-03   -5,645505339e-02
       77300000    6,737429649e-03   -5,621892959e-02
       77375000    8,357418701e-03   -5,303256959e-02
       77450000    8,332035504e-03   -5,202864110e-02
       77525000    8,613889106e-03   -5,115588382e-02
       77600000    9,876944125e-03   -4,788727313e-02
       77675000    1,061324030e-02   -4,711489752e-02
       77750000    1,030849945e-02   -4,469610751e-02
       77825000    1,224842388e-02   -4,310338572e-02
       77900000    1,279788744e-02   -4,197971150e-02
       77975000    1,164387632e-02   -4,011493921e-02
       78050000    1,518317126e-02   -3,813209385e-02
       78125000    1,617749780e-02   -3,643843159e-02
       78200000    1,596183144e-02   -3,394165635e-02
       78275000    1,863779873e-02   -3,211626038e-02
       78350000    2,027301863e-02   -3,060465120e-02
       78425000    2,150456607e-02   -2,926291339e-02
       78500000    2,318594791e-02   -2,692070976e-02
       78575000    2,568232641e-02   -2,567199804e-02
       78650000    2,604295500e-02   -2,437090874e-02
       78725000    2,933460847e-02   -2,217752300e-02
       78800000    3,208563104e-02   -2,055387944e-02
       78875000    3,359031305e-02   -1,898970641e-02
       78950000    3,713510931e-02   -1,776073128e-02
       79025000    3,876015916e-02   -1,594607346e-02
       79100000    4,167532921e-02   -1,466293167e-02
       79175000    4,495280236e-02   -1,394714601e-02
       79250000    4,751639813e-02   -1,225065812e-02
       79325000    5,033886433e-02   -1,150510553e-02
       79400000    5,214553326e-02   -1,100037154e-02
       79475000    5,615552142e-02   -9,755042382e-03
       79550000    5,885856226e-02   -1,030035876e-02
       79625000    6,144412234e-02   -8,242239244e-03
       79700000    6,514380127e-02   -8,597556502e-03
       79775000    6,766959280e-02   -8,298651315e-03
       79850000    7,092682272e-02   -7,034667768e-03
       79925000    7,468722761e-02   -7,784242742e-03
       80000000    7,637530565e-02   -7,654394954e-03
       80075000    8,034570515e-02   -7,347121835e-03
       80150000    8,352541924e-02   -8,139746264e-03
       80225000    8,608566970e-02   -8,872755803e-03
       80300000    9,011028707e-02   -7,947481237e-03
       80375000    9,298120439e-02   -8,463988081e-03
       80450000    9,575109929e-02   -8,465289138e-03
       80525000    9,920469671e-02   -9,492048994e-03
       80600000    1,021995246e-01   -1,016932633e-02
       80675000    1,055625305e-01   -1,086520404e-02
       80750000    1,081212014e-01   -1,126800571e-02
       80825000    1,120683625e-01   -1,339956094e-02
       80900000    1,140395775e-01   -1,471793838e-02
       80975000    1,183295995e-01   -1,421512011e-02
       81050000    1,204614341e-01   -1,664400287e-02
       81125000    1,231060103e-01   -1,910337247e-02
       81200000    1,261147559e-01   -1,882930472e-02
       81275000    1,280761957e-01   -2,210595086e-02
       81350000    1,316319108e-01   -2,282446250e-02
       81425000    1,343030483e-01   -2,420331910e-02
       81500000    1,357359290e-01   -2,583357133e-02
       81575000    1,381756812e-01   -2,850702964e-02
       81650000    1,402516663e-01   -3,123604134e-02
       81725000    1,413267106e-01   -3,192699328e-02
       81800000    1,444188058e-01   -3,316416964e-02
       81875000    1,462882906e-01   -3,713415563e-02
       81950000    1,476129591e-01   -3,729443997e-02
       82025000    1,490195841e-01   -3,993007541e-02
       82100000    1,504737735e-01   -4,081380740e-02
       82175000    1,528278142e-01   -4,303237796e-02
       82250000    1,535829455e-01   -4,435706884e-02
       82325000    1,550470740e-01   -4,632503539e-02
       82400000    1,559010297e-01   -4,678253084e-02
       82475000    1,566425860e-01   -4,778919742e-02
       82550000    1,579446644e-01   -5,134666711e-02
       82625000    1,598352343e-01   -5,181260407e-02
       82700000    1,607422084e-01   -5,298294872e-02
       82775000    1,617783606e-01   -5,384764448e-02
       82850000    1,629952341e-01   -5,627807975e-02
       82925000    1,639699936e-01   -5,624976009e-02
       83000000    1,647011489e-01   -5,839516595e-02
       83075000    1,668571532e-01   -5,834624171e-02
       83150000    1,676093340e-01   -6,029398739e-02
       83225000    1,688809842e-01   -6,085304543e-02
       83300000    1,693727970e-01   -6,145429611e-02
       83375000    1,713466495e-01   -6,154441833e-02
       83450000    1,736797243e-01   -6,356825680e-02
       83525000    1,745245308e-01   -6,366211921e-02
       83600000    1,760282516e-01   -6,475922465e-02
       83675000    1,766726673e-01   -6,633428484e-02
       83750000    1,783773601e-01   -6,581520289e-02
       83825000    1,806114763e-01   -6,674373895e-02
       83900000    1,822955906e-01   -6,730406731e-02
       83975000    1,846275181e-01   -6,840594858e-02
       84050000    1,847902387e-01   -6,837639958e-02
       84125000    1,878985465e-01   -6,883835793e-02
       84200000    1,890129745e-01   -7,119131088e-02
       84275000    1,904489994e-01   -7,138900459e-02
       84350000    1,932852417e-01   -7,193517685e-02
       84425000    1,934125274e-01   -7,268461585e-02
       84500000    1,966866404e-01   -7,349985093e-02
       84575000    1,977849901e-01   -7,527019829e-02
       84650000    2,001384050e-01   -7,547788322e-02
       84725000    2,028811872e-01   -7,589681447e-02
       84800000    2,039590925e-01   -7,684795558e-02
       84875000    2,066589445e-01   -7,785344869e-02
       84950000    2,078713328e-01   -7,955665141e-02
       85025000    2,094980031e-01   -7,990692556e-02
       85100000    2,129366100e-01   -8,020863682e-02
       85175000    2,154022008e-01   -8,142816275e-02
       85250000    2,171933651e-01   -8,179297298e-02
       85325000    2,201284766e-01   -8,315598965e-02
       85400000    2,213743478e-01   -8,410032094e-02
       85475000    2,253836393e-01   -8,441984653e-02
       85550000    2,284559011e-01   -8,621347696e-02
       85625000    2,299698293e-01   -8,860743046e-02
       85700000    2,319661528e-01   -8,863548934e-02
       85775000    2,356713712e-01   -8,894987404e-02
       85850000    2,395025790e-01   -9,190610796e-02
       85925000    2,402933687e-01   -9,422267228e-02
       86000000    2,441463321e-01   -9,401345998e-02
       86075000    2,464224696e-01   -9,655927867e-02
       86150000    2,507519722e-01   -9,782491624e-02
       86225000    2,533152699e-01   -9,918577969e-02
       86300000    2,567132413e-01   -1,010050103e-01
       86375000    2,598848045e-01   -1,031011641e-01
       86450000    2,614944875e-01   -1,051145494e-01
       86525000    2,654925287e-01   -1,085670888e-01
       86600000    2,687259614e-01   -1,103668809e-01
       86675000    2,700453103e-01   -1,128207371e-01
       86750000    2,749197185e-01   -1,148611680e-01
       86825000    2,779640853e-01   -1,185456067e-01
       86900000    2,794472277e-01   -1,221471876e-01
       86975000    2,811368108e-01   -1,254188865e-01
       87050000    2,855347991e-01   -1,268344969e-01
       87125000    2,879454195e-01   -1,297678053e-01
       87200000    2,894580960e-01   -1,334499568e-01
       87275000    2,926719487e-01   -1,362648755e-01
       87350000    2,950419784e-01   -1,386401355e-01
       87425000    2,964552641e-01   -1,414755583e-01
       87500000    3,015210629e-01   -1,427595615e-01
       87575000    3,010788262e-01   -1,487362683e-01
       87650000    3,043978214e-01   -1,516154408e-01
       87725000    3,067443669e-01   -1,574673504e-01
       87800000    3,091048598e-01   -1,592957079e-01
       87875000    3,113969564e-01   -1,636667401e-01
       87950000    3,113172054e-01   -1,664856970e-01
       88025000    3,147809803e-01   -1,689437479e-01
       88100000    3,181163073e-01   -1,722948104e-01
       88175000    3,185245991e-01   -1,778638065e-01
       88250000    3,211008012e-01   -1,795416325e-01
       88325000    3,232901096e-01   -1,831107438e-01
       88400000    3,232572079e-01   -1,870811284e-01
       88475000    3,274027705e-01   -1,900944561e-01
       88550000    3,263464868e-01   -1,938945353e-01
       88625000    3,303058147e-01   -1,985364258e-01
       88700000    3,317734301e-01   -2,022969425e-01
       88775000    3,354974389e-01   -2,059614211e-01
       88850000    3,328646719e-01   -2,101332396e-01
       88925000    3,378027976e-01   -2,136783153e-01
       89000000    3,392066658e-01   -2,186186314e-01
       89075000    3,405457437e-01   -2,210517824e-01
       89150000    3,434366584e-01   -2,261613756e-01
       89225000    3,429302275e-01   -2,288131118e-01
       89300000    3,461270630e-01   -2,328658551e-01
       89375000    3,456397951e-01   -2,371851802e-01
       89450000    3,489608467e-01   -2,419332862e-01
       89525000    3,493150175e-01   -2,488449067e-01
       89600000    3,503493369e-01   -2,512745857e-01
       89675000    3,521412015e-01   -2,554636300e-01
       89750000    3,515665233e-01   -2,628903985e-01
       89825000    3,529330492e-01   -2,647576332e-01
       89900000    3,565704525e-01   -2,690856159e-01
       89975000    3,557769954e-01   -2,729680836e-01
       90050000    3,572040498e-01   -2,787524462e-01
       90125000    3,574683666e-01   -2,861370146e-01
       90200000    3,590486050e-01   -2,898374498e-01
       90275000    3,601866663e-01   -2,933731675e-01
       90350000    3,578132391e-01   -2,979758382e-01
       90425000    3,609349728e-01   -3,059516251e-01
       90500000    3,611758053e-01   -3,114342391e-01
       90575000    3,623860180e-01   -3,136530817e-01
       90650000    3,621956408e-01   -3,204228580e-01
       90725000    3,648173809e-01   -3,262321651e-01
       90800000    3,636457920e-01   -3,299907446e-01
       90875000    3,638880253e-01   -3,354639113e-01
       90950000    3,613116443e-01   -3,394265473e-01
       91025000    3,631441295e-01   -3,456320763e-01
       91100000    3,616118431e-01   -3,505273163e-01
       91175000    3,613542914e-01   -3,567992151e-01
       91250000    3,572526574e-01   -3,629861772e-01
       91325000    3,598864079e-01   -3,688031733e-01
       91400000    3,570538163e-01   -3,764944971e-01
       91475000    3,589227498e-01   -3,800594509e-01
       91550000    3,566927016e-01   -3,881463408e-01
       91625000    3,565677404e-01   -3,907981515e-01
       91700000    3,542309105e-01   -3,991576731e-01
       91775000    3,540537357e-01   -4,007714689e-01
       91850000    3,539265394e-01   -4,079672098e-01
       91925000    3,492543697e-01   -4,099833965e-01
