! NanoVNA-App
! Date: 2025-08-02 16:18:04
! Start: 65MHz Stop: 95MHz Points: 401
! S-Parameter data: F S11
# Hz S RI R 50
!     Frequency           S11_Real           S11_Imag
       65000000    4,100892246e-01    4,461833462e-02
       65075000    4,154751003e-01    4,144081846e-02
       65150000    4,164926410e-01    3,377816081e-02
       65225000    4,179262221e-01    2,598466352e-02
       65300000    4,185648859e-01    2,064452693e-02
       65375000    4,199121892e-01    1,344496477e-02
       65450000    4,206387699e-01    7,621837780e-03
       65525000    4,207364917e-01    6,039763684e-04
       65600000    4,203085303e-01   -5,980774760e-03
       65675000    4,205250144e-01   -1,286611240e-02
       65750000    4,206196666e-01   -1,858764887e-02
       65825000    4,197262526e-01   -2,519893833e-02
       65900000    4,197293520e-01   -3,070228547e-02
       65975000    4,181518555e-01   -3,742621839e-02
       66050000    4,185316563e-01   -4,271041602e-02
       66125000    4,175972641e-01   -4,853087291e-02
       66200000    4,154787958e-01   -5,338367820e-02
       66275000    4,158347249e-01   -5,908621103e-02
       66350000    4,148976803e-01   -6,388559937e-02
       66425000    4,133957326e-01   -6,901417673e-02
       66500000    4,120808244e-01   -7,427572459e-02
       66575000    4,113630950e-01   -7,929075509e-02
       66650000    4,103166461e-01   -8,451787382e-02
       66725000    4,098826349e-01   -9,043929726e-02
       66800000    4,087584019e-01   -9,405557811e-02
       66875000    4,073581994e-01   -9,951752424e-02
       66950000    4,065065384e-01   -1,035342738e-01
       67025000    4,063844085e-01   -1,084314063e-01
       67100000    4,045509994e-01   -1,140880287e-01
       67175000    4,022355080e-01   -1,178918779e-01
       67250000    4,025891125e-01   -1,239622682e-01
       67325000    4,000488818e-01   -1,282139122e-01
       67400000    3,979839981e-01   -1,337430626e-01
       67475000    3,979724944e-01   -1,392711699e-01
       67550000    3,960544169e-01   -1,425525248e-01
       67625000    3,927985430e-01   -1,476952285e-01
       67700000    3,911360502e-01   -1,537498087e-01
       67775000    3,888452351e-01   -1,584966630e-01
       67850000    3,866154850e-01   -1,624252647e-01
       67925000    3,841440380e-01   -1,670960337e-01
       68000000    3,813157678e-01   -1,702622920e-01
       68075000    3,786205351e-01   -1,741991788e-01
       68150000    3,748884499e-01   -1,794029176e-01
       68225000    3,738806546e-01   -1,833791435e-01
       68300000    3,707294464e-01   -1,881950498e-01
       68375000    3,683677912e-01   -1,899663955e-01
       68450000    3,656013608e-01   -1,932898313e-01
       68525000    3,626986146e-01   -1,956169009e-01
       68600000    3,598119617e-01   -2,002128512e-01
       68675000    3,559855521e-01   -2,030537128e-01
       68750000    3,540203273e-01   -2,071301192e-01
       68825000    3,496463001e-01   -2,111036479e-01
       68900000    3,481860161e-01   -2,133226097e-01
       68975000    3,446657360e-01   -2,173861861e-01
       69050000    3,417221308e-01   -2,189262211e-01
       69125000    3,375760019e-01   -2,225037068e-01
       69200000    3,358826041e-01   -2,240588516e-01
       69275000    3,327335119e-01   -2,265004218e-01
       69350000    3,306213021e-01   -2,285863906e-01
       69425000    3,257538974e-01   -2,316545844e-01
       69500000    3,240089118e-01   -2,329659611e-01
       69575000    3,206179142e-01   -2,358619422e-01
       69650000    3,187001944e-01   -2,359152436e-01
       69725000    3,155953586e-01   -2,387793958e-01
       69800000    3,127192259e-01   -2,393809259e-01
       69875000    3,106317520e-01   -2,415235788e-01
       69950000    3,065867126e-01   -2,411471456e-01
       70025000    3,056465387e-01   -2,431397438e-01
       70100000    3,022587299e-01   -2,429728657e-01
       70175000    2,994344234e-01   -2,454224527e-01
       70250000    2,980527282e-01   -2,466654927e-01
       70325000    2,963847518e-01   -2,488466352e-01
       70400000    2,938016653e-01   -2,486038059e-01
       70475000    2,917836607e-01   -2,487348020e-01
       70550000    2,886295915e-01   -2,507396340e-01
       70625000    2,876484394e-01   -2,520213127e-01
       70700000    2,859471142e-01   -2,523193657e-01
       70775000    2,841582596e-01   -2,519727349e-01
       70850000    2,827197313e-01   -2,540554106e-01
       70925000    2,796499729e-01   -2,576457560e-01
       71000000    2,793789506e-01   -2,573812902e-01
       71075000    2,775807083e-01   -2,574451566e-01
       71150000    2,740505040e-01   -2,603213489e-01
       71225000    2,724242210e-01   -2,595402002e-01
       71300000    2,710392475e-01   -2,607529461e-01
       71375000    2,685182095e-01   -2,632941604e-01
       71450000    2,689922750e-01   -2,632371485e-01
       71525000    2,668965459e-01   -2,658546567e-01
       71600000    2,639060915e-01   -2,647108138e-01
       71675000    2,625425458e-01   -2,679845393e-01
       71750000    2,616717219e-01   -2,685048878e-01
       71825000    2,588039935e-01   -2,704193890e-01
       71900000    2,575667799e-01   -2,700685859e-01
       71975000    2,553417385e-01   -2,714996040e-01
       72050000    2,539259791e-01   -2,712288797e-01
       72125000    2,497492135e-01   -2,714113593e-01
       72200000    2,502267659e-01   -2,736656368e-01
       72275000    2,468671352e-01   -2,753577828e-01
       72350000    2,454120070e-01   -2,748137712e-01
       72425000    2,420011908e-01   -2,770567834e-01
       72500000    2,401051521e-01   -2,812210917e-01
       72575000    2,390601486e-01   -2,781016827e-01
       72650000    2,385794818e-01   -2,772279084e-01
       72725000    2,356672883e-01   -2,788709402e-01
       72800000    2,329905182e-01   -2,790835202e-01
       72875000    2,311104387e-01   -2,796917260e-01
       72950000    2,288692743e-01   -2,803144157e-01
       73025000    2,276418954e-01   -2,794973254e-01
       73100000    2,265210450e-01   -2,787085474e-01
       73175000    2,240801305e-01   -2,801883817e-01
       73250000    2,237662077e-01   -2,798588574e-01
       73325000    2,212783396e-01   -2,810952365e-01
       73400000    2,202937156e-01   -2,802308202e-01
       73475000    2,179284692e-01   -2,810658216e-01
       73550000    2,175357491e-01   -2,786856294e-01
       73625000    2,152997553e-01   -2,794184685e-01
       73700000    2,144882679e-01   -2,782742679e-01
       73775000    2,135610729e-01   -2,779995203e-01
       73850000    2,098578662e-01   -2,781422138e-01
       73925000    2,095914930e-01   -2,793786824e-01
       74000000    2,088012695e-01   -2,786010504e-01
       74075000    2,073342502e-01   -2,789764404e-01
       74150000    2,055932283e-01   -2,775521874e-01
       74225000    2,064824104e-01   -2,767235041e-01
       74300000    2,030737847e-01   -2,765686512e-01
       74375000    2,021654844e-01   -2,767137587e-01
       74450000    2,028048038e-01   -2,777352929e-01
       74525000    2,005020231e-01   -2,763590217e-01
       74600000    2,000370473e-01   -2,773796618e-01
       74675000    2,003227025e-01   -2,752393186e-01
       74750000    1,978849322e-01   -2,753722668e-01
       74825000    1,948011518e-01   -2,742559910e-01
       74900000    1,967969388e-01   -2,750089169e-01
       74975000    1,944051236e-01   -2,757754624e-01
       75050000    1,949487776e-01   -2,730196714e-01
       75125000    1,945496202e-01   -2,751197815e-01
       75200000    1,939737052e-01   -2,728564739e-01
       75275000    1,922259927e-01   -2,739582956e-01
       75350000    1,924699545e-01   -2,731178999e-01
       75425000    1,906864494e-01   -2,718877494e-01
       75500000    1,900985092e-01   -2,707950175e-01
       75575000    1,896506846e-01   -2,710340917e-01
       75650000    1,886307597e-01   -2,698538899e-01
       75725000    1,879580915e-01   -2,698994279e-01
       75800000    1,876896769e-01   -2,695608139e-01
       75875000    1,868135780e-01   -2,686400414e-01
       75950000    1,862072349e-01   -2,677996457e-01
       76025000    1,864211559e-01   -2,677975893e-01
       76100000    1,858468056e-01   -2,673267424e-01
       76175000    1,851921529e-01   -2,657457292e-01
       76250000    1,847237349e-01   -2,670665979e-01
       76325000    1,829712689e-01   -2,652401030e-01
       76400000    1,836683303e-01   -2,648532689e-01
       76475000    1,829729527e-01   -2,664963305e-01
       76550000    1,812402755e-01   -2,639490068e-01
       76625000    1,822589040e-01   -2,633167505e-01
       76700000    1,808520854e-01   -2,628527582e-01
       76775000    1,823402792e-01   -2,607017756e-01
       76850000    1,813714504e-01   -2,608715594e-01
       76925000    1,826200336e-01   -2,605122030e-01
       77000000    1,820186079e-01   -2,592975497e-01
       77075000    1,821685582e-01   -2,580991089e-01
       77150000    1,815768629e-01   -2,571853399e-01
       77225000    1,815392226e-01   -2,563646138e-01
       77300000    1,816868782e-01   -2,537221313e-01
       77375000    1,831333786e-01   -2,525378168e-01
       77450000    1,812428832e-01   -2,530421615e-01
       77525000    1,833387762e-01   -2,511314452e-01
       77600000    1,855720878e-01   -2,505320013e-01
       77675000    1,843452752e-01   -2,510867119e-01
       77750000    1,879495382e-01   -2,487149835e-01
       77825000    1,886649728e-01   -2,483247817e-01
       77900000    1,887660623e-01   -2,485109419e-01
       77975000    1,908924878e-01   -2,462220788e-01
       78050000    1,916479170e-01   -2,454937249e-01
       78125000    1,917827129e-01   -2,461701334e-01
       78200000    1,948585808e-01   -2,436805069e-01
       78275000    1,949484646e-01   -2,444128245e-01
       78350000    1,966331899e-01   -2,432221621e-01
       78425000    1,985131204e-01   -2,436759919e-01
       78500000    2,012038380e-01   -2,422214001e-01
       78575000    2,021936625e-01   -2,417302877e-01
       78650000    2,041402608e-01   -2,413996607e-01
       78725000    2,055019289e-01   -2,424214184e-01
       78800000    2,075069696e-01   -2,413499951e-01
       78875000    2,104614675e-01   -2,402906567e-01
       78950000    2,128265947e-01   -2,419095784e-01
       79025000    2,132253796e-01   -2,413600981e-01
       79100000    2,157835066e-01   -2,420739383e-01
       79175000    2,172451317e-01   -2,446074784e-01
       79250000    2,196639180e-01   -2,443311214e-01
       79325000    2,220517993e-01   -2,452972978e-01
       79400000    2,247821540e-01   -2,450809777e-01
       79475000    2,262472510e-01   -2,459157854e-01
       79550000    2,262594402e-01   -2,473790348e-01
       79625000    2,302999496e-01   -2,485502213e-01
       79700000    2,323892862e-01   -2,504502535e-01
       79775000    2,340044379e-01   -2,498926073e-01
       79850000    2,354173213e-01   -2,525174320e-01
       79925000    2,373780012e-01   -2,537236512e-01
       80000000    2,405064553e-01   -2,539546490e-01
       80075000    2,404927164e-01   -2,576473653e-01
       80150000    2,422018647e-01   -2,597574890e-01
       80225000    2,435892671e-01   -2,590783536e-01
       80300000    2,459563762e-01   -2,619505525e-01
       80375000    2,458186597e-01   -2,632260919e-01
       80450000    2,495082021e-01   -2,655002177e-01
       80525000    2,500662208e-01   -2,685388923e-01
       80600000    2,521533072e-01   -2,698772550e-01
       80675000    2,538726330e-01   -2,726785541e-01
       80750000    2,530684173e-01   -2,734540701e-01
       80825000    2,546132505e-01   -2,763881981e-01
       80900000    2,564049363e-01   -2,790389955e-01
       80975000    2,572622895e-01   -2,797448933e-01
       81050000    2,577899992e-01   -2,838902473e-01
       81125000    2,582857907e-01   -2,860274315e-01
       81200000    2,587981224e-01   -2,885167301e-01
       81275000    2,580669224e-01   -2,905788720e-01
       81350000    2,608549893e-01   -2,931701243e-01
       81425000    2,611039877e-01   -2,951636314e-01
       81500000    2,607728541e-01   -2,966545224e-01
       81575000    2,620478868e-01   -2,998839915e-01
       81650000    2,599069476e-01   -3,029114604e-01
       81725000    2,606736124e-01   -3,040173650e-01
       81800000    2,604939342e-01   -3,066508472e-01
       81875000    2,596333623e-01   -3,096588254e-01
       81950000    2,609227598e-01   -3,107655644e-01
       82025000    2,602159679e-01   -3,135073781e-01
       82100000    2,605250478e-01   -3,131339848e-01
       82175000    2,601835132e-01   -3,173446953e-01
       82250000    2,602070570e-01   -3,179343045e-01
       82325000    2,596761584e-01   -3,187168837e-01
       82400000    2,591206431e-01   -3,192637861e-01
       82475000    2,584998906e-01   -3,215628266e-01
       82550000    2,571396530e-01   -3,229548335e-01
       82625000    2,579034269e-01   -3,245145679e-01
       82700000    2,572594583e-01   -3,258766830e-01
       82775000    2,567186654e-01   -3,271009624e-01
       82850000    2,565052807e-01   -3,271020353e-01
       82925000    2,572801411e-01   -3,291215897e-01
       83000000    2,562889457e-01   -3,306619227e-01
       83075000    2,572429776e-01   -3,319177628e-01
       83150000    2,561980188e-01   -3,322736323e-01
       83225000    2,574152648e-01   -3,343339860e-01
       83300000    2,571616769e-01   -3,353436589e-01
       83375000    2,580567598e-01   -3,364250660e-01
       83450000    2,600266933e-01   -3,375253081e-01
       83525000    2,591854930e-01   -3,368180096e-01
       83600000    2,598518431e-01   -3,394736052e-01
       83675000    2,571631372e-01   -3,415964246e-01
       83750000    2,601064146e-01   -3,415036798e-01
       83825000    2,610594630e-01   -3,430120945e-01
       83900000    2,615685165e-01   -3,435502052e-01
       83975000    2,631978393e-01   -3,445225358e-01
       84050000    2,620678842e-01   -3,452169895e-01
       84125000    2,629057169e-01   -3,473208249e-01
       84200000    2,623307407e-01   -3,499760926e-01
       84275000    2,655965090e-01   -3,497317135e-01
       84350000    2,645420432e-01   -3,523869514e-01
       84425000    2,662050426e-01   -3,521798551e-01
       84500000    2,667000890e-01   -3,544350266e-01
       84575000    2,637589574e-01   -3,562671840e-01
       84650000    2,679047883e-01   -3,570378125e-01
       84725000    2,685488462e-01   -3,594514728e-01
       84800000    2,686036527e-01   -3,589262068e-01
       84875000    2,703690827e-01   -3,613925576e-01
       84950000    2,689623535e-01   -3,633333445e-01
       85025000    2,695978880e-01   -3,634452522e-01
       85100000    2,718288600e-01   -3,665462732e-01
       85175000    2,727619112e-01   -3,691279590e-01
       85250000    2,736707330e-01   -3,694179952e-01
       85325000    2,748434842e-01   -3,706486225e-01
       85400000    2,746517360e-01   -3,721359074e-01
       85475000    2,753231227e-01   -3,746972680e-01
       85550000    2,762785554e-01   -3,761993349e-01
       85625000    2,774350643e-01   -3,790932894e-01
       85700000    2,794988453e-01   -3,796256483e-01
       85775000    2,791416049e-01   -3,821333349e-01
       85850000    2,808574140e-01   -3,854551613e-01
       85925000    2,802646756e-01   -3,872868717e-01
       86000000    2,825114429e-01   -3,898513317e-01
       86075000    2,817249894e-01   -3,931092620e-01
       86150000    2,858163118e-01   -3,933734000e-01
       86225000    2,869833708e-01   -3,964149058e-01
       86300000    2,866016328e-01   -3,991382718e-01
       86375000    2,879348695e-01   -4,004766345e-01
       86450000    2,882348299e-01   -4,033495188e-01
       86525000    2,895038128e-01   -4,071134329e-01
       86600000    2,897244394e-01   -4,092064500e-01
       86675000    2,890903652e-01   -4,107415080e-01
       86750000    2,905071080e-01   -4,158025980e-01
       86825000    2,922412753e-01   -4,192503095e-01
       86900000    2,911148667e-01   -4,225377440e-01
       86975000    2,917509377e-01   -4,274576306e-01
       87050000    2,931871116e-01   -4,275689125e-01
       87125000    2,926657498e-01   -4,312803745e-01
       87200000    2,914024591e-01   -4,356168509e-01
       87275000    2,938041091e-01   -4,380323291e-01
       87350000    2,928935587e-01   -4,413948953e-01
       87425000    2,915764153e-01   -4,443510175e-01
       87500000    2,929240465e-01   -4,455263615e-01
       87575000    2,911805212e-01   -4,519266486e-01
       87650000    2,941155136e-01   -4,509134293e-01
       87725000    2,929756641e-01   -4,573092461e-01
       87800000    2,930501103e-01   -4,599761069e-01
       87875000    2,926779389e-01   -4,634547532e-01
       87950000    2,897455990e-01   -4,671767354e-01
       88025000    2,902765870e-01   -4,685717225e-01
       88100000    2,897650003e-01   -4,737356305e-01
       88175000    2,916514575e-01   -4,766585827e-01
       88250000    2,892825603e-01   -4,780285358e-01
       88325000    2,891485095e-01   -4,825977087e-01
       88400000    2,856468856e-01   -4,854857028e-01
       88475000    2,880963981e-01   -4,882284403e-01
       88550000    2,866339982e-01   -4,924674928e-01
       88625000    2,875003219e-01   -4,936234653e-01
       88700000    2,864969373e-01   -4,986517429e-01
       88775000    2,859804332e-01   -5,001138449e-01
       88850000    2,844422162e-01   -5,045167208e-01
       88925000    2,851334512e-01   -5,057511926e-01
       89000000    2,848319113e-01   -5,102560520e-01
       89075000    2,828103900e-01   -5,124222040e-01
       89150000    2,827058434e-01   -5,170375705e-01
       89225000    2,797766030e-01   -5,201343298e-01
       89300000    2,792056501e-01   -5,243110657e-01
       89375000    2,782538831e-01   -5,265678167e-01
       89450000    2,796370089e-01   -5,304545760e-01
       89525000    2,784186304e-01   -5,346990824e-01
       89600000    2,786144316e-01   -5,360037088e-01
       89675000    2,758824229e-01   -5,411223769e-01
       89750000    2,743489146e-01   -5,460014939e-01
       89825000    2,718931437e-01   -5,478950739e-01
       89900000    2,719568610e-01   -5,527478456e-01
       89975000    2,684779465e-01   -5,558264852e-01
       90050000    2,698528171e-01   -5,589159727e-01
       90125000    2,676547170e-01   -5,633684397e-01
       90200000    2,687220871e-01   -5,646702647e-01
       90275000    2,653981745e-01   -5,691960454e-01
       90350000    2,634491324e-01   -5,752266049e-01
       90425000    2,623406053e-01   -5,772462487e-01
       90500000    2,605737746e-01   -5,816394687e-01
       90575000    2,567396462e-01   -5,831797123e-01
       90650000    2,571604550e-01   -5,872583389e-01
       90725000    2,554008961e-01   -5,911207795e-01
       90800000    2,504514754e-01   -5,920202136e-01
       90875000    2,501044571e-01   -5,984702110e-01
       90950000    2,474061251e-01   -6,023512483e-01
       91025000    2,464190722e-01   -6,057991982e-01
       91100000    2,412013859e-01   -6,099535227e-01
       91175000    2,407909781e-01   -6,122246385e-01
       91250000    2,365506738e-01   -6,167197227e-01
       91325000    2,358556390e-01   -6,192185879e-01
       91400000    2,327298373e-01   -6,235100031e-01
       91475000    2,311329246e-01   -6,249175668e-01
       91550000    2,281922996e-01   -6,299071908e-01
       91625000    2,258679420e-01   -6,319288611e-01
       91700000    2,221415043e-01   -6,353732944e-01
       91775000    2,163597196e-01   -6,379447579e-01
       91850000    2,151924819e-01   -6,423141360e-01
       91925000    2,101695240e-01   -6,452144980e-01
